<Qucs Dataset 0.0.17>
<indep Tmax 1>
  +4.00000000000e-02
</indep>
<indep Tperiod 1>
  +2.00000000000e-02
</indep>
<indep Vfreq 1>
  +5.00000000000e+01
</indep>
<indep Vamp 1>
  +3.11126983722e+02
</indep>
<indep Veff 1>
  +2.20000000000e+02
</indep>
<indep time 201>
  +0.00000000000e+00
  +2.00000000000e-04
  +4.00000000000e-04
  +6.00000000000e-04
  +8.00000000000e-04
  +1.00000000000e-03
  +1.20000000000e-03
  +1.40000000000e-03
  +1.60000000000e-03
  +1.80000000000e-03
  +2.00000000000e-03
  +2.20000000000e-03
  +2.40000000000e-03
  +2.60000000000e-03
  +2.80000000000e-03
  +3.00000000000e-03
  +3.20000000000e-03
  +3.40000000000e-03
  +3.60000000000e-03
  +3.80000000000e-03
  +4.00000000000e-03
  +4.20000000000e-03
  +4.40000000000e-03
  +4.60000000000e-03
  +4.80000000000e-03
  +5.00000000000e-03
  +5.20000000000e-03
  +5.40000000000e-03
  +5.60000000000e-03
  +5.80000000000e-03
  +6.00000000000e-03
  +6.20000000000e-03
  +6.40000000000e-03
  +6.60000000000e-03
  +6.80000000000e-03
  +7.00000000000e-03
  +7.20000000000e-03
  +7.40000000000e-03
  +7.60000000000e-03
  +7.80000000000e-03
  +8.00000000000e-03
  +8.20000000000e-03
  +8.40000000000e-03
  +8.60000000000e-03
  +8.80000000000e-03
  +9.00000000000e-03
  +9.20000000000e-03
  +9.40000000000e-03
  +9.60000000000e-03
  +9.80000000000e-03
  +1.00000000000e-02
  +1.02000000000e-02
  +1.04000000000e-02
  +1.06000000000e-02
  +1.08000000000e-02
  +1.10000000000e-02
  +1.12000000000e-02
  +1.14000000000e-02
  +1.16000000000e-02
  +1.18000000000e-02
  +1.20000000000e-02
  +1.22000000000e-02
  +1.24000000000e-02
  +1.26000000000e-02
  +1.28000000000e-02
  +1.30000000000e-02
  +1.32000000000e-02
  +1.34000000000e-02
  +1.36000000000e-02
  +1.38000000000e-02
  +1.40000000000e-02
  +1.42000000000e-02
  +1.44000000000e-02
  +1.46000000000e-02
  +1.48000000000e-02
  +1.50000000000e-02
  +1.52000000000e-02
  +1.54000000000e-02
  +1.56000000000e-02
  +1.58000000000e-02
  +1.60000000000e-02
  +1.62000000000e-02
  +1.64000000000e-02
  +1.66000000000e-02
  +1.68000000000e-02
  +1.70000000000e-02
  +1.72000000000e-02
  +1.74000000000e-02
  +1.76000000000e-02
  +1.78000000000e-02
  +1.80000000000e-02
  +1.82000000000e-02
  +1.84000000000e-02
  +1.86000000000e-02
  +1.88000000000e-02
  +1.90000000000e-02
  +1.92000000000e-02
  +1.94000000000e-02
  +1.96000000000e-02
  +1.98000000000e-02
  +2.00000000000e-02
  +2.02000000000e-02
  +2.04000000000e-02
  +2.06000000000e-02
  +2.08000000000e-02
  +2.10000000000e-02
  +2.12000000000e-02
  +2.14000000000e-02
  +2.16000000000e-02
  +2.18000000000e-02
  +2.20000000000e-02
  +2.22000000000e-02
  +2.24000000000e-02
  +2.26000000000e-02
  +2.28000000000e-02
  +2.30000000000e-02
  +2.32000000000e-02
  +2.34000000000e-02
  +2.36000000000e-02
  +2.38000000000e-02
  +2.40000000000e-02
  +2.42000000000e-02
  +2.44000000000e-02
  +2.46000000000e-02
  +2.48000000000e-02
  +2.50000000000e-02
  +2.52000000000e-02
  +2.54000000000e-02
  +2.56000000000e-02
  +2.58000000000e-02
  +2.60000000000e-02
  +2.62000000000e-02
  +2.64000000000e-02
  +2.66000000000e-02
  +2.68000000000e-02
  +2.70000000000e-02
  +2.72000000000e-02
  +2.74000000000e-02
  +2.76000000000e-02
  +2.78000000000e-02
  +2.80000000000e-02
  +2.82000000000e-02
  +2.84000000000e-02
  +2.86000000000e-02
  +2.88000000000e-02
  +2.90000000000e-02
  +2.92000000000e-02
  +2.94000000000e-02
  +2.96000000000e-02
  +2.98000000000e-02
  +3.00000000000e-02
  +3.02000000000e-02
  +3.04000000000e-02
  +3.06000000000e-02
  +3.08000000000e-02
  +3.10000000000e-02
  +3.12000000000e-02
  +3.14000000000e-02
  +3.16000000000e-02
  +3.18000000000e-02
  +3.20000000000e-02
  +3.22000000000e-02
  +3.24000000000e-02
  +3.26000000000e-02
  +3.28000000000e-02
  +3.30000000000e-02
  +3.32000000000e-02
  +3.34000000000e-02
  +3.36000000000e-02
  +3.38000000000e-02
  +3.40000000000e-02
  +3.42000000000e-02
  +3.44000000000e-02
  +3.46000000000e-02
  +3.48000000000e-02
  +3.50000000000e-02
  +3.52000000000e-02
  +3.54000000000e-02
  +3.56000000000e-02
  +3.58000000000e-02
  +3.60000000000e-02
  +3.62000000000e-02
  +3.64000000000e-02
  +3.66000000000e-02
  +3.68000000000e-02
  +3.70000000000e-02
  +3.72000000000e-02
  +3.74000000000e-02
  +3.76000000000e-02
  +3.78000000000e-02
  +3.80000000000e-02
  +3.82000000000e-02
  +3.84000000000e-02
  +3.86000000000e-02
  +3.88000000000e-02
  +3.90000000000e-02
  +3.92000000000e-02
  +3.94000000000e-02
  +3.96000000000e-02
  +3.98000000000e-02
  +4.00000000000e-02
</indep>
<dep V1.It time>
  +0.00000000000e+00
  -1.87457360368e-02
  -3.81860680522e-02
  -5.74803274896e-02
  -7.65476728837e-02
  -9.53113960394e-02
  -1.13696792447e-01
  -1.31630950934e-01
  -1.49042880106e-01
  -1.65863722640e-01
  -1.82026996818e-01
  -1.97468842414e-01
  -2.12128264162e-01
  -2.25947366570e-01
  -2.38871579461e-01
  -2.50849870616e-01
  -2.61834946121e-01
  -2.71783435472e-01
  -2.80656062459e-01
  -2.88417799139e-01
  -2.95038004146e-01
  -3.00490542845e-01
  -3.04753890718e-01
  -3.07811217680e-01
  -3.09650454854e-01
  -3.10264341647e-01
  -3.09650454837e-01
  -3.07811217647e-01
  -3.04753890669e-01
  -3.00490542779e-01
  -2.95038004063e-01
  -2.88417799038e-01
  -2.80656062341e-01
  -2.71783435337e-01
  -2.61834945968e-01
  -2.50849870445e-01
  -2.38871579271e-01
  -2.25947366359e-01
  -2.12128263931e-01
  -1.97468842161e-01
  -1.82026996541e-01
  -1.65863722337e-01
  -1.49042879775e-01
  -1.31630950570e-01
  -1.13696792045e-01
  -9.53113955908e-02
  -7.65476723744e-02
  -5.74803268948e-02
  -3.81860673182e-02
  -1.87457349978e-02
  +1.37076128640e-09
  +1.87457354446e-02
  +3.81860686444e-02
  +5.74803268974e-02
  +7.65476734759e-02
  +9.53113954472e-02
  +1.13696793039e-01
  +1.31630950342e-01
  +1.49042880698e-01
  +1.65863722048e-01
  +1.82026997410e-01
  +1.97468841822e-01
  +2.12128264754e-01
  +2.25947365978e-01
  +2.38871580053e-01
  +2.50849870024e-01
  +2.61834946713e-01
  +2.71783434880e-01
  +2.80656063051e-01
  +2.88417798546e-01
  +2.95038004739e-01
  +3.00490542253e-01
  +3.04753891311e-01
  +3.07811217088e-01
  +3.09650455446e-01
  +3.10264341055e-01
  +3.09650455430e-01
  +3.07811217055e-01
  +3.04753891261e-01
  +3.00490542187e-01
  +2.95038004656e-01
  +2.88417798446e-01
  +2.80656062934e-01
  +2.71783434745e-01
  +2.61834946560e-01
  +2.50849869853e-01
  +2.38871579863e-01
  +2.25947365767e-01
  +2.12128264523e-01
  +1.97468841569e-01
  +1.82026997134e-01
  +1.65863721745e-01
  +1.49042880367e-01
  +1.31630949978e-01
  +1.13696792637e-01
  +9.53113949986e-02
  +7.65476729666e-02
  +5.74803263026e-02
  +3.81860679104e-02
  +1.87457344060e-02
  -7.61966767837e-10
  -1.87457348362e-02
  -3.81860692528e-02
  -5.74803262890e-02
  -7.65476740843e-02
  -9.53113948388e-02
  -1.13696793648e-01
  -1.31630949733e-01
  -1.49042881307e-01
  -1.65863721439e-01
  -1.82026998019e-01
  -1.97468841214e-01
  -2.12128265363e-01
  -2.25947365369e-01
  -2.38871580662e-01
  -2.50849869416e-01
  -2.61834947322e-01
  -2.71783434272e-01
  -2.80656063659e-01
  -2.88417797938e-01
  -2.95038005347e-01
  -3.00490541644e-01
  -3.04753891919e-01
  -3.07811216480e-01
  -3.09650456055e-01
  -3.10264340446e-01
  -3.09650456038e-01
  -3.07811216447e-01
  -3.04753891869e-01
  -3.00490541578e-01
  -2.95038005264e-01
  -2.88417797838e-01
  -2.80656063542e-01
  -2.71783434137e-01
  -2.61834947169e-01
  -2.50849869245e-01
  -2.38871580471e-01
  -2.25947365159e-01
  -2.12128265132e-01
  -1.97468840961e-01
  -1.82026997742e-01
  -1.65863721137e-01
  -1.49042880975e-01
  -1.31630949370e-01
  -1.13696793246e-01
  -9.53113943902e-02
  -7.65476735750e-02
  -5.74803256942e-02
  -3.81860685188e-02
  -1.87457337976e-02
  +1.49480955971e-10
  +1.87457342238e-02
  +3.81860698653e-02
  +5.74803256765e-02
  +7.65476746967e-02
  +9.53113942264e-02
  +1.13696794260e-01
  +1.31630949121e-01
  +1.49042881919e-01
  +1.65863720827e-01
  +1.82026998631e-01
  +1.97468840601e-01
  +2.12128265975e-01
  +2.25947364756e-01
  +2.38871581275e-01
  +2.50849868803e-01
  +2.61834947934e-01
  +2.71783433659e-01
  +2.80656064272e-01
  +2.88417797325e-01
  +2.95038005960e-01
  +3.00490541032e-01
  +3.04753892531e-01
  +3.07811215868e-01
  +3.09650456667e-01
  +3.10264339834e-01
  +3.09650456651e-01
  +3.07811215835e-01
  +3.04753892482e-01
  +3.00490540965e-01
  +2.95038005876e-01
  +2.88417797225e-01
  +2.80656064154e-01
  +2.71783433524e-01
  +2.61834947781e-01
  +2.50849868632e-01
  +2.38871581084e-01
  +2.25947364546e-01
  +2.12128265744e-01
  +1.97468840348e-01
  +1.82026998354e-01
  +1.65863720524e-01
  +1.49042881588e-01
  +1.31630948757e-01
  +1.13696793858e-01
  +9.53113937778e-02
  +7.65476741875e-02
  +5.74803250817e-02
  +3.81860691313e-02
  +1.87457331852e-02
  +4.63451254062e-10
</dep>
<dep out.Vt time>
  +0.00000000000e+00
  +1.87457355326e+01
  +3.81860676702e+01
  +5.74803272071e+01
  +7.65476726140e+01
  +9.53113958301e+01
  +1.13696792231e+02
  +1.31630950767e+02
  +1.49042879925e+02
  +1.65863722503e+02
  +1.82026996665e+02
  +1.97468842303e+02
  +2.12128264032e+02
  +2.25947366480e+02
  +2.38871579351e+02
  +2.50849870546e+02
  +2.61834946030e+02
  +2.71783435420e+02
  +2.80656062385e+02
  +2.88417799104e+02
  +2.95038004090e+02
  +3.00490542827e+02
  +3.04753890679e+02
  +3.07811217679e+02
  +3.09650454831e+02
  +3.10264341662e+02
  +3.09650454831e+02
  +3.07811217679e+02
  +3.04753890679e+02
  +3.00490542827e+02
  +2.95038004090e+02
  +2.88417799104e+02
  +2.80656062385e+02
  +2.71783435420e+02
  +2.61834946030e+02
  +2.50849870546e+02
  +2.38871579351e+02
  +2.25947366480e+02
  +2.12128264032e+02
  +1.97468842303e+02
  +1.82026996665e+02
  +1.65863722503e+02
  +1.49042879925e+02
  +1.31630950767e+02
  +1.13696792231e+02
  +9.53113958301e+01
  +7.65476726141e+01
  +5.74803272073e+01
  +3.81860676704e+01
  +1.87457355333e+01
  +6.16438268311e-07
  +1.87457355326e+01
  +3.81860676702e+01
  +5.74803272071e+01
  +7.65476726140e+01
  +9.53113958301e+01
  +1.13696792231e+02
  +1.31630950767e+02
  +1.49042879925e+02
  +1.65863722503e+02
  +1.82026996665e+02
  +1.97468842303e+02
  +2.12128264032e+02
  +2.25947366480e+02
  +2.38871579351e+02
  +2.50849870546e+02
  +2.61834946030e+02
  +2.71783435420e+02
  +2.80656062385e+02
  +2.88417799104e+02
  +2.95038004090e+02
  +3.00490542827e+02
  +3.04753890679e+02
  +3.07811217679e+02
  +3.09650454831e+02
  +3.10264341662e+02
  +3.09650454831e+02
  +3.07811217679e+02
  +3.04753890679e+02
  +3.00490542827e+02
  +2.95038004090e+02
  +2.88417799104e+02
  +2.80656062385e+02
  +2.71783435420e+02
  +2.61834946030e+02
  +2.50849870546e+02
  +2.38871579351e+02
  +2.25947366480e+02
  +2.12128264032e+02
  +1.97468842303e+02
  +1.82026996665e+02
  +1.65863722503e+02
  +1.49042879925e+02
  +1.31630950767e+02
  +1.13696792231e+02
  +9.53113958301e+01
  +7.65476726141e+01
  +5.74803272073e+01
  +3.81860676704e+01
  +1.87457355333e+01
  +6.08465095316e-07
  +1.87457355326e+01
  +3.81860676702e+01
  +5.74803272071e+01
  +7.65476726140e+01
  +9.53113958301e+01
  +1.13696792231e+02
  +1.31630950767e+02
  +1.49042879925e+02
  +1.65863722503e+02
  +1.82026996665e+02
  +1.97468842303e+02
  +2.12128264032e+02
  +2.25947366480e+02
  +2.38871579351e+02
  +2.50849870546e+02
  +2.61834946030e+02
  +2.71783435420e+02
  +2.80656062385e+02
  +2.88417799104e+02
  +2.95038004090e+02
  +3.00490542827e+02
  +3.04753890679e+02
  +3.07811217679e+02
  +3.09650454831e+02
  +3.10264341662e+02
  +3.09650454831e+02
  +3.07811217679e+02
  +3.04753890679e+02
  +3.00490542827e+02
  +2.95038004090e+02
  +2.88417799104e+02
  +2.80656062385e+02
  +2.71783435420e+02
  +2.61834946030e+02
  +2.50849870546e+02
  +2.38871579351e+02
  +2.25947366480e+02
  +2.12128264032e+02
  +1.97468842303e+02
  +1.82026996665e+02
  +1.65863722503e+02
  +1.49042879925e+02
  +1.31630950767e+02
  +1.13696792231e+02
  +9.53113958301e+01
  +7.65476726141e+01
  +5.74803272073e+01
  +3.81860676704e+01
  +1.87457355333e+01
  +6.08722429857e-07
  +1.87457355326e+01
  +3.81860676702e+01
  +5.74803272071e+01
  +7.65476726140e+01
  +9.53113958301e+01
  +1.13696792231e+02
  +1.31630950767e+02
  +1.49042879925e+02
  +1.65863722503e+02
  +1.82026996665e+02
  +1.97468842303e+02
  +2.12128264032e+02
  +2.25947366480e+02
  +2.38871579351e+02
  +2.50849870546e+02
  +2.61834946030e+02
  +2.71783435420e+02
  +2.80656062385e+02
  +2.88417799104e+02
  +2.95038004090e+02
  +3.00490542827e+02
  +3.04753890679e+02
  +3.07811217679e+02
  +3.09650454831e+02
  +3.10264341662e+02
  +3.09650454831e+02
  +3.07811217679e+02
  +3.04753890679e+02
  +3.00490542827e+02
  +2.95038004090e+02
  +2.88417799104e+02
  +2.80656062385e+02
  +2.71783435420e+02
  +2.61834946030e+02
  +2.50849870546e+02
  +2.38871579351e+02
  +2.25947366480e+02
  +2.12128264032e+02
  +1.97468842303e+02
  +1.82026996665e+02
  +1.65863722503e+02
  +1.49042879925e+02
  +1.31630950767e+02
  +1.13696792231e+02
  +9.53113958301e+01
  +7.65476726141e+01
  +5.74803272073e+01
  +3.81860676704e+01
  +1.87457355333e+01
  +6.08738171111e-07
</dep>
<dep _net1.Vt time>
  +0.00000000000e+00
  -1.95358249475e+01
  -3.89945509190e+01
  -5.82993832129e+01
  -7.73741344758e+01
  -9.61435253787e+01
  -1.14533481711e+02
  -1.32471426716e+02
  -1.49886567520e+02
  -1.66710174519e+02
  -1.82875852622e+02
  -1.98319803283e+02
  -2.12981076283e+02
  -2.26801810278e+02
  -2.39727461143e+02
  -2.51707017240e+02
  -2.62693200734e+02
  -2.72642654178e+02
  -2.81516111624e+02
  -2.89278553590e+02
  -2.95899345264e+02
  -3.01352357406e+02
  -3.05616069468e+02
  -3.08673654526e+02
  -3.10513045690e+02
  -3.11126983722e+02
  -3.10513045690e+02
  -3.08673654526e+02
  -3.05616069468e+02
  -3.01352357406e+02
  -2.95899345264e+02
  -2.89278553590e+02
  -2.81516111624e+02
  -2.72642654178e+02
  -2.62693200734e+02
  -2.51707017240e+02
  -2.39727461143e+02
  -2.26801810278e+02
  -2.12981076283e+02
  -1.98319803283e+02
  -1.82875852622e+02
  -1.66710174519e+02
  -1.49886567520e+02
  -1.32471426716e+02
  -1.14533481711e+02
  -9.61435253787e+01
  -7.73741344758e+01
  -5.82993832129e+01
  -3.89945509190e+01
  -1.95358249475e+01
  -3.81020664744e-14
  +1.95358249475e+01
  +3.89945509190e+01
  +5.82993832129e+01
  +7.73741344758e+01
  +9.61435253787e+01
  +1.14533481711e+02
  +1.32471426716e+02
  +1.49886567520e+02
  +1.66710174519e+02
  +1.82875852622e+02
  +1.98319803283e+02
  +2.12981076283e+02
  +2.26801810278e+02
  +2.39727461143e+02
  +2.51707017240e+02
  +2.62693200734e+02
  +2.72642654178e+02
  +2.81516111624e+02
  +2.89278553590e+02
  +2.95899345264e+02
  +3.01352357406e+02
  +3.05616069468e+02
  +3.08673654526e+02
  +3.10513045690e+02
  +3.11126983722e+02
  +3.10513045690e+02
  +3.08673654526e+02
  +3.05616069468e+02
  +3.01352357406e+02
  +2.95899345264e+02
  +2.89278553590e+02
  +2.81516111624e+02
  +2.72642654178e+02
  +2.62693200734e+02
  +2.51707017240e+02
  +2.39727461143e+02
  +2.26801810278e+02
  +2.12981076283e+02
  +1.98319803283e+02
  +1.82875852622e+02
  +1.66710174519e+02
  +1.49886567520e+02
  +1.32471426716e+02
  +1.14533481711e+02
  +9.61435253787e+01
  +7.73741344758e+01
  +5.82993832129e+01
  +3.89945509190e+01
  +1.95358249475e+01
  +7.62041329487e-14
  -1.95358249475e+01
  -3.89945509190e+01
  -5.82993832129e+01
  -7.73741344758e+01
  -9.61435253787e+01
  -1.14533481711e+02
  -1.32471426716e+02
  -1.49886567520e+02
  -1.66710174519e+02
  -1.82875852622e+02
  -1.98319803283e+02
  -2.12981076283e+02
  -2.26801810278e+02
  -2.39727461143e+02
  -2.51707017240e+02
  -2.62693200734e+02
  -2.72642654178e+02
  -2.81516111624e+02
  -2.89278553590e+02
  -2.95899345264e+02
  -3.01352357406e+02
  -3.05616069468e+02
  -3.08673654526e+02
  -3.10513045690e+02
  -3.11126983722e+02
  -3.10513045690e+02
  -3.08673654526e+02
  -3.05616069468e+02
  -3.01352357406e+02
  -2.95899345264e+02
  -2.89278553590e+02
  -2.81516111624e+02
  -2.72642654178e+02
  -2.62693200734e+02
  -2.51707017240e+02
  -2.39727461143e+02
  -2.26801810278e+02
  -2.12981076283e+02
  -1.98319803283e+02
  -1.82875852622e+02
  -1.66710174519e+02
  -1.49886567520e+02
  -1.32471426716e+02
  -1.14533481711e+02
  -9.61435253787e+01
  -7.73741344758e+01
  -5.82993832129e+01
  -3.89945509190e+01
  -1.95358249475e+01
  +4.38366346034e-13
  +1.95358249475e+01
  +3.89945509190e+01
  +5.82993832129e+01
  +7.73741344758e+01
  +9.61435253787e+01
  +1.14533481711e+02
  +1.32471426716e+02
  +1.49886567520e+02
  +1.66710174519e+02
  +1.82875852622e+02
  +1.98319803283e+02
  +2.12981076283e+02
  +2.26801810278e+02
  +2.39727461143e+02
  +2.51707017240e+02
  +2.62693200734e+02
  +2.72642654178e+02
  +2.81516111624e+02
  +2.89278553590e+02
  +2.95899345264e+02
  +3.01352357406e+02
  +3.05616069468e+02
  +3.08673654526e+02
  +3.10513045690e+02
  +3.11126983722e+02
  +3.10513045690e+02
  +3.08673654526e+02
  +3.05616069468e+02
  +3.01352357406e+02
  +2.95899345264e+02
  +2.89278553590e+02
  +2.81516111624e+02
  +2.72642654178e+02
  +2.62693200734e+02
  +2.51707017240e+02
  +2.39727461143e+02
  +2.26801810278e+02
  +2.12981076283e+02
  +1.98319803283e+02
  +1.82875852622e+02
  +1.66710174519e+02
  +1.49886567520e+02
  +1.32471426716e+02
  +1.14533481711e+02
  +9.61435253787e+01
  +7.73741344758e+01
  +5.82993832129e+01
  +3.89945509190e+01
  +1.95358249475e+01
  +1.52408265897e-13
</dep>
<dep _net0.Vt time>
  +0.00000000000e+00
  +1.95358249475e+01
  +3.89945509190e+01
  +5.82993832129e+01
  +7.73741344758e+01
  +9.61435253787e+01
  +1.14533481711e+02
  +1.32471426716e+02
  +1.49886567520e+02
  +1.66710174519e+02
  +1.82875852622e+02
  +1.98319803283e+02
  +2.12981076283e+02
  +2.26801810278e+02
  +2.39727461143e+02
  +2.51707017240e+02
  +2.62693200734e+02
  +2.72642654178e+02
  +2.81516111624e+02
  +2.89278553590e+02
  +2.95899345264e+02
  +3.01352357406e+02
  +3.05616069468e+02
  +3.08673654526e+02
  +3.10513045690e+02
  +3.11126983722e+02
  +3.10513045690e+02
  +3.08673654526e+02
  +3.05616069468e+02
  +3.01352357406e+02
  +2.95899345264e+02
  +2.89278553590e+02
  +2.81516111624e+02
  +2.72642654178e+02
  +2.62693200734e+02
  +2.51707017240e+02
  +2.39727461143e+02
  +2.26801810278e+02
  +2.12981076283e+02
  +1.98319803283e+02
  +1.82875852622e+02
  +1.66710174519e+02
  +1.49886567520e+02
  +1.32471426716e+02
  +1.14533481711e+02
  +9.61435253787e+01
  +7.73741344758e+01
  +5.82993832129e+01
  +3.89945509190e+01
  +1.95358249475e+01
  +3.81020664744e-14
  -1.95358249475e+01
  -3.89945509190e+01
  -5.82993832129e+01
  -7.73741344758e+01
  -9.61435253787e+01
  -1.14533481711e+02
  -1.32471426716e+02
  -1.49886567520e+02
  -1.66710174519e+02
  -1.82875852622e+02
  -1.98319803283e+02
  -2.12981076283e+02
  -2.26801810278e+02
  -2.39727461143e+02
  -2.51707017240e+02
  -2.62693200734e+02
  -2.72642654178e+02
  -2.81516111624e+02
  -2.89278553590e+02
  -2.95899345264e+02
  -3.01352357406e+02
  -3.05616069468e+02
  -3.08673654526e+02
  -3.10513045690e+02
  -3.11126983722e+02
  -3.10513045690e+02
  -3.08673654526e+02
  -3.05616069468e+02
  -3.01352357406e+02
  -2.95899345264e+02
  -2.89278553590e+02
  -2.81516111624e+02
  -2.72642654178e+02
  -2.62693200734e+02
  -2.51707017240e+02
  -2.39727461143e+02
  -2.26801810278e+02
  -2.12981076283e+02
  -1.98319803283e+02
  -1.82875852622e+02
  -1.66710174519e+02
  -1.49886567520e+02
  -1.32471426716e+02
  -1.14533481711e+02
  -9.61435253787e+01
  -7.73741344758e+01
  -5.82993832129e+01
  -3.89945509190e+01
  -1.95358249475e+01
  -7.62041329487e-14
  +1.95358249475e+01
  +3.89945509190e+01
  +5.82993832129e+01
  +7.73741344758e+01
  +9.61435253787e+01
  +1.14533481711e+02
  +1.32471426716e+02
  +1.49886567520e+02
  +1.66710174519e+02
  +1.82875852622e+02
  +1.98319803283e+02
  +2.12981076283e+02
  +2.26801810278e+02
  +2.39727461143e+02
  +2.51707017240e+02
  +2.62693200734e+02
  +2.72642654178e+02
  +2.81516111624e+02
  +2.89278553590e+02
  +2.95899345264e+02
  +3.01352357406e+02
  +3.05616069468e+02
  +3.08673654526e+02
  +3.10513045690e+02
  +3.11126983722e+02
  +3.10513045690e+02
  +3.08673654526e+02
  +3.05616069468e+02
  +3.01352357406e+02
