<Qucs Dataset 0.0.17>
<indep Frequency.0001 201>
  +0.00000000000e+00
  +3.27868852459e+08
  +6.55737704918e+08
  +9.83606557377e+08
  +1.31147540984e+09
  +1.63934426230e+09
  +1.96721311475e+09
  +2.29508196721e+09
  +2.62295081967e+09
  +2.95081967213e+09
  +3.27868852459e+09
  +3.60655737705e+09
  +3.93442622951e+09
  +4.26229508197e+09
  +4.59016393443e+09
  +4.91803278689e+09
  +5.24590163934e+09
  +5.57377049180e+09
  +5.90163934426e+09
  +6.22950819672e+09
  +6.55737704918e+09
  +6.88524590164e+09
  +7.21311475410e+09
  +7.54098360656e+09
  +7.86885245902e+09
  +8.19672131148e+09
  +8.52459016393e+09
  +8.85245901639e+09
  +9.18032786885e+09
  +9.50819672131e+09
  +9.83606557377e+09
  +1.01639344262e+10
  +1.04918032787e+10
  +1.08196721311e+10
  +1.11475409836e+10
  +1.14754098361e+10
  +1.18032786885e+10
  +1.21311475410e+10
  +1.24590163934e+10
  +1.27868852459e+10
  +1.31147540984e+10
  +1.34426229508e+10
  +1.37704918033e+10
  +1.40983606557e+10
  +1.44262295082e+10
  +1.47540983607e+10
  +1.50819672131e+10
  +1.54098360656e+10
  +1.57377049180e+10
  +1.60655737705e+10
  +1.63934426230e+10
  +1.67213114754e+10
  +1.70491803279e+10
  +1.73770491803e+10
  +1.77049180328e+10
  +1.80327868852e+10
  +1.83606557377e+10
  +1.86885245902e+10
  +1.90163934426e+10
  +1.93442622951e+10
  +1.96721311475e+10
  +2.00000000000e+10
  +2.03278688525e+10
  +2.06557377049e+10
  +2.09836065574e+10
  +2.13114754098e+10
  +2.16393442623e+10
  +2.19672131148e+10
  +2.22950819672e+10
  +2.26229508197e+10
  +2.29508196721e+10
  +2.32786885246e+10
  +2.36065573770e+10
  +2.39344262295e+10
  +2.42622950820e+10
  +2.45901639344e+10
  +2.49180327869e+10
  +2.52459016393e+10
  +2.55737704918e+10
  +2.59016393443e+10
  +2.62295081967e+10
  +2.65573770492e+10
  +2.68852459016e+10
  +2.72131147541e+10
  +2.75409836066e+10
  +2.78688524590e+10
  +2.81967213115e+10
  +2.85245901639e+10
  +2.88524590164e+10
  +2.91803278689e+10
  +2.95081967213e+10
  +2.98360655738e+10
  +3.01639344262e+10
  +3.04918032787e+10
  +3.08196721311e+10
  +3.11475409836e+10
  +3.14754098361e+10
  +3.18032786885e+10
  +3.21311475410e+10
  +3.24590163934e+10
  +3.27868852459e+10
  +3.31147540984e+10
  +3.34426229508e+10
  +3.37704918033e+10
  +3.40983606557e+10
  +3.44262295082e+10
  +3.47540983607e+10
  +3.50819672131e+10
  +3.54098360656e+10
  +3.57377049180e+10
  +3.60655737705e+10
  +3.63934426230e+10
  +3.67213114754e+10
  +3.70491803279e+10
  +3.73770491803e+10
  +3.77049180328e+10
  +3.80327868852e+10
  +3.83606557377e+10
  +3.86885245902e+10
  +3.90163934426e+10
  +3.93442622951e+10
  +3.96721311475e+10
  +4.00000000000e+10
  +4.03278688525e+10
  +4.06557377049e+10
  +4.09836065574e+10
  +4.13114754098e+10
  +4.16393442623e+10
  +4.19672131148e+10
  +4.22950819672e+10
  +4.26229508197e+10
  +4.29508196721e+10
  +4.32786885246e+10
  +4.36065573770e+10
  +4.39344262295e+10
  +4.42622950820e+10
  +4.45901639344e+10
  +4.49180327869e+10
  +4.52459016393e+10
  +4.55737704918e+10
  +4.59016393443e+10
  +4.62295081967e+10
  +4.65573770492e+10
  +4.68852459016e+10
  +4.72131147541e+10
  +4.75409836066e+10
  +4.78688524590e+10
  +4.81967213115e+10
  +4.85245901639e+10
  +4.88524590164e+10
  +4.91803278689e+10
  +4.95081967213e+10
  +4.98360655738e+10
  +5.01639344262e+10
  +5.04918032787e+10
  +5.08196721311e+10
  +5.11475409836e+10
  +5.14754098361e+10
  +5.18032786885e+10
  +5.21311475410e+10
  +5.24590163934e+10
  +5.27868852459e+10
  +5.31147540984e+10
  +5.34426229508e+10
  +5.37704918033e+10
  +5.40983606557e+10
  +5.44262295082e+10
  +5.47540983607e+10
  +5.50819672131e+10
  +5.54098360656e+10
  +5.57377049180e+10
  +5.60655737705e+10
  +5.63934426230e+10
  +5.67213114754e+10
  +5.70491803279e+10
  +5.73770491803e+10
  +5.77049180328e+10
  +5.80327868852e+10
  +5.83606557377e+10
  +5.86885245902e+10
  +5.90163934426e+10
  +5.93442622951e+10
  +5.96721311475e+10
  +6.00000000000e+10
  +6.03278688525e+10
  +6.06557377049e+10
  +6.09836065574e+10
  +6.13114754098e+10
  +6.16393442623e+10
  +6.19672131148e+10
  +6.22950819672e+10
  +6.26229508197e+10
  +6.29508196721e+10
  +6.32786885246e+10
  +6.36065573770e+10
  +6.39344262295e+10
  +6.42622950820e+10
  +6.45901639344e+10
  +6.49180327869e+10
  +6.52459016393e+10
  +6.55737704918e+10
</indep>
<indep time 201>
  +1.95000000000e-09
  +1.96525000000e-09
  +1.98050000000e-09
  +1.99575000000e-09
  +2.01100000000e-09
  +2.02625000000e-09
  +2.04150000000e-09
  +2.05675000000e-09
  +2.07200000000e-09
  +2.08725000000e-09
  +2.10250000000e-09
  +2.11775000000e-09
  +2.13300000000e-09
  +2.14825000000e-09
  +2.16350000000e-09
  +2.17875000000e-09
  +2.19400000000e-09
  +2.20925000000e-09
  +2.22450000000e-09
  +2.23975000000e-09
  +2.25500000000e-09
  +2.27025000000e-09
  +2.28550000000e-09
  +2.30075000000e-09
  +2.31600000000e-09
  +2.33125000000e-09
  +2.34650000000e-09
  +2.36175000000e-09
  +2.37700000000e-09
  +2.39225000000e-09
  +2.40750000000e-09
  +2.42275000000e-09
  +2.43800000000e-09
  +2.45325000000e-09
  +2.46850000000e-09
  +2.48375000000e-09
  +2.49900000000e-09
  +2.51425000000e-09
  +2.52950000000e-09
  +2.54475000000e-09
  +2.56000000000e-09
  +2.57525000000e-09
  +2.59050000000e-09
  +2.60575000000e-09
  +2.62100000000e-09
  +2.63625000000e-09
  +2.65150000000e-09
  +2.66675000000e-09
  +2.68200000000e-09
  +2.69725000000e-09
  +2.71250000000e-09
  +2.72775000000e-09
  +2.74300000000e-09
  +2.75825000000e-09
  +2.77350000000e-09
  +2.78875000000e-09
  +2.80400000000e-09
  +2.81925000000e-09
  +2.83450000000e-09
  +2.84975000000e-09
  +2.86500000000e-09
  +2.88025000000e-09
  +2.89550000000e-09
  +2.91075000000e-09
  +2.92600000000e-09
  +2.94125000000e-09
  +2.95650000000e-09
  +2.97175000000e-09
  +2.98700000000e-09
  +3.00225000000e-09
  +3.01750000000e-09
  +3.03275000000e-09
  +3.04800000000e-09
  +3.06325000000e-09
  +3.07850000000e-09
  +3.09375000000e-09
  +3.10900000000e-09
  +3.12425000000e-09
  +3.13950000000e-09
  +3.15475000000e-09
  +3.17000000000e-09
  +3.18525000000e-09
  +3.20050000000e-09
  +3.21575000000e-09
  +3.23100000000e-09
  +3.24625000000e-09
  +3.26150000000e-09
  +3.27675000000e-09
  +3.29200000000e-09
  +3.30725000000e-09
  +3.32250000000e-09
  +3.33775000000e-09
  +3.35300000000e-09
  +3.36825000000e-09
  +3.38350000000e-09
  +3.39875000000e-09
  +3.41400000000e-09
  +3.42925000000e-09
  +3.44450000000e-09
  +3.45975000000e-09
  +3.47500000000e-09
  +3.49025000000e-09
  +3.50550000000e-09
  +3.52075000000e-09
  +3.53600000000e-09
  +3.55125000000e-09
  +3.56650000000e-09
  +3.58175000000e-09
  +3.59700000000e-09
  +3.61225000000e-09
  +3.62750000000e-09
  +3.64275000000e-09
  +3.65800000000e-09
  +3.67325000000e-09
  +3.68850000000e-09
  +3.70375000000e-09
  +3.71900000000e-09
  +3.73425000000e-09
  +3.74950000000e-09
  +3.76475000000e-09
  +3.78000000000e-09
  +3.79525000000e-09
  +3.81050000000e-09
  +3.82575000000e-09
  +3.84100000000e-09
  +3.85625000000e-09
  +3.87150000000e-09
  +3.88675000000e-09
  +3.90200000000e-09
  +3.91725000000e-09
  +3.93250000000e-09
  +3.94775000000e-09
  +3.96300000000e-09
  +3.97825000000e-09
  +3.99350000000e-09
  +4.00875000000e-09
  +4.02400000000e-09
  +4.03925000000e-09
  +4.05450000000e-09
  +4.06975000000e-09
  +4.08500000000e-09
  +4.10025000000e-09
  +4.11550000000e-09
  +4.13075000000e-09
  +4.14600000000e-09
  +4.16125000000e-09
  +4.17650000000e-09
  +4.19175000000e-09
  +4.20700000000e-09
  +4.22225000000e-09
  +4.23750000000e-09
  +4.25275000000e-09
  +4.26800000000e-09
  +4.28325000000e-09
  +4.29850000000e-09
  +4.31375000000e-09
  +4.32900000000e-09
  +4.34425000000e-09
  +4.35950000000e-09
  +4.37475000000e-09
  +4.39000000000e-09
  +4.40525000000e-09
  +4.42050000000e-09
  +4.43575000000e-09
  +4.45100000000e-09
  +4.46625000000e-09
  +4.48150000000e-09
  +4.49675000000e-09
  +4.51200000000e-09
  +4.52725000000e-09
  +4.54250000000e-09
  +4.55775000000e-09
  +4.57300000000e-09
  +4.58825000000e-09
  +4.60350000000e-09
  +4.61875000000e-09
  +4.63400000000e-09
  +4.64925000000e-09
  +4.66450000000e-09
  +4.67975000000e-09
  +4.69500000000e-09
  +4.71025000000e-09
  +4.72550000000e-09
  +4.74075000000e-09
  +4.75600000000e-09
  +4.77125000000e-09
  +4.78650000000e-09
  +4.80175000000e-09
  +4.81700000000e-09
  +4.83225000000e-09
  +4.84750000000e-09
  +4.86275000000e-09
  +4.87800000000e-09
  +4.89325000000e-09
  +4.90850000000e-09
  +4.92375000000e-09
  +4.93900000000e-09
  +4.95425000000e-09
  +4.96950000000e-09
  +4.98475000000e-09
  +5.00000000000e-09
</indep>
<dep Spectrum Frequency.0001>
  -5.37785587435e+01
  -4.41184937765e+01
  -3.78752322129e+01
  -3.34690886535e+01
  -2.94341274797e+01
  -2.49438565468e+01
  +1.01345141211e+01
  -4.12403787995e+01
  -3.28104002041e+01
  -3.19210898608e+01
  -3.22465877826e+01
  -3.27789978843e+01
  -3.33563875217e+01
  -3.40617629412e+01
  -3.45844220932e+01
  -3.50611794463e+01
  -3.52149824721e+01
  -3.58948922054e+01
  -1.60079049592e+01
  -3.97176391281e+01
  -4.37565173169e+01
  -4.73088978972e+01
  -4.75726431520e+01
  -4.66329317597e+01
  -4.54617980148e+01
  -4.50631387774e+01
  -4.44761479684e+01
  -4.33498510756e+01
  -4.31635226054e+01
  -4.12885460164e+01
  -3.00074355928e+01
  -4.53923170459e+01
  -4.52657862536e+01
  -4.60399905579e+01
  -4.72665770401e+01
  -4.81106652304e+01
  -4.86151995522e+01
  -4.88064644143e+01
  -4.90997253393e+01
  -5.00905057786e+01
  -4.90510596653e+01
  -4.93617299577e+01
  -4.07933811652e+01
  -4.68910904664e+01
  -4.68341167735e+01
  -4.72850516346e+01
  -4.77351217430e+01
  -4.83711623351e+01
  -4.90273447300e+01
  -4.95908846481e+01
  -5.00592891259e+01
  -4.97481985495e+01
  -5.18951868871e+01
  -5.28904380880e+01
  -4.08546637367e+01
  -5.26685074910e+01
  -5.19818121173e+01
  -5.09022716836e+01
  -5.03166655208e+01
  -4.99857808000e+01
  -4.99041929261e+01
  -4.99260382948e+01
  -4.99488360865e+01
  -5.01660014021e+01
  -4.94257993923e+01
  -4.94524054317e+01
  -4.22462736359e+01
  -5.00944258227e+01
  -5.10518506646e+01
  -5.16130055883e+01
  -5.19973490087e+01
  -5.21979118675e+01
  -5.22645502777e+01
  -5.23606517225e+01
  -5.24374724479e+01
  -5.04301146179e+01
  -5.32908678974e+01
  -5.25049596350e+01
  -4.81119088609e+01
  -5.28147119759e+01
  -5.23414487883e+01
  -5.23782154275e+01
  -5.23110728692e+01
  -5.22248653360e+01
  -5.21077544776e+01
  -5.19913066449e+01
  -5.18806514609e+01
  -5.17764371686e+01
  -5.12707156385e+01
  -5.15886435570e+01
  -4.92428654157e+01
  -5.16828083828e+01
  -5.19056128214e+01
  -5.19072755966e+01
  -5.21875463682e+01
  -5.24936332433e+01
  -5.28680726610e+01
  -5.30374833440e+01
  -5.31710773783e+01
  -5.05081246898e+01
  -5.36509590318e+01
  -5.36509590319e+01
  -5.05081246898e+01
  -5.31710773783e+01
  -5.30374833441e+01
  -5.28680726610e+01
  -5.24936332433e+01
  -5.21875463682e+01
  -5.19072755966e+01
  -5.19056128214e+01
  -5.16828083828e+01
  -4.92428654157e+01
  -5.15886435570e+01
  -5.12707156385e+01
  -5.17764371686e+01
  -5.18806514609e+01
  -5.19913066449e+01
  -5.21077544776e+01
  -5.22248653360e+01
  -5.23110728692e+01
  -5.23782154275e+01
  -5.23414487883e+01
  -5.28147119759e+01
  -4.81119088609e+01
  -5.25049596349e+01
  -5.32908678974e+01
  -5.04301146179e+01
  -5.24374724479e+01
  -5.23606517225e+01
  -5.22645502777e+01
  -5.21979118675e+01
  -5.19973490086e+01
  -5.16130055883e+01
  -5.10518506646e+01
  -5.00944258228e+01
  -4.22462736359e+01
  -4.94524054317e+01
  -4.94257993923e+01
  -5.01660014021e+01
  -4.99488360865e+01
  -4.99260382948e+01
  -4.99041929261e+01
  -4.99857808000e+01
  -5.03166655208e+01
  -5.09022716836e+01
  -5.19818121173e+01
  -5.26685074910e+01
  -4.08546637367e+01
  -5.28904380880e+01
  -5.18951868871e+01
  -4.97481985495e+01
  -5.00592891259e+01
  -4.95908846481e+01
  -4.90273447300e+01
  -4.83711623351e+01
  -4.77351217430e+01
  -4.72850516346e+01
  -4.68341167735e+01
  -4.68910904664e+01
  -4.07933811652e+01
  -4.93617299577e+01
  -4.90510596653e+01
  -5.00905057785e+01
  -4.90997253393e+01
  -4.88064644143e+01
  -4.86151995522e+01
  -4.81106652304e+01
  -4.72665770401e+01
  -4.60399905579e+01
  -4.52657862536e+01
  -4.53923170459e+01
  -3.00074355928e+01
  -4.12885460164e+01
  -4.31635226054e+01
  -4.33498510756e+01
  -4.44761479684e+01
  -4.50631387774e+01
  -4.54617980148e+01
  -4.66329317597e+01
  -4.75726431520e+01
  -4.73088978971e+01
  -4.37565173169e+01
  -3.97176391281e+01
  -1.60079049592e+01
  -3.58948922054e+01
  -3.52149824721e+01
  -3.50611794463e+01
  -3.45844220932e+01
  -3.40617629412e+01
  -3.33563875217e+01
  -3.27789978843e+01
  -3.22465877826e+01
  -3.19210898609e+01
  -3.28104002041e+01
  -4.12403787996e+01
  +1.01345141211e+01
  -2.49438565468e+01
  -2.94341274796e+01
  -3.34690886535e+01
  -3.78752322129e+01
  -4.41184937765e+01
</dep>
<dep Vout time>
  +5.15449749500e+00
  +4.88051740603e+00
  +4.44130294056e+00
  +3.85200989681e+00
  +3.13598923453e+00
  +2.32102149163e+00
  +1.43365943744e+00
  +4.70427322577e-01
  -7.06564051637e-01
  -1.97889471919e+00
  -3.12594520393e+00
  -4.14473068316e+00
  -5.00126969391e+00
  -5.62216864837e+00
  -5.95577565331e+00
  -6.05389100926e+00
  -5.96719858017e+00
  -5.72029412961e+00
  -5.31785307206e+00
  -4.74683687926e+00
  -4.01677073016e+00
  -3.15610231592e+00
  -2.19702252471e+00
  -1.16880039296e+00
  -3.84172993626e-02
  +1.38302001593e+00
  +2.70346377345e+00
  +3.90346451926e+00
  +4.94176353869e+00
  +5.68287093561e+00
  +6.09256366998e+00
  +6.26247766811e+00
  +6.25326262782e+00
  +6.08892230140e+00
  +5.77619313673e+00
  +5.31041675572e+00
  +4.67513497262e+00
  +3.88424576721e+00
  +2.96880573947e+00
  +1.96229375064e+00
  +8.83426516976e-01
  -3.45757944274e-01
  -1.79922155967e+00
  -3.11357191156e+00
  -4.29688154219e+00
  -5.26744724495e+00
  -5.88190884190e+00
  -6.20034897307e+00
  -6.31293625584e+00
  -6.26146645076e+00
  -6.05992117183e+00
  -5.71038255366e+00
  -5.20360541504e+00
  -4.52578505835e+00
  -3.69847725076e+00
  -2.75403778471e+00
  -1.72496356280e+00
  -6.17449923625e-01
  +6.98761488200e-01
  +2.12488879504e+00
  +3.41681488051e+00
  +4.56767382914e+00
  +5.45986252080e+00
  +5.99130313924e+00
  +6.25260952902e+00
  +6.32274284685e+00
  +6.23438432996e+00
  +5.99765048328e+00
  +5.61261773240e+00
  +5.06671822091e+00
  +4.35218443018e+00
  +3.49511440688e+00
  +2.52782917154e+00
  +1.48381062585e+00
  +3.56237805311e-01
  -1.04002860045e+00
  -2.42816888024e+00
  -3.69219115933e+00
  -4.80146679429e+00
  -5.60857755332e+00
  -6.06825344817e+00
  -6.28183562745e+00
  -6.31548055748e+00
  -6.19434831190e+00
  -5.92549747496e+00
  -5.50671063616e+00
  -4.92208740197e+00
  -4.17278716439e+00
  -3.28760275263e+00
  -2.30004870184e+00
  -1.24163103414e+00
  -8.51618401545e-02
  +1.36648182351e+00
  +2.72292463034e+00
  +3.95731744475e+00
  +5.01687061615e+00
  +5.74098598066e+00
  +6.13679794623e+00
  +6.30548806355e+00
  +6.30228849700e+00
  +6.14690191438e+00
  +5.84420369488e+00
  +5.38972700367e+00
  +4.76627583770e+00
  +3.98386143117e+00
  +3.07280070888e+00
  +2.06685381374e+00
  +9.91027154070e-01
  -2.17792072853e-01
  -1.68332288648e+00
  -3.01342585470e+00
  -4.21520107549e+00
  -5.21256104291e+00
  -5.85328151087e+00
  -6.19029383182e+00
  -6.31761294594e+00
  -6.27975746678e+00
  -6.09167132938e+00
  -5.75606394764e+00
  -5.26531269096e+00
  -4.60351296108e+00
  -3.78938874857e+00
  -2.85406302350e+00
  -1.83153169157e+00
  -7.33026734283e-01
  +5.48142184339e-01
  +1.99071880702e+00
  +3.29525085276e+00
  +4.46292371061e+00
  +5.38910088829e+00
  +5.95245701406e+00
  +6.23598253096e+00
  +6.32345127430e+00
  +6.25072970912e+00
  +6.02918279770e+00
  +5.65965693299e+00
  +5.13106378353e+00
  +4.43250738846e+00
  +3.58817632452e+00
  +2.63011125068e+00
  +1.59217396614e+00
  +4.72754149086e-01
  -8.89186233378e-01
  -2.29467153276e+00
  -3.57166625989e+00
  -4.70076947858e+00
  -5.54561555704e+00
  -6.03585667295e+00
  -6.27001931667e+00
  -6.31987041678e+00
  -6.21347806662e+00
  -5.95913875771e+00
  -5.55565294457e+00
  -4.98844858665e+00
  -4.25451305716e+00
  -3.38155399019e+00
  -2.40249205724e+00
  -1.35037455380e+00
  -2.07806914750e-01
  +1.22469058410e+00
  +2.59401741025e+00
  +3.84187556935e+00
  +4.92461365810e+00
  +5.68535461737e+00
  +6.10861414850e+00
  +6.29657866899e+00
  +6.30933762712e+00
  +6.16885453393e+00
  +5.88093540246e+00
  +5.44219196733e+00
  +4.83574216700e+00
  +4.06765937702e+00
  +3.16771287281e+00
  +2.16945847507e+00
  +1.10186693689e+00
  -8.08651131553e-02
  -1.54559246363e+00
  -2.88703012060e+00
  -4.10323414663e+00
  -5.12900260936e+00
  -5.80574526065e+00
  -6.16787134947e+00
  -6.31309281101e+00
  -6.29045091199e+00
  -6.11679991809e+00
  -5.79576114132e+00
  -5.32115886175e+00
  -4.67598390221e+00
  -3.87574152856e+00
  -2.95125536246e+00
  -1.93625268618e+00
  -8.47840295112e-01
  +3.99517301878e-01
  +1.85518515843e+00
  +3.17126977382e+00
  +4.35440495365e+00
  +5.31351211384e+00
  +5.91055622285e+00
  +6.21718227958e+00
  +6.32197836544e+00
  +6.26453057339e+00
</dep>
<dep VDD.It time>
  -2.36600952120e-02
  -2.50058743584e-02
  -2.49941256453e-02
  -2.50058743554e-02
  -2.49941256455e-02
  -2.50058743557e-02
  -2.50058743558e-02
  -2.50058743557e-02
  -2.50058743557e-02
  -2.49941256457e-02
  -2.50058743555e-02
  -2.49941256453e-02
  -2.41665212355e-02
  -1.19964922112e-02
  -4.66065343293e-03
  -6.61284297006e-03
  -1.31268792000e-02
  -2.05414167416e-02
  -2.48502804095e-02
  -2.51087526173e-02
  -2.48912473834e-02
  -2.51087526176e-02
  -2.48912473837e-02
  -2.51087526178e-02
  -2.48912473836e-02
  -2.51087526178e-02
  -2.48912473836e-02
  -2.48912473833e-02
  -1.98311676229e-02
  +1.62554063231e-03
  +1.03343586247e-02
  +6.54874936164e-03
  -2.50862311883e-03
  -1.24633431834e-02
  -2.06374351162e-02
  -2.49307492650e-02
  -2.48570971588e-02
  -2.48570971590e-02
  -2.51429028420e-02
  -2.51429028422e-02
  -2.51429028422e-02
  -2.48570971591e-02
  -2.48570971593e-02
  -2.48570971590e-02
  -2.48570971588e-02
  -8.29428425317e-03
  +1.13279408865e-02
  +1.36033179670e-02
  +6.28784256631e-03
  -4.01720496565e-03
  -1.41216697338e-02
  -2.20488575342e-02
  -2.47308659537e-02
  -2.47303540600e-02
  -2.52696459408e-02
  -2.47303540603e-02
  -2.52696459411e-02
  -2.52696459410e-02
  -2.47303540603e-02
  -2.47303540603e-02
  -2.52696459407e-02
  -2.35699615882e-02
  -8.75924226030e-04
  +1.34794502963e-02
  +1.31902557732e-02
  +4.57552088598e-03
  -5.99463362337e-03
  -1.58577806746e-02
  -2.37987513703e-02
  -2.46560703742e-02
  -2.53439296264e-02
  -2.46560703745e-02
  -2.53439296267e-02
  -2.46560703747e-02
  -2.53439296267e-02
  -2.46560703747e-02
  -2.46560703746e-02
  -2.46560703743e-02
  -1.96856908763e-02
  +3.73673357012e-03
  +1.44302210173e-02
  +1.15888234629e-02
  +2.13991195459e-03
  -8.45325309098e-03
  -1.86335769215e-02
  -2.40507725166e-02
  -2.53640511279e-02
  -2.46359488728e-02
  -2.53640511282e-02
  -2.46359488731e-02
  -2.53640511284e-02
  -2.46359488730e-02
  -2.53640511284e-02
  -2.53640511282e-02
  -2.46359488727e-02
  -1.46688259097e-02
  +7.69801864481e-03
  +1.53713884710e-02
  +9.88443167617e-03
  -9.20271350902e-04
  -1.05977893824e-02
  -1.95337453105e-02
  -2.45147511603e-02
  -2.45640894177e-02
  -2.45640894178e-02
  -2.45640894180e-02
  -2.45640894182e-02
  -2.45640894182e-02
  -2.45640894180e-02
  -2.54359105833e-02
  -2.54359105830e-02
  -2.54359105828e-02
  -9.51742431019e-03
  +1.08608132191e-02
  +1.40131154829e-02
  +7.73833166496e-03
  -3.39491025233e-03
  -1.29029396339e-02
  -2.19928645862e-02
  -2.46316320332e-02
  -2.53905389992e-02
  -2.46094610016e-02
  -2.53905389995e-02
  -2.46094610019e-02
  -2.46094610018e-02
  -2.46094610017e-02
  -2.53905389996e-02
  -2.46094610015e-02
  -2.43950270505e-02
  -3.78857241831e-03
  +1.29735837992e-02
  +1.38156088022e-02
  +5.58577676739e-03
  -4.95598505384e-03
  -1.49767036704e-02
  -2.32904845026e-02
  -2.46456544305e-02
  -2.53543455701e-02
  -2.53543455702e-02
  -2.53543455704e-02
