<Qucs Dataset 0.0.17>
<indep Frequency.0001 201>
  +0.00000000000e+00
  +3.27868852459e+08
  +6.55737704918e+08
  +9.83606557377e+08
  +1.31147540984e+09
  +1.63934426230e+09
  +1.96721311475e+09
  +2.29508196721e+09
  +2.62295081967e+09
  +2.95081967213e+09
  +3.27868852459e+09
  +3.60655737705e+09
  +3.93442622951e+09
  +4.26229508197e+09
  +4.59016393443e+09
  +4.91803278689e+09
  +5.24590163934e+09
  +5.57377049180e+09
  +5.90163934426e+09
  +6.22950819672e+09
  +6.55737704918e+09
  +6.88524590164e+09
  +7.21311475410e+09
  +7.54098360656e+09
  +7.86885245902e+09
  +8.19672131148e+09
  +8.52459016393e+09
  +8.85245901639e+09
  +9.18032786885e+09
  +9.50819672131e+09
  +9.83606557377e+09
  +1.01639344262e+10
  +1.04918032787e+10
  +1.08196721311e+10
  +1.11475409836e+10
  +1.14754098361e+10
  +1.18032786885e+10
  +1.21311475410e+10
  +1.24590163934e+10
  +1.27868852459e+10
  +1.31147540984e+10
  +1.34426229508e+10
  +1.37704918033e+10
  +1.40983606557e+10
  +1.44262295082e+10
  +1.47540983607e+10
  +1.50819672131e+10
  +1.54098360656e+10
  +1.57377049180e+10
  +1.60655737705e+10
  +1.63934426230e+10
  +1.67213114754e+10
  +1.70491803279e+10
  +1.73770491803e+10
  +1.77049180328e+10
  +1.80327868852e+10
  +1.83606557377e+10
  +1.86885245902e+10
  +1.90163934426e+10
  +1.93442622951e+10
  +1.96721311475e+10
  +2.00000000000e+10
  +2.03278688525e+10
  +2.06557377049e+10
  +2.09836065574e+10
  +2.13114754098e+10
  +2.16393442623e+10
  +2.19672131148e+10
  +2.22950819672e+10
  +2.26229508197e+10
  +2.29508196721e+10
  +2.32786885246e+10
  +2.36065573770e+10
  +2.39344262295e+10
  +2.42622950820e+10
  +2.45901639344e+10
  +2.49180327869e+10
  +2.52459016393e+10
  +2.55737704918e+10
  +2.59016393443e+10
  +2.62295081967e+10
  +2.65573770492e+10
  +2.68852459016e+10
  +2.72131147541e+10
  +2.75409836066e+10
  +2.78688524590e+10
  +2.81967213115e+10
  +2.85245901639e+10
  +2.88524590164e+10
  +2.91803278689e+10
  +2.95081967213e+10
  +2.98360655738e+10
  +3.01639344262e+10
  +3.04918032787e+10
  +3.08196721311e+10
  +3.11475409836e+10
  +3.14754098361e+10
  +3.18032786885e+10
  +3.21311475410e+10
  +3.24590163934e+10
  +3.27868852459e+10
  +3.31147540984e+10
  +3.34426229508e+10
  +3.37704918033e+10
  +3.40983606557e+10
  +3.44262295082e+10
  +3.47540983607e+10
  +3.50819672131e+10
  +3.54098360656e+10
  +3.57377049180e+10
  +3.60655737705e+10
  +3.63934426230e+10
  +3.67213114754e+10
  +3.70491803279e+10
  +3.73770491803e+10
  +3.77049180328e+10
  +3.80327868852e+10
  +3.83606557377e+10
  +3.86885245902e+10
  +3.90163934426e+10
  +3.93442622951e+10
  +3.96721311475e+10
  +4.00000000000e+10
  +4.03278688525e+10
  +4.06557377049e+10
  +4.09836065574e+10
  +4.13114754098e+10
  +4.16393442623e+10
  +4.19672131148e+10
  +4.22950819672e+10
  +4.26229508197e+10
  +4.29508196721e+10
  +4.32786885246e+10
  +4.36065573770e+10
  +4.39344262295e+10
  +4.42622950820e+10
  +4.45901639344e+10
  +4.49180327869e+10
  +4.52459016393e+10
  +4.55737704918e+10
  +4.59016393443e+10
  +4.62295081967e+10
  +4.65573770492e+10
  +4.68852459016e+10
  +4.72131147541e+10
  +4.75409836066e+10
  +4.78688524590e+10
  +4.81967213115e+10
  +4.85245901639e+10
  +4.88524590164e+10
  +4.91803278689e+10
  +4.95081967213e+10
  +4.98360655738e+10
  +5.01639344262e+10
  +5.04918032787e+10
  +5.08196721311e+10
  +5.11475409836e+10
  +5.14754098361e+10
  +5.18032786885e+10
  +5.21311475410e+10
  +5.24590163934e+10
  +5.27868852459e+10
  +5.31147540984e+10
  +5.34426229508e+10
  +5.37704918033e+10
  +5.40983606557e+10
  +5.44262295082e+10
  +5.47540983607e+10
  +5.50819672131e+10
  +5.54098360656e+10
  +5.57377049180e+10
  +5.60655737705e+10
  +5.63934426230e+10
  +5.67213114754e+10
  +5.70491803279e+10
  +5.73770491803e+10
  +5.77049180328e+10
  +5.80327868852e+10
  +5.83606557377e+10
  +5.86885245902e+10
  +5.90163934426e+10
  +5.93442622951e+10
  +5.96721311475e+10
  +6.00000000000e+10
  +6.03278688525e+10
  +6.06557377049e+10
  +6.09836065574e+10
  +6.13114754098e+10
  +6.16393442623e+10
  +6.19672131148e+10
  +6.22950819672e+10
  +6.26229508197e+10
  +6.29508196721e+10
  +6.32786885246e+10
  +6.36065573770e+10
  +6.39344262295e+10
  +6.42622950820e+10
  +6.45901639344e+10
  +6.49180327869e+10
  +6.52459016393e+10
  +6.55737704918e+10
</indep>
<indep time 201>
  +1.95000000000e-09
  +1.96525000000e-09
  +1.98050000000e-09
  +1.99575000000e-09
  +2.01100000000e-09
  +2.02625000000e-09
  +2.04150000000e-09
  +2.05675000000e-09
  +2.07200000000e-09
  +2.08725000000e-09
  +2.10250000000e-09
  +2.11775000000e-09
  +2.13300000000e-09
  +2.14825000000e-09
  +2.16350000000e-09
  +2.17875000000e-09
  +2.19400000000e-09
  +2.20925000000e-09
  +2.22450000000e-09
  +2.23975000000e-09
  +2.25500000000e-09
  +2.27025000000e-09
  +2.28550000000e-09
  +2.30075000000e-09
  +2.31600000000e-09
  +2.33125000000e-09
  +2.34650000000e-09
  +2.36175000000e-09
  +2.37700000000e-09
  +2.39225000000e-09
  +2.40750000000e-09
  +2.42275000000e-09
  +2.43800000000e-09
  +2.45325000000e-09
  +2.46850000000e-09
  +2.48375000000e-09
  +2.49900000000e-09
  +2.51425000000e-09
  +2.52950000000e-09
  +2.54475000000e-09
  +2.56000000000e-09
  +2.57525000000e-09
  +2.59050000000e-09
  +2.60575000000e-09
  +2.62100000000e-09
  +2.63625000000e-09
  +2.65150000000e-09
  +2.66675000000e-09
  +2.68200000000e-09
  +2.69725000000e-09
  +2.71250000000e-09
  +2.72775000000e-09
  +2.74300000000e-09
  +2.75825000000e-09
  +2.77350000000e-09
  +2.78875000000e-09
  +2.80400000000e-09
  +2.81925000000e-09
  +2.83450000000e-09
  +2.84975000000e-09
  +2.86500000000e-09
  +2.88025000000e-09
  +2.89550000000e-09
  +2.91075000000e-09
  +2.92600000000e-09
  +2.94125000000e-09
  +2.95650000000e-09
  +2.97175000000e-09
  +2.98700000000e-09
  +3.00225000000e-09
  +3.01750000000e-09
  +3.03275000000e-09
  +3.04800000000e-09
  +3.06325000000e-09
  +3.07850000000e-09
  +3.09375000000e-09
  +3.10900000000e-09
  +3.12425000000e-09
  +3.13950000000e-09
  +3.15475000000e-09
  +3.17000000000e-09
  +3.18525000000e-09
  +3.20050000000e-09
  +3.21575000000e-09
  +3.23100000000e-09
  +3.24625000000e-09
  +3.26150000000e-09
  +3.27675000000e-09
  +3.29200000000e-09
  +3.30725000000e-09
  +3.32250000000e-09
  +3.33775000000e-09
  +3.35300000000e-09
  +3.36825000000e-09
  +3.38350000000e-09
  +3.39875000000e-09
  +3.41400000000e-09
  +3.42925000000e-09
  +3.44450000000e-09
  +3.45975000000e-09
  +3.47500000000e-09
  +3.49025000000e-09
  +3.50550000000e-09
  +3.52075000000e-09
  +3.53600000000e-09
  +3.55125000000e-09
  +3.56650000000e-09
  +3.58175000000e-09
  +3.59700000000e-09
  +3.61225000000e-09
  +3.62750000000e-09
  +3.64275000000e-09
  +3.65800000000e-09
  +3.67325000000e-09
  +3.68850000000e-09
  +3.70375000000e-09
  +3.71900000000e-09
  +3.73425000000e-09
  +3.74950000000e-09
  +3.76475000000e-09
  +3.78000000000e-09
  +3.79525000000e-09
  +3.81050000000e-09
  +3.82575000000e-09
  +3.84100000000e-09
  +3.85625000000e-09
  +3.87150000000e-09
  +3.88675000000e-09
  +3.90200000000e-09
  +3.91725000000e-09
  +3.93250000000e-09
  +3.94775000000e-09
  +3.96300000000e-09
  +3.97825000000e-09
  +3.99350000000e-09
  +4.00875000000e-09
  +4.02400000000e-09
  +4.03925000000e-09
  +4.05450000000e-09
  +4.06975000000e-09
  +4.08500000000e-09
  +4.10025000000e-09
  +4.11550000000e-09
  +4.13075000000e-09
  +4.14600000000e-09
  +4.16125000000e-09
  +4.17650000000e-09
  +4.19175000000e-09
  +4.20700000000e-09
  +4.22225000000e-09
  +4.23750000000e-09
  +4.25275000000e-09
  +4.26800000000e-09
  +4.28325000000e-09
  +4.29850000000e-09
  +4.31375000000e-09
  +4.32900000000e-09
  +4.34425000000e-09
  +4.35950000000e-09
  +4.37475000000e-09
  +4.39000000000e-09
  +4.40525000000e-09
  +4.42050000000e-09
  +4.43575000000e-09
  +4.45100000000e-09
  +4.46625000000e-09
  +4.48150000000e-09
  +4.49675000000e-09
  +4.51200000000e-09
  +4.52725000000e-09
  +4.54250000000e-09
  +4.55775000000e-09
  +4.57300000000e-09
  +4.58825000000e-09
  +4.60350000000e-09
  +4.61875000000e-09
  +4.63400000000e-09
  +4.64925000000e-09
  +4.66450000000e-09
  +4.67975000000e-09
  +4.69500000000e-09
  +4.71025000000e-09
  +4.72550000000e-09
  +4.74075000000e-09
  +4.75600000000e-09
  +4.77125000000e-09
  +4.78650000000e-09
  +4.80175000000e-09
  +4.81700000000e-09
  +4.83225000000e-09
  +4.84750000000e-09
  +4.86275000000e-09
  +4.87800000000e-09
  +4.89325000000e-09
  +4.90850000000e-09
  +4.92375000000e-09
  +4.93900000000e-09
  +4.95425000000e-09
  +4.96950000000e-09
  +4.98475000000e-09
  +5.00000000000e-09
</indep>
<dep Spectrum Frequency.0001>
  -5.38735957227e+01
  -4.41479830185e+01
  -3.78870304174e+01
  -3.34843398673e+01
  -2.94090352256e+01
  -2.49523277398e+01
  +1.01344671749e+01
  -4.11930048910e+01
  -3.28594217660e+01
  -3.19083954928e+01
  -3.22323015239e+01
  -3.27668197566e+01
  -3.33495836603e+01
  -3.40659654389e+01
  -3.45808624306e+01
  -3.50764115955e+01
  -3.52322617181e+01
  -3.58917185191e+01
  -1.60092933161e+01
  -3.96920304246e+01
  -4.37499264390e+01
  -4.73473651018e+01
  -4.75950667276e+01
  -4.66403317557e+01
  -4.54611920020e+01
  -4.50438864901e+01
  -4.44843403792e+01
  -4.33307334800e+01
  -4.31415713597e+01
  -4.12793981214e+01
  -3.00047283014e+01
  -4.54088729863e+01
  -4.52799760480e+01
  -4.60387808377e+01
  -4.72646870371e+01
  -4.81197141786e+01
  -4.86224883220e+01
  -4.88077149955e+01
  -4.90852319509e+01
  -5.00944858317e+01
  -4.90579095934e+01
  -4.93572414206e+01
  -4.07896140220e+01
  -4.68754648901e+01
  -4.68295902335e+01
  -4.72854900289e+01
  -4.77415071699e+01
  -4.83589873446e+01
  -4.90303290315e+01
  -4.96001594733e+01
  -5.00765167653e+01
  -4.97438322260e+01
  -5.18885801272e+01
  -5.29147312716e+01
  -4.08536618740e+01
  -5.26817368618e+01
  -5.19790130323e+01
  -5.08824910662e+01
  -5.03090795191e+01
  -4.99920702791e+01
  -4.99003991982e+01
  -4.99200848402e+01
  -4.99490368530e+01
  -5.01808280861e+01
  -4.94235444458e+01
  -4.94285604605e+01
  -4.22403068914e+01
  -5.00879312031e+01
  -5.10614217962e+01
  -5.16365272591e+01
  -5.19923792566e+01
  -5.21966048525e+01
  -5.22660293503e+01
  -5.23634982824e+01
  -5.24257479403e+01
  -5.04139045616e+01
  -5.32996545649e+01
  -5.25385499973e+01
  -4.81006592757e+01
  -5.28139458895e+01
  -5.23248136346e+01
  -5.23580698881e+01
  -5.23131582852e+01
  -5.22197459146e+01
  -5.20987544702e+01
  -5.19965949803e+01
  -5.18883395175e+01
  -5.17813908727e+01
  -5.12592110473e+01
  -5.15654550824e+01
  -4.92334458035e+01
  -5.16900582541e+01
  -5.19206262449e+01
  -5.19174775806e+01
  -5.21801780566e+01
  -5.25055951949e+01
  -5.28732238651e+01
  -5.30235755885e+01
  -5.31606660219e+01
  -5.04930296881e+01
  -5.36777903835e+01
  -5.36777903835e+01
  -5.04930296881e+01
  -5.31606660219e+01
  -5.30235755886e+01
  -5.28732238651e+01
  -5.25055951949e+01
  -5.21801780566e+01
  -5.19174775806e+01
  -5.19206262449e+01
  -5.16900582540e+01
  -4.92334458035e+01
  -5.15654550824e+01
  -5.12592110473e+01
  -5.17813908727e+01
  -5.18883395175e+01
  -5.19965949803e+01
  -5.20987544702e+01
  -5.22197459146e+01
  -5.23131582852e+01
  -5.23580698881e+01
  -5.23248136346e+01
  -5.28139458895e+01
  -4.81006592757e+01
  -5.25385499973e+01
  -5.32996545649e+01
  -5.04139045616e+01
  -5.24257479403e+01
  -5.23634982824e+01
  -5.22660293503e+01
  -5.21966048525e+01
  -5.19923792565e+01
  -5.16365272591e+01
  -5.10614217962e+01
  -5.00879312031e+01
  -4.22403068914e+01
  -4.94285604605e+01
  -4.94235444458e+01
  -5.01808280861e+01
  -4.99490368530e+01
  -4.99200848402e+01
  -4.99003991982e+01
  -4.99920702791e+01
  -5.03090795190e+01
  -5.08824910662e+01
  -5.19790130323e+01
  -5.26817368618e+01
  -4.08536618740e+01
  -5.29147312716e+01
  -5.18885801273e+01
  -4.97438322259e+01
  -5.00765167653e+01
  -4.96001594733e+01
  -4.90303290315e+01
  -4.83589873446e+01
  -4.77415071699e+01
  -4.72854900289e+01
  -4.68295902335e+01
  -4.68754648901e+01
  -4.07896140220e+01
  -4.93572414206e+01
  -4.90579095934e+01
  -5.00944858317e+01
  -4.90852319509e+01
  -4.88077149955e+01
  -4.86224883220e+01
  -4.81197141786e+01
  -4.72646870371e+01
  -4.60387808377e+01
  -4.52799760480e+01
  -4.54088729863e+01
  -3.00047283014e+01
  -4.12793981214e+01
  -4.31415713597e+01
  -4.33307334800e+01
  -4.44843403792e+01
  -4.50438864901e+01
  -4.54611920019e+01
  -4.66403317557e+01
  -4.75950667276e+01
  -4.73473651017e+01
  -4.37499264390e+01
  -3.96920304246e+01
  -1.60092933161e+01
  -3.58917185191e+01
  -3.52322617181e+01
  -3.50764115955e+01
  -3.45808624306e+01
  -3.40659654389e+01
  -3.33495836603e+01
  -3.27668197566e+01
  -3.22323015239e+01
  -3.19083954928e+01
  -3.28594217660e+01
  -4.11930048910e+01
  +1.01344671749e+01
  -2.49523277398e+01
  -2.94090352256e+01
  -3.34843398673e+01
  -3.78870304174e+01
  -4.41479830185e+01
</dep>
<dep Vout time>
  +5.15449749500e+00
  +4.88051740603e+00
  +4.44130294056e+00
  +3.85200989681e+00
  +3.13598923453e+00
  +2.32102149163e+00
  +1.43365943744e+00
  +4.70427322577e-01
  -7.06564051637e-01
  -1.97889471919e+00
  -3.12594520393e+00
  -4.14473068316e+00
  -5.00126969391e+00
  -5.62216864837e+00
  -5.95577565331e+00
  -6.05389100926e+00
  -5.96719858017e+00
  -5.72029412961e+00
  -5.31785307206e+00
  -4.74683687926e+00
  -4.01677073016e+00
  -3.15610231592e+00
  -2.19702252471e+00
  -1.16880039296e+00
  -3.84172993626e-02
  +1.38302001593e+00
  +2.70346377345e+00
  +3.90346451926e+00
  +4.94176353869e+00
  +5.68287093561e+00
  +6.09256366998e+00
  +6.26247766811e+00
  +6.25326262782e+00
  +6.08892230140e+00
  +5.77619313673e+00
  +5.31041675572e+00
  +4.67513497257e+00
  +3.88424576710e+00
  +2.96880573913e+00
  +1.96229375019e+00
  +8.83426516558e-01
  -3.45757944756e-01
  -1.79922156012e+00
  -3.11357191196e+00
  -4.29688154254e+00
  -5.26744724520e+00
  -5.88190884203e+00
  -6.20034897312e+00
  -6.31293625583e+00
  -6.26146645070e+00
  -6.05992117169e+00
  -5.71038255344e+00
  -5.20360541511e+00
  -4.52578505843e+00
  -3.69847725070e+00
  -2.75403778368e+00
  -1.72496356253e+00
  -6.17449922328e-01
  +6.98761490722e-01
  +2.12488879724e+00
  +3.41681488252e+00
  +4.56767383094e+00
  +5.45986252207e+00
  +5.99130314003e+00
  +6.25260952950e+00
  +6.32274284708e+00
  +6.23438432997e+00
  +5.99765048302e+00
  +5.61261773184e+00
  +5.06671822034e+00
  +4.35218442917e+00
  +3.49511440527e+00
  +2.52782916509e+00
  +1.48381061402e+00
  +3.56237798841e-01
  -1.04002860855e+00
  -2.42816888760e+00
  -3.69219116603e+00
  -4.80146679995e+00
  -5.60857755694e+00
  -6.06825345018e+00
  -6.28183562844e+00
  -6.31548055766e+00
  -6.19434831134e+00
  -5.92549747363e+00
  -5.50671063401e+00
  -4.92208739887e+00
  -4.17278716044e+00
  -3.28760274799e+00
  -2.30004869669e+00
  -1.24163102860e+00
  -8.51618341065e-02
  +1.36648183017e+00
  +2.72292463653e+00
  +3.95731745036e+00
  +5.01687062031e+00
  +5.74098598332e+00
  +6.13679794746e+00
  +6.30548806390e+00
  +6.30228849590e+00
  +6.14690188781e+00
  +5.84420317067e+00
  +5.38973697494e+00
  +4.76611990947e+00
  +3.98357463976e+00
  +3.07239698391e+00
  +2.06632949259e+00
  +9.90482230787e-01
  -2.18316474950e-01
  -1.68372015774e+00
  -3.01372288557e+00
  -4.21560882797e+00
  -5.21298975399e+00
  -5.85347477971e+00
  -6.19033307493e+00
  -6.31753880744e+00
  -6.27960319072e+00
  -6.09144320819e+00
  -5.75578151983e+00
  -5.26496926982e+00
  -4.60317851464e+00
  -3.78883592155e+00
  -2.85321625924e+00
  -1.83037619934e+00
  -7.31860749904e-01
  +5.49842264338e-01
  +1.99221318240e+00
  +3.29658070591e+00
  +4.46403062316e+00
  +5.38983123990e+00
  +5.95282545701e+00
  +6.23609578813e+00
  +6.32336849730e+00
  +6.25046349899e+00
  +6.02873625922e+00
  +5.65904156485e+00
  +5.13032163510e+00
  +4.43168239605e+00
  +3.58717347858e+00
  +2.62894052500e+00
  +1.59116874746e+00
  +4.71668119891e-01
  -8.90519126747e-01
  -2.29582662774e+00
  -3.57269589884e+00
  -4.70162207397e+00
  -5.54614686395e+00
  -6.03612539866e+00
  -6.27010448254e+00
  -6.31979351007e+00
  -6.21328175556e+00
  -5.95881562733e+00
  -5.55519135484e+00
  -4.98779633227e+00
  -4.25376271603e+00
  -3.38073059408e+00
  -2.40163141666e+00
  -1.34918708466e+00
  -2.07710991672e-01
  +1.22459776985e+00
  +2.59378826007e+00
  +3.84164711546e+00
  +4.92442656101e+00
  +5.68520652105e+00
  +6.10849793745e+00
  +6.29654377289e+00
  +6.30931088286e+00
  +6.16884591103e+00
  +5.88095984344e+00
  +5.44224704203e+00
  +4.83575085652e+00
  +4.06761607465e+00
  +3.16778482581e+00
  +2.16973775209e+00
  +1.10218745936e+00
  -7.95367635320e-02
  -1.54442449064e+00
  -2.88581770424e+00
  -4.10218480408e+00
  -5.12844900869e+00
  -5.80545484889e+00
  -6.16777640876e+00
  -6.31313967611e+00
  -6.29062837304e+00
  -6.11709799580e+00
  -5.79618218362e+00
  -5.32172346769e+00
  -4.67668273125e+00
  -3.87615886909e+00
  -2.95127804655e+00
  -1.93584450512e+00
  -8.47577690481e-01
  +3.99622665435e-01
  +1.85533352635e+00
  +3.17133182081e+00
  +4.35445361538e+00
  +5.31349231632e+00
  +5.91055245093e+00
  +6.21716341772e+00
  +6.32201636061e+00
  +6.26456502068e+00
</dep>
<dep VDD.It time>
  -2.36600952120e-02
  -2.50058743584e-02
  -2.49941256453e-02
  -2.50058743554e-02
  -2.49941256455e-02
  -2.50058743557e-02
  -2.50058743558e-02
  -2.50058743557e-02
  -2.50058743557e-02
  -2.49941256457e-02
  -2.50058743555e-02
  -2.49941256453e-02
  -2.41665212355e-02
  -1.19964922112e-02
  -4.66065343293e-03
  -6.61284297006e-03
  -1.31268792000e-02
  -2.05414167416e-02
  -2.48502804095e-02
  -2.51087526173e-02
  -2.48912473834e-02
  -2.51087526176e-02
  -2.48912473837e-02
  -2.51087526178e-02
  -2.48912473836e-02
  -2.51087526178e-02
  -2.48912473836e-02
  -2.48912473833e-02
  -1.98311676229e-02
  +1.62554063254e-03
  +1.03343586247e-02
  +6.54874936119e-03
  -2.50862311917e-03
  -1.24633431838e-02
  -2.06374351165e-02
  -2.49307492758e-02
  -2.48570971653e-02
  -2.48570971654e-02
  -2.51429028356e-02
  -2.51429028358e-02
  -2.51429028358e-02
  -2.48570971656e-02
  -2.48570971657e-02
  -2.48570971654e-02
  -2.48570971652e-02
  -8.29428423813e-03
  +1.13279408826e-02
  +1.36033179583e-02
  +6.28784255581e-03
  -4.01720497511e-03
  -1.41216697598e-02
  -2.20488576123e-02
  -2.47308663487e-02
  -2.47303543046e-02
  -2.52696456962e-02
  -2.47303543049e-02
  -2.52696456965e-02
  -2.52696456964e-02
  -2.47303543049e-02
  -2.47303543049e-02
  -2.52696456961e-02
  -2.35699618427e-02
  -8.75924454998e-04
  +1.34794505708e-02
  +1.31902554943e-02
  +4.57552059989e-03
  -5.99463391022e-03
  -1.58577809799e-02
  -2.37987511762e-02
  -2.46560704582e-02
  -2.53439295424e-02
  -2.46560704584e-02
  -2.53439295427e-02
  -2.46560704587e-02
  -2.53439295427e-02
  -2.46560704587e-02
  -2.46560704585e-02
  -2.46560704583e-02
  -1.96856908469e-02
  +3.73673378268e-03
  +1.44302211208e-02
  +1.15888233291e-02
  +2.13991180281e-03
  -8.45325324127e-03
  -1.86335768785e-02
  -2.40507726215e-02
  -2.53640510443e-02
  -2.46359489563e-02
  -2.53640510446e-02
  -2.46359489566e-02
  -2.53640510448e-02
  -2.46359489566e-02
  -2.53640510448e-02
  -2.53640510446e-02
  -2.46359489563e-02
  -1.46688265855e-02
  +7.69801930576e-03
  +1.53713878328e-02
  +9.88443101507e-03
  -9.20270340057e-04
  -1.05978111857e-02
  -2.03690262706e-02
  -2.53234778162e-02
  -2.54031433759e-02
  -2.45968566248e-02
  -2.54031433761e-02
  -2.45968566251e-02
  -2.45968566252e-02
  -2.54031433762e-02
  -2.45968566252e-02
  -2.54031433760e-02
  -2.45968566247e-02
  -8.77158871094e-03
  +1.15967677698e-02
  +1.47391557158e-02
  +7.66936607101e-03
  -3.33750667960e-03
  -1.29725791535e-02
  -2.12718598178e-02
  -2.46791039207e-02
  -2.46582951972e-02
  -2.46582951973e-02
  -2.46582951975e-02
  -2.46582951976e-02
  -2.53417048039e-02
  -2.46582951975e-02
  -2.46582951975e-02
  -2.46582951973e-02
  -2.44390501330e-02
  -3.71732412687e-03
  +1.36661827770e-02
  +1.37569532937e-02
  +5.52403413474e-03
  -5.01801732512e-03
  -1.56779998413e-02
  -2.26101563245e-02
  -2.53373143422e-02
  -2.46626856445e-02
  -2.53373143564e-02
  -2.46626856447e-02
