<Qucs Dataset 0.0.18>
<indep frequency 101>
  +1.00000000000e+00
  +1.09647819614e+00
  +1.20226443462e+00
  +1.31825673856e+00
  +1.44543977075e+00
  +1.58489319246e+00
  +1.73780082875e+00
  +1.90546071796e+00
  +2.08929613085e+00
  +2.29086765277e+00
  +2.51188643151e+00
  +2.75422870334e+00
  +3.01995172040e+00
  +3.31131121483e+00
  +3.63078054770e+00
  +3.98107170553e+00
  +4.36515832240e+00
  +4.78630092323e+00
  +5.24807460250e+00
  +5.75439937337e+00
  +6.30957344480e+00
  +6.91830970919e+00
  +7.58577575029e+00
  +8.31763771103e+00
  +9.12010839356e+00
  +1.00000000000e+01
  +1.09647819614e+01
  +1.20226443462e+01
  +1.31825673856e+01
  +1.44543977075e+01
  +1.58489319246e+01
  +1.73780082875e+01
  +1.90546071796e+01
  +2.08929613085e+01
  +2.29086765277e+01
  +2.51188643151e+01
  +2.75422870334e+01
  +3.01995172040e+01
  +3.31131121483e+01
  +3.63078054770e+01
  +3.98107170553e+01
  +4.36515832240e+01
  +4.78630092323e+01
  +5.24807460250e+01
  +5.75439937337e+01
  +6.30957344480e+01
  +6.91830970919e+01
  +7.58577575029e+01
  +8.31763771103e+01
  +9.12010839356e+01
  +1.00000000000e+02
  +1.09647819614e+02
  +1.20226443462e+02
  +1.31825673856e+02
  +1.44543977075e+02
  +1.58489319246e+02
  +1.73780082875e+02
  +1.90546071796e+02
  +2.08929613085e+02
  +2.29086765277e+02
  +2.51188643151e+02
  +2.75422870334e+02
  +3.01995172040e+02
  +3.31131121483e+02
  +3.63078054770e+02
  +3.98107170553e+02
  +4.36515832240e+02
  +4.78630092323e+02
  +5.24807460250e+02
  +5.75439937337e+02
  +6.30957344480e+02
  +6.91830970919e+02
  +7.58577575029e+02
  +8.31763771103e+02
  +9.12010839356e+02
  +1.00000000000e+03
  +1.09647819614e+03
  +1.20226443462e+03
  +1.31825673856e+03
  +1.44543977075e+03
  +1.58489319246e+03
  +1.73780082875e+03
  +1.90546071796e+03
  +2.08929613085e+03
  +2.29086765277e+03
  +2.51188643151e+03
  +2.75422870334e+03
  +3.01995172040e+03
  +3.31131121483e+03
  +3.63078054770e+03
  +3.98107170553e+03
  +4.36515832240e+03
  +4.78630092323e+03
  +5.24807460250e+03
  +5.75439937337e+03
  +6.30957344480e+03
  +6.91830970919e+03
  +7.58577575029e+03
  +8.31763771103e+03
  +9.12010839356e+03
  +1.00000000000e+04
</indep>
<dep S[2,2] frequency>
  -3.08056241437e-01+j6.84849002189e-01
  -2.53504612378e-01+j7.19600499756e-01
  -1.93655994444e-01+j7.51348162878e-01
  -1.28858241481e-01+j7.79107304803e-01
  -5.96984220378e-02+j8.01927550065e-01
  +1.29993063992e-02+j8.18962971913e-01
  +8.82004795889e-02+j8.29543011515e-01
  +1.64712093974e-01+j8.33234063312e-01
  +2.41254949237e-01+j8.29881726784e-01
  +3.16547763246e-01+j8.19626301366e-01
  +3.89391576259e-01+j8.02888696933e-01
  +4.58742893979e-01+j7.80329333230e-01
  +5.23766588127e-01+j7.52787268940e-01
  +5.83863912992e-01+j7.21209492251e-01
  +6.38675750604e-01+j6.86580536396e-01
  +6.88065089041e-01+j6.49860709816e-01
  +7.32085009631e-01+j6.11938156027e-01
  +7.70938998975e-01+j5.73596697947e-01
  +8.04939595656e-01+j5.35498742557e-01
  +8.34469828782e-01+j4.98180792805e-01
  +8.59950169847e-01+j4.62058343454e-01
  +8.81812189674e-01+j4.27436914690e-01
  +9.00478975933e-01+j3.94526416351e-01
  +9.16351653049e-01+j3.63456678609e-01
  +9.29800991383e-01+j3.34292647474e-01
  +9.41162996786e-01+j3.07048320388e-01
  +9.50737436913e-01+j2.81698945292e-01
  +9.58788408713e-01+j2.58191323539e-01
  +9.65546227716e-01+j2.36452261017e-01
  +9.71210091418e-01+j2.16395328892e-01
  +9.75951119207e-01+j1.97926150632e-01
  +9.79915493751e-01+j1.80946446924e-01
  +9.83227523619e-01+j1.65357060818e-01
  +9.85992517247e-01+j1.51060163300e-01
  +9.88299408555e-01+j1.37960812097e-01
  +9.90223109000e-01+j1.25968008315e-01
  +9.91826583491e-01+j1.14995369142e-01
  +9.93162661662e-01+j1.04961511528e-01
  +9.94275604083e-01+j9.57902218700e-02
  +9.95202446874e-01+j8.74104702732e-02
  +9.95974149495e-01+j7.97563145509e-02
  +9.96616569960e-01+j7.27667284401e-02
  +9.97151290340e-01+j6.63853800463e-02
  +9.97596313361e-01+j6.05603799358e-02
  +9.97966648781e-01+j5.52440131792e-02
  +9.98274805946e-01+j5.03924657319e-02
  +9.98531206840e-01+j4.59655525483e-02
  +9.98744531982e-01+j4.19264525684e-02
  +9.98922009749e-01+j3.82414540249e-02
  +9.99069658144e-01+j3.48797122590e-02
  +9.99192486673e-01+j3.18130213105e-02
  +9.99294664794e-01+j2.90155998707e-02
  +9.99379662402e-01+j2.64638917110e-02
  +9.99450366941e-01+j2.41363803573e-02
  +9.99509180986e-01+j2.20134175538e-02
  +9.99558103542e-01+j2.00770649075e-02
  +9.99598797740e-01+j1.83109480138e-02
  +9.99632647214e-01+j1.67001223154e-02
  +9.99660803027e-01+j1.52309499256e-02
  +9.99684222738e-01+j1.38909866559e-02
  +9.99703702906e-01+j1.26688785005e-02
  +9.99719906152e-01+j1.15542668634e-02
  +9.99733383664e-01+j1.05377018468e-02
  +9.99744593937e-01+j9.61056295808e-03
  +9.99753918350e-01+j8.76498663417e-03
  +9.99761674139e-01+j7.99380002131e-03
  +9.99768125178e-01+j7.29046048953e-03
  +9.99773490957e-01+j6.64900039943e-03
  +9.99777954044e-01+j6.06397667570e-03
  +9.99781666296e-01+j5.53042477761e-03
  +9.99784754025e-01+j5.04381668897e-03
  +9.99787322295e-01+j4.60002258140e-03
  +9.99789458495e-01+j4.19527583335e-03
  +9.99791235313e-01+j3.82614111362e-03
  +9.99792713209e-01+j3.48948526315e-03
  +9.99793942471e-01+j3.18245073129e-03
  +9.99794964928e-01+j2.90243134343e-03
  +9.99795815372e-01+j2.64705019656e-03
  +9.99796522741e-01+j2.41413949632e-03
  +9.99797111105e-01+j2.20172216570e-03
  +9.99797600486e-01+j2.00799507004e-03
  +9.99798007535e-01+j1.83131371656e-03
  +9.99798346104e-01+j1.67017829909e-03
  +9.99798627713e-01+j1.52322096983e-03
  +9.99798861946e-01+j1.38919423048e-03
  +9.99799056772e-01+j1.26696034429e-03
  +9.99799218821e-01+j1.15548167938e-03
  +9.99799353608e-01+j1.05381190151e-03
  +9.99799465719e-01+j9.61087941475e-04
  +9.99799558969e-01+j8.76522669246e-04
  +9.99799636531e-01+j7.99398212500e-04
  +9.99799701044e-01+j7.29059862985e-04
  +9.99799754703e-01+j6.64910518992e-04
  +9.99799799336e-01+j6.06405616763e-04
  +9.99799836459e-01+j5.53048507854e-04
  +9.99799867337e-01+j5.04386243199e-04
  +9.99799893020e-01+j4.60005728109e-04
  +9.99799914382e-01+j4.19530215579e-04
  +9.99799932151e-01+j3.82616108125e-04
  +9.99799946930e-01+j3.48950041017e-04
  +9.99799959223e-01+j3.18246222148e-04
</dep>
<dep S[1,1] frequency>
  -3.08042831357e-01+j6.84854299907e-01
  -2.53490390699e-01+j7.19605398863e-01
  -1.93640998768e-01+j7.51352513579e-01
  -1.28842545128e-01+j7.79110957894e-01
  -5.96821353597e-02+j8.01930367191e-01
  +1.30160382623e-02+j8.18964836627e-01
  +8.82174828664e-02+j8.29543839679e-01
  +1.64729176036e-01+j8.33233811239e-01
  +2.41271910934e-01+j8.29880395727e-01
  +3.16564412174e-01+j8.19623937529e-01
  +3.89407739125e-01+j8.02885386998e-01
  +4.58758426423e-01+j7.80325196204e-01
  +5.23781380936e-01+j7.52782445705e-01
  +5.83877894357e-01+j7.21204134431e-01
  +6.38688884807e-01+j6.86574796007e-01
  +6.88077372396e-01+j6.49854730740e-01
  +7.32096464727e-01+j6.11932067875e-01
  +7.70949668268e-01+j5.73590612344e-01
  +8.04949535189e-01+j5.35492751600e-01
  +8.34479102607e-01+j4.98174969228e-01
  +8.59958845430e-01+j4.62052741969e-01
  +8.81820334372e-01+j4.27431574042e-01
  +9.00486654476e-01+j3.94521361697e-01
  +9.16358925890e-01+j3.63451923935e-01
  +9.29807913759e-01+j3.34288197880e-01
  +9.41169618295e-01+j3.07044174114e-01
  +9.50743801483e-01+j2.81695095472e-01
  +9.58794554815e-01+j2.58187759644e-01
  +9.65552188738e-01+j2.36448970026e-01
  +9.71215896125e-01+j2.16392296220e-01
  +9.75956792230e-01+j1.97923360842e-01
  +9.79921056075e-01+j1.80943884268e-01
  +9.83232993049e-01+j1.65354709636e-01
  +9.85997908841e-01+j1.51058008302e-01
  +9.88304735010e-01+j1.37958838561e-01
  +9.90228380998e-01+j1.25966202217e-01
  +9.91831810000e-01+j1.14993717232e-01
  +9.93167850202e-01+j1.04960001370e-01
  +9.94280760947e-01+j9.57888418536e-02
  +9.95207577329e-01+j8.74092096037e-02
  +9.95979257937e-01+j7.97551632263e-02
  +9.96621660063e-01+j7.27656772191e-02
  +9.97156365167e-01+j6.63844204097e-02
  +9.97601375467e-01+j6.05595040444e-02
  +9.97971700297e-01+j5.52432138310e-02
  +9.98279848645e-01+j5.03917363188e-02
  +9.98536242201e-01+j4.59648870129e-02
  +9.98749561236e-01+j4.19258453631e-02
  +9.98927033921e-01+j3.82409000726e-02
  +9.99074678088e-01+j3.48792069162e-02
  +9.99197503098e-01+j3.18125603319e-02
  +9.99299678292e-01+j2.90151793770e-02
  +9.99384673465e-01+j2.64635081585e-02
  +9.99455375978e-01+j2.41360305094e-02
  +9.99514188338e-01+j2.20130984554e-02
  +9.99563109491e-01+j2.00767738610e-02
  +9.99603802523e-01+j1.83106825572e-02
  +9.99637651027e-01+j1.66998802015e-02
  +9.99665806033e-01+j1.52307291041e-02
  +9.99689225073e-01+j1.38907852559e-02
  +9.99708704683e-01+j1.26686948152e-02
  +9.99724907463e-01+j1.15540993356e-02
  +9.99738384590e-01+j1.05375490560e-02
  +9.99749594541e-01+j9.61042360843e-03
  +9.99758918687e-01+j8.76485954369e-03
  +9.99766674254e-01+j7.99368411182e-03
  +9.99773125108e-01+j7.29035477761e-03
  +9.99778490733e-01+j6.64890398809e-03
  +9.99782953692e-01+j6.06388874682e-03
  +9.99786665837e-01+j5.53034458500e-03
  +9.99789753478e-01+j5.04374355203e-03
  +9.99792321675e-01+j4.59995587942e-03
  +9.99794457813e-01+j4.19521500019e-03
  +9.99796234580e-01+j3.82608563294e-03
  +9.99797712434e-01+j3.48943466404e-03
  +9.99798941661e-01+j3.18240458425e-03
  +9.99799964088e-01+j2.90238925676e-03
  +9.99800814508e-01+j2.64701181300e-03
  +9.99801521856e-01+j2.41410449005e-03
  +9.99802110204e-01+j2.20169023956e-03
  +9.99802599570e-01+j2.00796595304e-03
  +9.99803006608e-01+j1.83128716152e-03
  +9.99803345167e-01+j1.67015408059e-03
  +9.99803626768e-01+j1.52319888228e-03
  +9.99803860994e-01+j1.38917408639e-03
  +9.99804055815e-01+j1.26694197265e-03
  +9.99804217860e-01+j1.15546492425e-03
  +9.99804352643e-01+j1.05379662064e-03
  +9.99804464750e-01+j9.61074005154e-04
  +9.99804557997e-01+j8.76509959169e-04
  +9.99804635557e-01+j7.99386620770e-04
  +9.99804700068e-01+j7.29049291201e-04
  +9.99804753726e-01+j6.64900877410e-04
  +9.99804798357e-01+j6.06396823535e-04
  +9.99804835479e-01+j5.53040488336e-04
  +9.99804866356e-01+j5.04378929310e-04
  +9.99804892039e-01+j4.59999057761e-04
  +9.99804913400e-01+j4.19524132149e-04
  +9.99804931168e-01+j3.82610559971e-04
  +9.99804945947e-01+j3.48944981040e-04
  +9.99804958239e-01+j3.18241607396e-04
</dep>
<indep _net4.V 1>
  +0.00000000000e+00
</indep>
<indep _net3.V 1>
  +0.00000000000e+00
</indep>
<indep _net1.V 1>
  +0.00000000000e+00
</indep>
<indep _net0.V 1>
  +0.00000000000e+00
</indep>
<indep _net2.V 1>
  +0.00000000000e+00
</indep>
