<Qucs Dataset 0.0.20>
<indep Vx 101>
  +0.00000000000000000000e+00
  +2.99999999999999988898e-02
  +5.99999999999999977796e-02
  +8.99999999999999966693e-02
  +1.19999999999999995559e-01
  +1.49999999999999994449e-01
  +1.79999999999999993339e-01
  +2.09999999999999992228e-01
  +2.39999999999999991118e-01
  +2.70000000000000017764e-01
  +2.99999999999999988898e-01
  +3.29999999999999960032e-01
  +3.59999999999999986677e-01
  +3.90000000000000013323e-01
  +4.19999999999999984457e-01
  +4.49999999999999955591e-01
  +4.79999999999999982236e-01
  +5.10000000000000008882e-01
  +5.40000000000000035527e-01
  +5.69999999999999951150e-01
  +5.99999999999999977796e-01
  +6.30000000000000004441e-01
  +6.59999999999999920064e-01
  +6.89999999999999946709e-01
  +7.19999999999999973355e-01
  +7.50000000000000000000e-01
  +7.80000000000000026645e-01
  +8.09999999999999942268e-01
  +8.39999999999999968914e-01
  +8.69999999999999995559e-01
  +8.99999999999999911182e-01
  +9.29999999999999937828e-01
  +9.59999999999999964473e-01
  +9.89999999999999991118e-01
  +1.02000000000000001776e+00
  +1.05000000000000004441e+00
  +1.08000000000000007105e+00
  +1.10999999999999987566e+00
  +1.13999999999999990230e+00
  +1.16999999999999992895e+00
  +1.19999999999999995559e+00
  +1.22999999999999998224e+00
  +1.26000000000000000888e+00
  +1.29000000000000003553e+00
  +1.31999999999999984013e+00
  +1.34999999999999986677e+00
  +1.37999999999999989342e+00
  +1.40999999999999992006e+00
  +1.43999999999999994671e+00
  +1.46999999999999997335e+00
  +1.50000000000000000000e+00
  +1.53000000000000002665e+00
  +1.56000000000000005329e+00
  +1.58999999999999985789e+00
  +1.61999999999999988454e+00
  +1.64999999999999991118e+00
  +1.67999999999999993783e+00
  +1.70999999999999996447e+00
  +1.73999999999999999112e+00
  +1.77000000000000001776e+00
  +1.79999999999999982236e+00
  +1.82999999999999984901e+00
  +1.85999999999999987566e+00
  +1.88999999999999990230e+00
  +1.91999999999999992895e+00
  +1.94999999999999995559e+00
  +1.97999999999999998224e+00
  +2.00999999999999978684e+00
  +2.04000000000000003553e+00
  +2.06999999999999984013e+00
  +2.10000000000000008882e+00
  +2.12999999999999989342e+00
  +2.16000000000000014211e+00
  +2.18999999999999994671e+00
  +2.21999999999999975131e+00
  +2.25000000000000000000e+00
  +2.27999999999999980460e+00
  +2.31000000000000005329e+00
  +2.33999999999999985789e+00
  +2.37000000000000010658e+00
  +2.39999999999999991118e+00
  +2.42999999999999971578e+00
  +2.45999999999999996447e+00
  +2.48999999999999976907e+00
  +2.52000000000000001776e+00
  +2.54999999999999982236e+00
  +2.58000000000000007105e+00
  +2.60999999999999987566e+00
  +2.63999999999999968026e+00
  +2.66999999999999992895e+00
  +2.69999999999999973355e+00
  +2.72999999999999998224e+00
  +2.75999999999999978684e+00
  +2.79000000000000003553e+00
  +2.81999999999999984013e+00
  +2.85000000000000008882e+00
  +2.87999999999999989342e+00
  +2.90999999999999969802e+00
  +2.93999999999999994671e+00
  +2.96999999999999975131e+00
  +3.00000000000000000000e+00
</indep>
<dep Ix Vx>
  -4.98292969858921776021e-05
  -7.45388620475252380859e-06
  +1.61347539016681459868e-05
  +2.55415951684611236853e-05
  +2.87513377863851661792e-05
  +2.97854962345184021578e-05
  +3.01124240728899419061e-05
  +3.02151508872025275081e-05
  +3.02473679534926906658e-05
  +3.02574657751265149925e-05
  +3.02606301486180952925e-05
  +3.02616217158981380209e-05
  +3.02619324211669803463e-05
  +3.02620297793662755049e-05
  +3.02620602860964504270e-05
  +3.02620698452303032847e-05
  +3.02620728405375593630e-05
  +3.02620737791019439947e-05
  +3.02620740731965402184e-05
  +3.02620741653494693861e-05
  +3.02620741942251139374e-05
  +3.02620742032731131037e-05
  +3.02620742061083424423e-05
  +3.02620742069968630633e-05
  +3.02620742072759028212e-05
  +3.02620742073622900174e-05
  +3.02620742073895780309e-05
  +3.02620742073980280315e-05
  +3.02620742074004573220e-05
  +3.02620742074013551770e-05
  +3.02620742074015313598e-05
  +3.02620742074017583646e-05
  +3.02620742074019040543e-05
  +3.02620742074333459173e-05
  +3.02620742074367882592e-05
  +3.02620742074401696147e-05
  +3.02620742074437136006e-05
  +3.02620742074473321253e-05
  +3.02620742074506863758e-05
  +3.02620742074539389823e-05
  +3.02620742074576117172e-05
  +3.02620742074609659676e-05
  +3.02620742074643812045e-05
  +3.02620742074677964413e-05
  +3.02620742074712489476e-05
  +3.02620742074745489880e-05
  +3.02620742074781166908e-05
  +3.02620742074814438362e-05
  +3.02620742074848726256e-05
  +3.02620742074881726659e-05
  +3.02620742074916658298e-05
  +3.02620742074951183361e-05
  +3.02620742074987300846e-05
  +3.02620742075021249926e-05
  +3.02620742075056317090e-05
  +3.02620742075091723067e-05
  +3.02620742075122690592e-05
  +3.02620742075155860402e-05
  +3.02620742075190588753e-05
  +3.02620742075224334546e-05
  +3.02620742075257402712e-05
  +3.02620742075292029419e-05
  +3.02620742075326723888e-05
  +3.02620742075359859817e-05
  +3.02620742075395909539e-05
  +3.02620742075428808299e-05
  +3.02620742075463130074e-05
  +3.02620742075496604816e-05
  +3.02620742075532112437e-05
  +3.02620742075564977316e-05
  +3.02620742075600417174e-05
  +3.02620742075635314932e-05
  +3.02620742075668315335e-05
  +3.02620742075702433822e-05
  +3.02620742075737839800e-05
  +3.02620742075770874085e-05
  +3.02620742075804382708e-05
  +3.02620742075840025854e-05
  +3.02620742075872145344e-05
  +3.02620742075908262829e-05
  +3.02620742075942211909e-05
  +3.02620742075975076787e-05
  +3.02620742076010110070e-05
  +3.02620742076044601252e-05
  +3.02620742076077500011e-05
  +3.02620742076112330006e-05
  +3.02620742076146380731e-05
  +3.02620742076180160405e-05
  +3.02620742076215295331e-05
  +3.02620742076248668429e-05
  +3.02620742076282583629e-05
  +3.02620742076317345861e-05
  +3.02620742076352040330e-05
  +3.02620742076384837446e-05
  +3.02620742076419193102e-05
  +3.02620742076455988214e-05
  +3.02620742076488243228e-05
  +3.02620742076522158427e-05
  +3.02620742076556480202e-05
  +3.02620742076589378962e-05
  +3.02620742076624412245e-05
</dep>
<dep V1.I Vx>
  +4.98292969858921776021e-05
  +7.45388620475252380859e-06
  -1.61347539016681459868e-05
  -2.55415951684611236853e-05
  -2.87513377863851661792e-05
  -2.97854962345184021578e-05
  -3.01124240728899419061e-05
  -3.02151508872025275081e-05
  -3.02473679534926906658e-05
  -3.02574657751265149925e-05
  -3.02606301486180952925e-05
  -3.02616217158981380209e-05
  -3.02619324211669803463e-05
  -3.02620297793662755049e-05
  -3.02620602860964504270e-05
  -3.02620698452303032847e-05
  -3.02620728405375593630e-05
  -3.02620737791019439947e-05
  -3.02620740731965402184e-05
  -3.02620741653494693861e-05
  -3.02620741942251139374e-05
  -3.02620742032731131037e-05
  -3.02620742061083424423e-05
  -3.02620742069968630633e-05
  -3.02620742072759028212e-05
  -3.02620742073622900174e-05
  -3.02620742073895780309e-05
  -3.02620742073980280315e-05
  -3.02620742074004573220e-05
  -3.02620742074013551770e-05
  -3.02620742074015313598e-05
  -3.02620742074017583646e-05
  -3.02620742074019040543e-05
  -3.02620742074333459173e-05
  -3.02620742074367882592e-05
  -3.02620742074401696147e-05
  -3.02620742074437136006e-05
  -3.02620742074473321253e-05
  -3.02620742074506863758e-05
  -3.02620742074539389823e-05
  -3.02620742074576117172e-05
  -3.02620742074609659676e-05
  -3.02620742074643812045e-05
  -3.02620742074677964413e-05
  -3.02620742074712489476e-05
  -3.02620742074745489880e-05
  -3.02620742074781166908e-05
  -3.02620742074814438362e-05
  -3.02620742074848726256e-05
  -3.02620742074881726659e-05
  -3.02620742074916658298e-05
  -3.02620742074951183361e-05
  -3.02620742074987300846e-05
  -3.02620742075021249926e-05
  -3.02620742075056317090e-05
  -3.02620742075091723067e-05
  -3.02620742075122690592e-05
  -3.02620742075155860402e-05
  -3.02620742075190588753e-05
  -3.02620742075224334546e-05
  -3.02620742075257402712e-05
  -3.02620742075292029419e-05
  -3.02620742075326723888e-05
  -3.02620742075359859817e-05
  -3.02620742075395909539e-05
  -3.02620742075428808299e-05
  -3.02620742075463130074e-05
  -3.02620742075496604816e-05
  -3.02620742075532112437e-05
  -3.02620742075564977316e-05
  -3.02620742075600417174e-05
  -3.02620742075635314932e-05
  -3.02620742075668315335e-05
  -3.02620742075702433822e-05
  -3.02620742075737839800e-05
  -3.02620742075770874085e-05
  -3.02620742075804382708e-05
  -3.02620742075840025854e-05
  -3.02620742075872145344e-05
  -3.02620742075908262829e-05
  -3.02620742075942211909e-05
  -3.02620742075975076787e-05
  -3.02620742076010110070e-05
  -3.02620742076044601252e-05
  -3.02620742076077500011e-05
  -3.02620742076112330006e-05
  -3.02620742076146380731e-05
  -3.02620742076180160405e-05
  -3.02620742076215295331e-05
  -3.02620742076248668429e-05
  -3.02620742076282583629e-05
  -3.02620742076317345861e-05
  -3.02620742076352040330e-05
  -3.02620742076384837446e-05
  -3.02620742076419193102e-05
  -3.02620742076455988214e-05
  -3.02620742076488243228e-05
  -3.02620742076522158427e-05
  -3.02620742076556480202e-05
  -3.02620742076589378962e-05
  -3.02620742076624412245e-05
</dep>
<dep V2.I Vx>
  +4.95065482610141063716e-05
  +7.52659770951218316023e-05
  +8.99326768173195614450e-05
  +9.57810563684203581823e-05
  +9.77733364997504820690e-05
  +9.84147658986876346966e-05
  +9.86174890780134477154e-05
  +9.86811832511319059679e-05
  +9.87011584267461031814e-05
  +9.87074192114468623163e-05
  +9.87093811603893632597e-05
  +9.87099959433226784630e-05
  +9.87101885840562708269e-05
  +9.87102489472217324747e-05
  +9.87102678617330335379e-05
  +9.87102737885020917056e-05
  +9.87102756456256910308e-05
  +9.87102762275461078322e-05
  +9.87102764098879610372e-05
  +9.87102764670238705391e-05
  +9.87102764849271248305e-05
  +9.87102764905369901589e-05
  +9.87102764922948477987e-05
  +9.87102764928456360548e-05
  +9.87102764930182545932e-05
  +9.87102764930723020715e-05
  +9.87102764930892833881e-05
  +9.87102764930944062433e-05
  +9.87102764930958292587e-05
  +9.87102764930963849123e-05
  +9.87102764930966288578e-05
  +9.87102764930967914881e-05
  +9.87102764930968728033e-05
  +9.87102764931241946980e-05
  +9.87102764931271898065e-05
  +9.87102764931301713625e-05
  +9.87102764931331393659e-05
  +9.87102764931361209219e-05
  +9.87102764931390889254e-05
  +9.87102764931420298238e-05
  +9.87102764931450520373e-05
  +9.87102764931480200408e-05
  +9.87102764931509880442e-05
  +9.87102764931539560476e-05
  +9.87102764931568969460e-05
  +9.87102764931598785020e-05
  +9.87102764931628600580e-05
  +9.87102764931658280614e-05
  +9.87102764931687960649e-05
  +9.87102764931717369633e-05
  +9.87102764931747320718e-05
  +9.87102764931777136278e-05
  +9.87102764931806274211e-05
  +9.87102764931835954245e-05
  +9.87102764931865769805e-05
  +9.87102764931895449840e-05
  +9.87102764931924994349e-05
  +9.87102764931954674383e-05
  +9.87102764931984625468e-05
  +9.87102764932014169977e-05
  +9.87102764932043850012e-05
  +9.87102764932073394521e-05
  +9.87102764932103074556e-05
  +9.87102764932132483540e-05
  +9.87102764932162299099e-05
  +9.87102764932191979134e-05
  +9.87102764932221659168e-05
  +9.87102764932251474728e-05
  +9.87102764932280748187e-05
  +9.87102764932310428221e-05
  +9.87102764932340243781e-05
  +9.87102764932369923815e-05
  +9.87102764932399739375e-05
  +9.87102764932429554935e-05
  +9.87102764932458692868e-05
  +9.87102764932488643953e-05
  +9.87102764932518595038e-05
  +9.87102764932548004022e-05
  +9.87102764932577413006e-05
  +9.87102764932607499616e-05
  +9.87102764932637044126e-05
  +9.87102764932666724160e-05
  +9.87102764932696404195e-05
  +9.87102764932726084229e-05
  +9.87102764932755628738e-05
  +9.87102764932785308773e-05
  +9.87102764932814988807e-05
  +9.87102764932844668842e-05
  +9.87102764932874213351e-05
  +9.87102764932904028911e-05
  +9.87102764932933573420e-05
  +9.87102764932963253454e-05
  +9.87102764932993204539e-05
  +9.87102764933022613523e-05
  +9.87102764933052564608e-05
  +9.87102764933081973592e-05
  +9.87102764933111789152e-05
  +9.87102764933141198136e-05
  +9.87102764933171013696e-05
  +9.87102764933200422679e-05
  +9.87102764933230238239e-05
</dep>
<dep _net3.V Vx>
  +1.69089270483220138449e-04
  +1.65274769291744796917e-02
  +2.53027503161754388494e-02
  +2.88027282363565138856e-02
  +3.00002679216370068960e-02
  +3.03865826768440483452e-02
  +3.05087601040963454779e-02
  +3.05471558035592880009e-02
  +3.05591979424789592090e-02
  +3.05629723715652619476e-02
  +3.05641551766247451805e-02
  +3.05645258131422292713e-02
  +3.05646419512700731613e-02
  +3.05646783426720830557e-02
  +3.05646897457460160752e-02
  +3.05646933188432334827e-02
  +3.05646944384554176966e-02
  +3.05646947892803111380e-02
  +3.05646948992094810715e-02
  +3.05646949336554167587e-02
  +3.05646949444487829595e-02
  +3.05646949478308796455e-02
  +3.05646949488907193615e-02
  +3.05646949492228911516e-02
  +3.05646949493272590548e-02
  +3.05646949493592334779e-02
  +3.05646949493695238576e-02
  +3.05646949493725873792e-02
  +3.05646949493734512715e-02
  +3.05646949493737531134e-02
  +3.05646949493739335246e-02
  +3.05646949493740202608e-02
  +3.05646949493740896497e-02
  +3.05646949493780031859e-02
  +3.05646949493783813556e-02
  +3.05646949493788427921e-02
  +3.05646949493792383090e-02
  +3.05646949493796823982e-02
  +3.05646949493802201625e-02
  +3.05646949493805566989e-02
  +3.05646949493810944631e-02
  +3.05646949493813997745e-02
  +3.05646949493819028443e-02
  +3.05646949493821595834e-02
  +3.05646949493827008171e-02
  +3.05646949493829506173e-02
  +3.05646949493836098122e-02
  +3.05646949493838908374e-02
  +3.05646949493842967627e-02
  +3.05646949493846714629e-02
  +3.05646949493852473911e-02
  +3.05646949493856637248e-02
  +3.05646949493861286307e-02
  +3.05646949493866074143e-02
  +3.05646949493870931369e-02
  +3.05646949493877037596e-02
  +3.05646949493877592707e-02
  +3.05646949493881547877e-02
  +3.05646949493885988769e-02
  +3.05646949493890533744e-02
  +3.05646949493895390970e-02
  +3.05646949493898756334e-02
  +3.05646949493902017614e-02
  +3.05646949493907048312e-02
  +3.05646949493911593287e-02
  +3.05646949493914160678e-02
  +3.05646949493919364849e-02
  +3.05646949493923458796e-02
  +3.05646949493927552743e-02
  +3.05646949493932409969e-02
  +3.05646949493936365139e-02
  +3.05646949493940875420e-02
  +3.05646949493944830589e-02
  +3.05646949493947467369e-02
  +3.05646949493952463373e-02
  +3.05646949493957424682e-02
  +3.05646949493961761490e-02
  +3.05646949493965994216e-02
  +3.05646949493969845302e-02
  +3.05646949493974598444e-02
  +3.05646949493978276058e-02
  +3.05646949493983029200e-02
  +3.05646949493986602731e-02
  +3.05646949493991876290e-02
  +3.05646949493994513070e-02
  +3.05646949494000064185e-02
  +3.05646949494003741798e-02
  +3.05646949494008182691e-02
  +3.05646949494013178694e-02
  +3.05646949494016231808e-02
  +3.05646949494020846172e-02
  +3.05646949494024350313e-02
  +3.05646949494029762651e-02
  +3.05646949494033301487e-02
  +3.05646949494037291351e-02
  +3.05646949494041662854e-02
  +3.05646949494044611884e-02
  +3.05646949494050509943e-02
  +3.05646949494054465113e-02
  +3.05646949494058073338e-02
  +3.05646949494062722397e-02
</dep>
<dep _net1.V Vx>
  +6.96142322630132648342e-01
  +7.06972339108828284893e-01
  +7.11574857536820370996e-01
  +7.13203627689197428019e-01
  +7.13735842990261826202e-01
  +7.13904888013200622510e-01
  +7.13958085471242287490e-01
  +7.13974777157107665104e-01
  +7.13980009629639700286e-01
  +7.13981649416479235981e-01
  +7.13982163256869584167e-01
  +7.13982324268286561164e-01
  +7.13982374720616874697e-01
  +7.13982390529620536412e-01
  +7.13982395483295229077e-01
  +7.13982397035504590121e-01
  +7.13982397521881639868e-01
  +7.13982397674285396150e-01
  +7.13982397722040418309e-01
  +7.13982397737004337301e-01
  +7.13982397741693031179e-01
  +7.13982397743162300330e-01
  +7.13982397743622820840e-01
  +7.13982397743767593923e-01
  +7.13982397743814223290e-01
  +7.13982397743826213699e-01
  +7.13982397743830654591e-01
  +7.13982397743831986858e-01
  +7.13982397743832430947e-01
  +7.13982397743832541970e-01
  +7.13982397743832541970e-01
  +7.13982397743832652992e-01
  +7.13982397743832652992e-01
  +7.13982397743839869442e-01
  +7.13982397743840535576e-01
  +7.13982397743841423754e-01
  +7.13982397743842089888e-01
  +7.13982397743842978066e-01
  +7.13982397743843755222e-01
  +7.13982397743844532378e-01
  +7.13982397743845420557e-01
  +7.13982397743846086691e-01
  +7.13982397743846974869e-01
  +7.13982397743847641003e-01
  +7.13982397743848418159e-01
  +7.13982397743849084293e-01
  +7.13982397743850083494e-01
  +7.13982397743850749627e-01
  +7.13982397743851526783e-01
  +7.13982397743852414962e-01
  +7.13982397743853081096e-01
  +7.13982397743853747230e-01
  +7.13982397743854968475e-01
  +7.13982397743855856653e-01
  +7.13982397743856966876e-01
  +7.13982397743858188122e-01
  +7.13982397743857855055e-01
  +7.13982397743858632211e-01
  +7.13982397743859409367e-01
  +7.13982397743860075501e-01
  +7.13982397743860963679e-01
  +7.13982397743861629813e-01
  +7.13982397743862295947e-01
  +7.13982397743863184125e-01
  +7.13982397743864072304e-01
  +7.13982397743864627415e-01
  +7.13982397743865515594e-01
  +7.13982397743866181727e-01
  +7.13982397743867069906e-01
  +7.13982397743867847062e-01
  +7.13982397743868735240e-01
  +7.13982397743869512396e-01
  +7.13982397743870178530e-01
  +7.13982397743870844664e-01
  +7.13982397743871732843e-01
  +7.13982397743872509999e-01
  +7.13982397743873287155e-01
  +7.13982397743874064311e-01
  +7.13982397743874730445e-01
  +7.13982397743875618623e-01
  +7.13982397743876395779e-01
  +7.13982397743877172935e-01
  +7.13982397743877950091e-01
  +7.13982397743878727248e-01
  +7.13982397743879393381e-01
  +7.13982397743880281560e-01
  +7.13982397743881058716e-01
  +7.13982397743881835872e-01
  +7.13982397743882724050e-01
  +7.13982397743883390184e-01
  +7.13982397743884167340e-01
  +7.13982397743884944497e-01
  +7.13982397743885721653e-01
  +7.13982397743886498809e-01
  +7.13982397743887164943e-01
  +7.13982397743888164143e-01
  +7.13982397743888719255e-01
  +7.13982397743889607433e-01
  +7.13982397743890384589e-01
  +7.13982397743891161745e-01
  +7.13982397743891938902e-01
</dep>
<dep _net0.V Vx>
  +0.00000000000000000000e+00
  +2.99999999999999988898e-02
  +5.99999999999999977796e-02
  +8.99999999999999966693e-02
  +1.19999999999999995559e-01
  +1.49999999999999994449e-01
  +1.79999999999999993339e-01
  +2.09999999999999992228e-01
  +2.39999999999999991118e-01
  +2.70000000000000017764e-01
  +2.99999999999999988898e-01
  +3.29999999999999960032e-01
  +3.59999999999999986677e-01
  +3.90000000000000013323e-01
  +4.19999999999999984457e-01
  +4.49999999999999955591e-01
  +4.79999999999999982236e-01
  +5.10000000000000008882e-01
  +5.40000000000000035527e-01
  +5.69999999999999951150e-01
  +5.99999999999999977796e-01
  +6.30000000000000004441e-01
  +6.59999999999999920064e-01
  +6.89999999999999946709e-01
  +7.19999999999999973355e-01
  +7.50000000000000000000e-01
  +7.80000000000000026645e-01
  +8.09999999999999942268e-01
  +8.39999999999999968914e-01
  +8.69999999999999995559e-01
  +8.99999999999999911182e-01
  +9.29999999999999937828e-01
  +9.59999999999999964473e-01
  +9.89999999999999991118e-01
  +1.02000000000000001776e+00
  +1.05000000000000004441e+00
  +1.08000000000000007105e+00
  +1.10999999999999987566e+00
  +1.13999999999999990230e+00
  +1.16999999999999992895e+00
  +1.19999999999999995559e+00
  +1.22999999999999998224e+00
  +1.26000000000000000888e+00
  +1.29000000000000003553e+00
  +1.31999999999999984013e+00
  +1.34999999999999986677e+00
  +1.37999999999999989342e+00
  +1.40999999999999992006e+00
  +1.43999999999999994671e+00
  +1.46999999999999997335e+00
  +1.50000000000000000000e+00
  +1.53000000000000002665e+00
  +1.56000000000000005329e+00
  +1.58999999999999985789e+00
