<Qucs Dataset 0.0.18>
<indep acfrequency 100>
  +3.00000000000e+05
  +3.02986981987e+05
  +3.06003704179e+05
  +3.09050462687e+05
  +3.12127556572e+05
  +3.15235287869e+05
  +3.18373961624e+05
  +3.21543885920e+05
  +3.24745371904e+05
  +3.27978733826e+05
  +3.31244289059e+05
  +3.34542358142e+05
  +3.37873264801e+05
  +3.41237335988e+05
  +3.44634901908e+05
  +3.48066296055e+05
  +3.51531855244e+05
  +3.55031919643e+05
  +3.58566832806e+05
  +3.62136941709e+05
  +3.65742596782e+05
  +3.69384151944e+05
  +3.73061964638e+05
  +3.76776395866e+05
  +3.80527810225e+05
  +3.84316575941e+05
  +3.88143064907e+05
  +3.92007652719e+05
  +3.95910718710e+05
  +3.99852645995e+05
  +4.03833821499e+05
  +4.07854636001e+05
  +4.11915484172e+05
  +4.16016764610e+05
  +4.20158879885e+05
  +4.24342236572e+05
  +4.28567245295e+05
  +4.32834320769e+05
  +4.37143881834e+05
  +4.41496351504e+05
  +4.45892157002e+05
  +4.50331729806e+05
  +4.54815505690e+05
  +4.59343924767e+05
  +4.63917431532e+05
  +4.68536474903e+05
  +4.73201508273e+05
  +4.77912989545e+05
  +4.82671381183e+05
  +4.87477150254e+05
  +4.92330768478e+05
  +4.97232712269e+05
  +5.02183462785e+05
  +5.07183505978e+05
  +5.12233332633e+05
  +5.17333438426e+05
  +5.22484323966e+05
  +5.27686494847e+05
  +5.32940461698e+05
  +5.38246740229e+05
  +5.43605851288e+05
  +5.49018320908e+05
  +5.54484680359e+05
  +5.60005466201e+05
  +5.65581220335e+05
  +5.71212490060e+05
  +5.76899828123e+05
  +5.82643792773e+05
  +5.88444947820e+05
  +5.94303862686e+05
  +6.00221112462e+05
  +6.06197277966e+05
  +6.12232945800e+05
  +6.18328708404e+05
  +6.24485164118e+05
  +6.30702917240e+05
  +6.36982578084e+05
  +6.43324763040e+05
  +6.49730094638e+05
  +6.56199201602e+05
  +6.62732718920e+05
  +6.69331287899e+05
  +6.75995556234e+05
  +6.82726178067e+05
  +6.89523814055e+05
  +6.96389131429e+05
  +7.03322804069e+05
  +7.10325512559e+05
  +7.17397944263e+05
  +7.24540793387e+05
  +7.31754761050e+05
  +7.39040555351e+05
  +7.46398891440e+05
  +7.53830491587e+05
  +7.61336085254e+05
  +7.68916409164e+05
  +7.76572207377e+05
  +7.84304231361e+05
  +7.92113240067e+05
  +8.00000000000e+05
</indep>
<dep Gain acfrequency>
  +1.50008368649e+01
  +1.52183851306e+01
  +1.54405534603e+01
  +1.56675847807e+01
  +1.58997404587e+01
  +1.61373022171e+01
  +1.63805743050e+01
  +1.66298859656e+01
  +1.68855942522e+01
  +1.71480872508e+01
  +1.74177877847e+01
  +1.76951576881e+01
  +1.79807027585e+01
  +1.82749785197e+01
  +1.85785969624e+01
  +1.88922344663e+01
  +1.92166411623e+01
  +1.95526520604e+01
  +1.99012003601e+01
  +2.02633334747e+01
  +2.06402324660e+01
  +2.10332357955e+01
  +2.14438685994e+01
  +2.18738791017e+01
  +2.23252843633e+01
  +2.28004283952e+01
  +2.33020568743e+01
  +2.38334145026e+01
  +2.43983737759e+01
  +2.50016081666e+01
  +2.56488294722e+01
  +2.63471201557e+01
  +2.71054102936e+01
  +2.79351818864e+01
  +2.88515444106e+01
  +2.98749443466e+01
  +3.10340176634e+01
  +3.23706454912e+01
  +3.39496334717e+01
  +3.58792455492e+01
  +3.83615235983e+01
  +4.18461873854e+01
  +4.77350944067e+01
  +6.65023069631e+01
  +4.81009078158e+01
  +4.20326729226e+01
  +3.84880178510e+01
  +3.59762168724e+01
  +3.40293337040e+01
  +3.24392149329e+01
  +3.10949702912e+01
  +2.99304792438e+01
  +2.89031297124e+01
  +2.79838470853e+01
  +2.71519057991e+01
  +2.63920104203e+01
  +2.56925503221e+01
  +2.50445036688e+01
  +2.44407208221e+01
  +2.38754397145e+01
  +2.33439485392e+01
  +2.28423450880e+01
  +2.23673613011e+01
  +2.19162329106e+01
  +2.14866009479e+01
  +2.10764362028e+01
  +2.06839805011e+01
  +2.03077004982e+01
  +1.99462509181e+01
  +1.95984450122e+01
  +1.92632305993e+01
  +1.89396704685e+01
  +1.86269262246e+01
  +1.83242448749e+01
  +1.80309476176e+01
  +1.77464204118e+01
  +1.74701060000e+01
  +1.72014971220e+01
  +1.69401307138e+01
  +1.66855829244e+01
  +1.64374648150e+01
  +1.61954186336e+01
  +1.59591145720e+01
  +1.57282479355e+01
  +1.55025366608e+01
  +1.52817191341e+01
  +1.50655522657e+01
  +1.48538097858e+01
  +1.46462807330e+01
  +1.44427681074e+01
  +1.42430876700e+01
  +1.40470668677e+01
  +1.38545438698e+01
  +1.36653667013e+01
  +1.34793924626e+01
  +1.32964866244e+01
  +1.31165223904e+01
  +1.29393801191e+01
  +1.27649467990e+01
  +1.25931155709e+01
</dep>
<dep V2.i acfrequency>
  -3.22527304254e-10-j2.45213411611e-11
  -3.22587060358e-10-j2.42870623380e-11
  -3.22645679740e-10-j2.40548789836e-11
  -3.22703183346e-10-j2.38247765018e-11
  -3.22759591764e-10-j2.35967402730e-11
  -3.22814925225e-10-j2.33707556583e-11
  -3.22869203612e-10-j2.31468080044e-11
  -3.22922446463e-10-j2.29248826478e-11
  -3.22974672976e-10-j2.27049649191e-11
  -3.23025902014e-10-j2.24870401468e-11
  -3.23076152111e-10-j2.22710936617e-11
  -3.23125441478e-10-j2.20571108005e-11
  -3.23173788004e-10-j2.18450769094e-11
  -3.23221209265e-10-j2.16349773477e-11
  -3.23267722525e-10-j2.14267974913e-11
  -3.23313344745e-10-j2.12205227357e-11
  -3.23358092584e-10-j2.10161384996e-11
  -3.23401982407e-10-j2.08136302278e-11
  -3.23445030286e-10-j2.06129833938e-11
  -3.23487252007e-10-j2.04141835033e-11
  -3.23528663076e-10-j2.02172160961e-11
  -3.23569278718e-10-j2.00220667495e-11
  -3.23609113889e-10-j1.98287210804e-11
  -3.23648183272e-10-j1.96371647476e-11
  -3.23686501290e-10-j1.94473834546e-11
  -3.23724082102e-10-j1.92593629512e-11
  -3.23760939615e-10-j1.90730890362e-11
  -3.23797087482e-10-j1.88885475592e-11
  -3.23832539108e-10-j1.87057244225e-11
  -3.23867307658e-10-j1.85246055828e-11
  -3.23901406053e-10-j1.83451770537e-11
  -3.23934846984e-10-j1.81674249067e-11
  -3.23967642905e-10-j1.79913352728e-11
  -3.23999806048e-10-j1.78168943449e-11
  -3.24031348416e-10-j1.76440883782e-11
  -3.24062281796e-10-j1.74729036925e-11
  -3.24092617757e-10-j1.73033266730e-11
  -3.24122367656e-10-j1.71353437718e-11
  -3.24151542642e-10-j1.69689415093e-11
  -3.24180153655e-10-j1.68041064750e-11
  -3.24208211439e-10-j1.66408253291e-11
  -3.24235726534e-10-j1.64790848039e-11
  -3.24262709290e-10-j1.63188717088e-11
  -3.24289170064e-10-j1.61601729298e-11
  -3.24315118218e-10-j1.60029752931e-11
  -3.24340564135e-10-j1.58472660229e-11
  -3.24365517221e-10-j1.56930321217e-11
  -3.24389986898e-10-j1.55402607738e-11
  -3.24413982411e-10-j1.53889392356e-11
  -3.24437512837e-10-j1.52390548404e-11
  -3.24460587080e-10-j1.50905949997e-11
  -3.24483213880e-10-j1.49435472035e-11
  -3.24505401812e-10-j1.47978990216e-11
  -3.24527159292e-10-j1.46536381033e-11
  -3.24548494578e-10-j1.45107521781e-11
  -3.24569415771e-10-j1.43692290563e-11
  -3.24589930825e-10-j1.42290566290e-11
  -3.24610047538e-10-j1.40902228689e-11
  -3.24629773568e-10-j1.39527158298e-11
  -3.24649116424e-10-j1.38165236477e-11
  -3.24668083477e-10-j1.36816345405e-11
  -3.24686681955e-10-j1.35480368082e-11
  -3.24704918955e-10-j1.34157188334e-11
  -3.24722801435e-10-j1.32846690810e-11
  -3.24740336225e-10-j1.31548760985e-11
  -3.24757530025e-10-j1.30263285161e-11
  -3.24774389407e-10-j1.28990150467e-11
  -3.24790920819e-10-j1.27729244861e-11
  -3.24807130589e-10-j1.26480457124e-11
  -3.24823024922e-10-j1.25243676869e-11
  -3.24838609907e-10-j1.24018794531e-11
  -3.24853891517e-10-j1.22805701374e-11
  -3.24868875611e-10-j1.21604289486e-11
  -3.24883567937e-10-j1.20414451780e-11
  -3.24897974136e-10-j1.19236081988e-11
  -3.24912099736e-10-j1.18069074668e-11
  -3.24925950166e-10-j1.16913325194e-11
  -3.24939530747e-10-j1.15768729761e-11
  -3.24952846701e-10-j1.14635185376e-11
  -3.24965903148e-10-j1.13512589862e-11
  -3.24978705114e-10-j1.12400841855e-11
  -3.24991257526e-10-j1.11299840798e-11
  -3.25003565217e-10-j1.10209486940e-11
  -3.25015632929e-10-j1.09129681335e-11
  -3.25027465313e-10-j1.08060325840e-11
  -3.25039066929e-10-j1.07001323108e-11
  -3.25050442252e-10-j1.05952576587e-11
  -3.25061595670e-10-j1.04913990519e-11
  -3.25072531489e-10-j1.03885469934e-11
  -3.25083253929e-10-j1.02866920648e-11
  -3.25093767131e-10-j1.01858249258e-11
  -3.25104075157e-10-j1.00859363141e-11
  -3.25114181989e-10-j9.98701704500e-12
  -3.25124091536e-10-j9.88905801074e-12
  -3.25133807628e-10-j9.79205018045e-12
  -3.25143334024e-10-j9.69598459964e-12
  -3.25152674409e-10-j9.60085238983e-12
  -3.25161832398e-10-j9.50664474813e-12
  -3.25170811537e-10-j9.41335294688e-12
  -3.25179615302e-10-j9.32096833319e-12
</dep>
<dep V1.i acfrequency>
  -2.12427304254e-08-j2.45213411605e-09
  -2.12487060358e-08-j2.42870623374e-09
  -2.12545679740e-08-j2.40548789830e-09
  -2.12603183346e-08-j2.38247765012e-09
  -2.12659591764e-08-j2.35967402723e-09
  -2.12714925225e-08-j2.33707556577e-09
  -2.12769203612e-08-j2.31468080038e-09
  -2.12822446463e-08-j2.29248826472e-09
  -2.12874672976e-08-j2.27049649184e-09
  -2.12925902014e-08-j2.24870401461e-09
  -2.12976152111e-08-j2.22710936610e-09
  -2.13025441478e-08-j2.20571107998e-09
  -2.13073788004e-08-j2.18450769086e-09
  -2.13121209265e-08-j2.16349773469e-09
  -2.13167722525e-08-j2.14267974904e-09
  -2.13213344745e-08-j2.12205227348e-09
  -2.13258092584e-08-j2.10161384987e-09
  -2.13301982407e-08-j2.08136302268e-09
  -2.13345030286e-08-j2.06129833928e-09
  -2.13387252007e-08-j2.04141835022e-09
  -2.13428663076e-08-j2.02172160950e-09
  -2.13469278718e-08-j2.00220667484e-09
  -2.13509113889e-08-j1.98287210792e-09
  -2.13548183272e-08-j1.96371647464e-09
  -2.13586501290e-08-j1.94473834532e-09
  -2.13624082102e-08-j1.92593629498e-09
  -2.13660939615e-08-j1.90730890348e-09
  -2.13697087482e-08-j1.88885475577e-09
  -2.13732539108e-08-j1.87057244208e-09
  -2.13767307658e-08-j1.85246055811e-09
  -2.13801406053e-08-j1.83451770518e-09
  -2.13834846984e-08-j1.81674249046e-09
  -2.13867642906e-08-j1.79913352706e-09
  -2.13899806048e-08-j1.78168943424e-09
  -2.13931348416e-08-j1.76440883754e-09
  -2.13962281796e-08-j1.74729036894e-09
  -2.13992617757e-08-j1.73033266694e-09
  -2.14022367657e-08-j1.71353437676e-09
  -2.14051542642e-08-j1.69689415043e-09
  -2.14080153656e-08-j1.68041064687e-09
  -2.14108211439e-08-j1.66408253207e-09
  -2.14135726534e-08-j1.64790847914e-09
  -2.14162709289e-08-j1.63188716842e-09
  -2.14189169857e-08-j1.61601728758e-09
  -2.14215118213e-08-j1.60029753182e-09
  -2.14240564133e-08-j1.58472660355e-09
  -2.14265517220e-08-j1.56930321302e-09
  -2.14289986897e-08-j1.55402607802e-09
  -2.14313982411e-08-j1.53889392407e-09
  -2.14337512837e-08-j1.52390548446e-09
  -2.14360587080e-08-j1.50905950033e-09
  -2.14383213880e-08-j1.49435472067e-09
  -2.14405401812e-08-j1.47978990244e-09
  -2.14427159292e-08-j1.46536381058e-09
  -2.14448494577e-08-j1.45107521804e-09
  -2.14469415771e-08-j1.43692290584e-09
  -2.14489930824e-08-j1.42290566310e-09
  -2.14510047538e-08-j1.40902228707e-09
  -2.14529773568e-08-j1.39527158315e-09
  -2.14549116424e-08-j1.38165236493e-09
  -2.14568083476e-08-j1.36816345419e-09
  -2.14586681955e-08-j1.35480368096e-09
  -2.14604918955e-08-j1.34157188347e-09
  -2.14622801435e-08-j1.32846690822e-09
  -2.14640336225e-08-j1.31548760997e-09
  -2.14657530025e-08-j1.30263285172e-09
  -2.14674389407e-08-j1.28990150478e-09
  -2.14690920819e-08-j1.27729244871e-09
  -2.14707130589e-08-j1.26480457134e-09
  -2.14723024922e-08-j1.25243676878e-09
  -2.14738609907e-08-j1.24018794540e-09
  -2.14753891516e-08-j1.22805701383e-09
  -2.14768875611e-08-j1.21604289495e-09
  -2.14783567937e-08-j1.20414451788e-09
  -2.14797974135e-08-j1.19236081996e-09
  -2.14812099736e-08-j1.18069074676e-09
  -2.14825950166e-08-j1.16913325202e-09
  -2.14839530747e-08-j1.15768729768e-09
  -2.14852846700e-08-j1.14635185383e-09
  -2.14865903148e-08-j1.13512589869e-09
  -2.14878705114e-08-j1.12400841862e-09
  -2.14891257526e-08-j1.11299840804e-09
  -2.14903565217e-08-j1.10209486946e-09
  -2.14915632929e-08-j1.09129681342e-09
  -2.14927465313e-08-j1.08060325846e-09
  -2.14939066929e-08-j1.07001323114e-09
  -2.14950442252e-08-j1.05952576593e-09
  -2.14961595670e-08-j1.04913990525e-09
  -2.14972531489e-08-j1.03885469940e-09
  -2.14983253928e-08-j1.02866920653e-09
  -2.14993767131e-08-j1.01858249263e-09
  -2.15004075157e-08-j1.00859363146e-09
  -2.15014181989e-08-j9.98701704550e-10
  -2.15024091536e-08-j9.88905801122e-10
  -2.15033807628e-08-j9.79205018092e-10
  -2.15043334024e-08-j9.69598460011e-10
  -2.15052674409e-08-j9.60085239029e-10
  -2.15061832398e-08-j9.50664474858e-10
  -2.15070811537e-08-j9.41335294731e-10
  -2.15079615302e-08-j9.32096833362e-10
</dep>
<dep _net0.v acfrequency>
  +0.00000000000e+00
  +0.00000000000e+00
  +0.00000000000e+00
  +0.00000000000e+00
  +0.00000000000e+00
  +0.00000000000e+00
  +0.00000000000e+00
  +0.00000000000e+00
  +0.00000000000e+00
  +0.00000000000e+00
  +0.00000000000e+00
  +0.00000000000e+00
  +0.00000000000e+00
  +0.00000000000e+00
  +0.00000000000e+00
  +0.00000000000e+00
  +0.00000000000e+00
  +0.00000000000e+00
  +0.00000000000e+00
  +0.00000000000e+00
  +0.00000000000e+00
  +0.00000000000e+00
  +0.00000000000e+00
  +0.00000000000e+00
  +0.00000000000e+00
  +0.00000000000e+00
  +0.00000000000e+00
  +0.00000000000e+00
  +0.00000000000e+00
  +0.00000000000e+00
  +0.00000000000e+00
  +0.00000000000e+00
  +0.00000000000e+00
  +0.00000000000e+00
  +0.00000000000e+00
  +0.00000000000e+00
  +0.00000000000e+00
  +0.00000000000e+00
  +0.00000000000e+00
  +0.00000000000e+00
  +0.00000000000e+00
  +0.00000000000e+00
  +0.00000000000e+00
  +0.00000000000e+00
  +0.00000000000e+00
  +0.00000000000e+00
  +0.00000000000e+00
  +0.00000000000e+00
  +0.00000000000e+00
  +0.00000000000e+00
  +0.00000000000e+00
  +0.00000000000e+00
  +0.00000000000e+00
  +0.00000000000e+00
  +0.00000000000e+00
  +0.00000000000e+00
  +0.00000000000e+00
  +0.00000000000e+00
  +0.00000000000e+00
  +0.00000000000e+00
  +0.00000000000e+00
  +0.00000000000e+00
  +0.00000000000e+00
  +0.00000000000e+00
  +0.00000000000e+00
  +0.00000000000e+00
  +0.00000000000e+00
  +0.00000000000e+00
  +0.00000000000e+00
  +0.00000000000e+00
  +0.00000000000e+00
  +0.00000000000e+00
  +0.00000000000e+00
  +0.00000000000e+00
  +0.00000000000e+00
  +0.00000000000e+00
  +0.00000000000e+00
  +0.00000000000e+00
  +0.00000000000e+00
  +0.00000000000e+00
  +0.00000000000e+00
  +0.00000000000e+00
  +0.00000000000e+00
  +0.00000000000e+00
  +0.00000000000e+00
  +0.00000000000e+00
  +0.00000000000e+00
  +0.00000000000e+00
  +0.00000000000e+00
  +0.00000000000e+00
  +0.00000000000e+00
  +0.00000000000e+00
  +0.00000000000e+00
  +0.00000000000e+00
  +0.00000000000e+00
  +0.00000000000e+00
  +0.00000000000e+00
  +0.00000000000e+00
  +0.00000000000e+00
  +0.00000000000e+00
</dep>
<dep _net1.v acfrequency>
  +1.43457198727e-08-j1.13724516265e-07
  +1.40685843757e-08-j1.12637983287e-07
  +1.37967207449e-08-j1.11561168626e-07
  +1.35300318323e-08-j1.10494004589e-07
  +1.32684221602e-08-j1.09436423372e-07
  +1.30117978967e-08-j1.08388357085e-07
  +1.27600668317e-08-j1.07349737768e-07
  +1.25131383538e-08-j1.06320497415e-07
  +1.22709234261e-08-j1.05300567993e-07
  +1.20333345630e-08-j1.04289881459e-07
  +1.18002858073e-08-j1.03288369780e-07
  +1.15716927069e-08-j1.02295964951e-07
  +1.13474722920e-08-j1.01312599011e-07
  +1.11275430529e-08-j1.00338204060e-07
  +1.09118249170e-08-j9.93727122735e-08
  +1.07002392272e-08-j9.84160559207e-08
  +1.04927087194e-08-j9.74681673762e-08
  +1.02891575015e-08-j9.65289791358e-08
  +1.00895110309e-08-j9.55984238294e-08
  +9.89369609422e-09-j9.46764342349e-08
  +9.70164078547e-09-j9.37629432901e-08
  +9.51327448560e-09-j9.28578841051e-08
  +9.32852784178e-09-j9.19611899741e-08
  +9.14733274706e-09-j9.10727943866e-08
  +8.96962232021e-09-j9.01926310376e-08
  +8.79533088584e-09-j8.93206338389e-08
  +8.62439395472e-09-j8.84567369280e-08
  +8.45674820438e-09-j8.76008746782e-08
  +8.29233145990e-09-j8.67529817074e-08
  +8.13108267499e-09-j8.59129928871e-08
  +7.97294191327e-09-j8.50808433502e-08
  +7.81785032979e-09-j8.42564684994e-08
  +7.66575015282e-09-j8.34398040145e-08
  +7.51658466587e-09-j8.26307858599e-08
  +7.37029818992e-09-j8.18293502912e-08
  +7.22683606593e-09-j8.10354338619e-08
  +7.08614463754e-09-j8.02489734298e-08
  +6.94817123407e-09-j7.94699061628e-08
  +6.81286415368e-09-j7.86981695444e-08
  +6.68017264684e-09-j7.79337013794e-08
  +6.55004689996e-09-j7.71764397987e-08
  +6.42243801934e-09-j7.64263232642e-08
  +6.29729801525e-09-j7.56832905735e-08
  +6.17457978633e-09-j7.49472808638e-08
  +6.05423710417e-09-j7.42182336164e-08
  +5.93622459809e-09-j7.34960886600e-08
  +5.82049774026e-09-j7.27807861747e-08
  +5.70701283088e-09-j7.20722666953e-08
  +5.59572698371e-09-j7.13704711139e-08
  +5.48659811178e-09-j7.06753406835e-08
  +5.37958491329e-09-j6.99868170202e-08
  +5.27464685777e-09-j6.93048421061e-08
  +5.17174417242e-09-j6.86293582913e-08
  +5.07083782868e-09-j6.79603082961e-08
  +4.97188952898e-09-j6.72976352129e-08
  +4.87486169378e-09-j6.66412825084e-08
  +4.77971744868e-09-j6.59911940244e-08
  +4.68642061190e-09-j6.53473139800e-08
  +4.59493568177e-09-j6.47095869727e-08
  +4.50522782461e-09-j6.40779579790e-08
  +4.41726286266e-09-j6.34523723563e-08
  +4.33100726229e-09-j6.28327758431e-08
  +4.24642812235e-09-j6.22191145596e-08
  +4.16349316276e-09-j6.16113350091e-08
  +4.08217071323e-09-j6.10093840775e-08
  +4.00242970224e-09-j6.04132090341e-08
  +3.92423964610e-09-j5.98227575321e-08
  +3.84757063830e-09-j5.92379776079e-08
  +3.77239333896e-09-j5.86588176820e-08
  +3.69867896449e-09-j5.80852265582e-08
  +3.62639927741e-09-j5.75171534236e-08
  +3.55552657639e-09-j5.69545478485e-08
  +3.48603368634e-09-j5.63973597856e-08
  +3.41789394883e-09-j5.58455395699e-08
  +3.35108121250e-09-j5.52990379179e-08
  +3.28556982382e-09-j5.47578059269e-08
  +3.22133461782e-09-j5.42217950742e-08
  +3.15835090912e-09-j5.36909572167e-08
  +3.09659448307e-09-j5.31652445894e-08
  +3.03604158700e-09-j5.26446098048e-08
  +2.97666892168e-09-j5.21290058518e-08
  +2.91845363291e-09-j5.16183860945e-08
  +2.86137330324e-09-j5.11127042712e-08
  +2.80540594388e-09-j5.06119144930e-08
  +2.75052998668e-09-j5.01159712425e-08
  +2.69672427630e-09-j4.96248293727e-08
  +2.64396806253e-09-j4.91384441053e-08
  +2.59224099272e-09-j4.86567710295e-08
  +2.54152310430e-09-j4.81797661004e-08
  +2.49179481757e-09-j4.77073856374e-08
  +2.44303692845e-09-j4.72395863228e-08
  +2.39523060145e-09-j4.67763251998e-08
  +2.34835736280e-09-j4.63175596715e-08
  +2.30239909362e-09-j4.58632474986e-08
  +2.25733802322e-09-j4.54133467977e-08
  +2.21315672263e-09-j4.49678160399e-08
  +2.16983809807e-09-j4.45266140489e-08
  +2.12736538471e-09-j4.40896999987e-08
  +2.08572214042e-09-j4.36570334125e-08
  +2.04489223969e-09-j4.32285741600e-08
</dep>
<dep _net2.v acfrequency>
  +1.00000000000e-06
  +1.00000000000e-06
  +1.00000000000e-06
  +1.00000000000e-06
  +1.00000000000e-06
  +1.00000000000e-06
  +1.00000000000e-06
  +1.00000000000e-06
  +1.00000000000e-06
  +1.00000000000e-06
  +1.00000000000e-06
  +1.00000000000e-06
  +1.00000000000e-06
  +1.00000000000e-06
  +1.00000000000e-06
  +1.00000000000e-06
  +1.00000000000e-06
  +1.00000000000e-06
  +1.00000000000e-06
  +1.00000000000e-06
  +1.00000000000e-06
  +1.00000000000e-06
  +1.00000000000e-06
  +1.00000000000e-06
  +1.00000000000e-06
  +1.00000000000e-06
  +1.00000000000e-06
  +1.00000000000e-06
  +1.00000000000e-06
  +1.00000000000e-06
  +1.00000000000e-06
  +1.00000000000e-06
  +1.00000000000e-06
  +1.00000000000e-06
  +1.00000000000e-06
  +1.00000000000e-06
  +1.00000000000e-06
  +1.00000000000e-06
  +1.00000000000e-06
  +1.00000000000e-06
  +1.00000000000e-06
  +1.00000000000e-06
  +1.00000000000e-06
  +1.00000000000e-06
  +1.00000000000e-06
  +1.00000000000e-06
  +1.00000000000e-06
  +1.00000000000e-06
  +1.00000000000e-06
  +1.00000000000e-06
  +1.00000000000e-06
  +1.00000000000e-06
  +1.00000000000e-06
  +1.00000000000e-06
  +1.00000000000e-06
  +1.00000000000e-06
  +1.00000000000e-06
  +1.00000000000e-06
  +1.00000000000e-06
  +1.00000000000e-06
  +1.00000000000e-06
  +1.00000000000e-06
  +1.00000000000e-06
  +1.00000000000e-06
  +1.00000000000e-06
  +1.00000000000e-06
  +1.00000000000e-06
  +1.00000000000e-06
  +1.00000000000e-06
