<Qucs Dataset 0.0.17>
<indep time 101>
  +0.00000000000e+00
  +1.00000000000e-05
  +2.00000000000e-05
  +3.00000000000e-05
  +4.00000000000e-05
  +5.00000000000e-05
  +6.00000000000e-05
  +7.00000000000e-05
  +8.00000000000e-05
  +9.00000000000e-05
  +1.00000000000e-04
  +1.10000000000e-04
  +1.20000000000e-04
  +1.30000000000e-04
  +1.40000000000e-04
  +1.50000000000e-04
  +1.60000000000e-04
  +1.70000000000e-04
  +1.80000000000e-04
  +1.90000000000e-04
  +2.00000000000e-04
  +2.10000000000e-04
  +2.20000000000e-04
  +2.30000000000e-04
  +2.40000000000e-04
  +2.50000000000e-04
  +2.60000000000e-04
  +2.70000000000e-04
  +2.80000000000e-04
  +2.90000000000e-04
  +3.00000000000e-04
  +3.10000000000e-04
  +3.20000000000e-04
  +3.30000000000e-04
  +3.40000000000e-04
  +3.50000000000e-04
  +3.60000000000e-04
  +3.70000000000e-04
  +3.80000000000e-04
  +3.90000000000e-04
  +4.00000000000e-04
  +4.10000000000e-04
  +4.20000000000e-04
  +4.30000000000e-04
  +4.40000000000e-04
  +4.50000000000e-04
  +4.60000000000e-04
  +4.70000000000e-04
  +4.80000000000e-04
  +4.90000000000e-04
  +5.00000000000e-04
  +5.10000000000e-04
  +5.20000000000e-04
  +5.30000000000e-04
  +5.40000000000e-04
  +5.50000000000e-04
  +5.60000000000e-04
  +5.70000000000e-04
  +5.80000000000e-04
  +5.90000000000e-04
  +6.00000000000e-04
  +6.10000000000e-04
  +6.20000000000e-04
  +6.30000000000e-04
  +6.40000000000e-04
  +6.50000000000e-04
  +6.60000000000e-04
  +6.70000000000e-04
  +6.80000000000e-04
  +6.90000000000e-04
  +7.00000000000e-04
  +7.10000000000e-04
  +7.20000000000e-04
  +7.30000000000e-04
  +7.40000000000e-04
  +7.50000000000e-04
  +7.60000000000e-04
  +7.70000000000e-04
  +7.80000000000e-04
  +7.90000000000e-04
  +8.00000000000e-04
  +8.10000000000e-04
  +8.20000000000e-04
  +8.30000000000e-04
  +8.40000000000e-04
  +8.50000000000e-04
  +8.60000000000e-04
  +8.70000000000e-04
  +8.80000000000e-04
  +8.90000000000e-04
  +9.00000000000e-04
  +9.10000000000e-04
  +9.20000000000e-04
  +9.30000000000e-04
  +9.40000000000e-04
  +9.50000000000e-04
  +9.60000000000e-04
  +9.70000000000e-04
  +9.80000000000e-04
  +9.90000000000e-04
  +1.00000000000e-03
</indep>
<dep V2.It time>
  -3.39964117455e-04
  -3.39963972887e-04
  -3.39963966312e-04
  -3.39963959378e-04
  -3.39963951764e-04
  -3.39963943246e-04
  -3.39963933406e-04
  -3.39963921615e-04
  -3.39963906633e-04
  -3.39963886606e-04
  -3.39963856802e-04
  -3.39963759279e-04
  -3.39651084184e-04
  -3.33076874872e-04
  -3.32204356195e-04
  -3.32198212885e-04
  -3.32198234665e-04
  -3.32198234045e-04
  -3.32198234347e-04
  -3.32198234238e-04
  -3.32198234248e-04
  -3.32198234289e-04
  -3.32198234222e-04
  -3.32198234302e-04
  -3.32198234215e-04
  -3.32198234306e-04
  -3.32198234213e-04
  -3.32198234307e-04
  -3.32198234213e-04
  -3.32198234307e-04
  -3.32198234213e-04
  -3.32198234306e-04
  -3.32198234213e-04
  -3.32198234306e-04
  -3.32198234213e-04
  -3.32198234317e-04
  -3.32198252952e-04
  -3.32252960989e-04
  -3.39244423025e-04
  -3.39964372525e-04
  -3.39964379548e-04
  -3.39964349298e-04
  -3.39964329063e-04
  -3.39964314102e-04
  -3.39964302255e-04
  -3.39964292387e-04
  -3.39964283841e-04
  -3.39964276207e-04
  -3.39964269221e-04
  -3.39964262700e-04
  -3.39964256517e-04
  -3.39964250581e-04
  -3.39964243938e-04
  -3.39964239190e-04
  -3.39964232781e-04
  -3.39964228179e-04
  -3.39964222749e-04
  -3.39964217342e-04
  -3.39964211944e-04
  -3.39964206546e-04
  -3.39964201141e-04
  -3.39964195722e-04
  -3.39964190288e-04
  -3.39964184833e-04
  -3.39964179359e-04
  -3.39964173863e-04
  -3.39964168345e-04
  -3.39964162808e-04
  -3.39964157251e-04
  -3.39964151676e-04
  -3.39964145185e-04
  -3.39964140194e-04
  -3.39964132908e-04
  -3.39964124733e-04
  -3.39964120952e-04
  -3.39964117376e-04
  -3.39964115372e-04
  -3.39964109741e-04
  -3.39964102290e-04
  -3.39964094756e-04
  -3.39964089820e-04
  -3.39964084226e-04
  -3.39964077909e-04
  -3.39964073093e-04
  -3.39964067553e-04
  -3.39964062034e-04
  -3.39964056536e-04
  -3.39964051060e-04
  -3.39964045605e-04
  -3.39964040168e-04
  -3.39964034749e-04
  -3.39964029342e-04
  -3.39964023943e-04
  -3.39964018544e-04
  -3.39964013135e-04
  -3.39964007704e-04
  -3.39964002233e-04
  -3.39963996700e-04
  -3.39963990464e-04
  -3.39963984662e-04
  -3.39963979339e-04
</dep>
<dep V3.It time>
  +1.99318695052e-08
  +1.86409090798e-08
  +1.86117646836e-08
  +1.85879484086e-08
  +1.85693462046e-08
  +1.85561183201e-08
  +1.85483160294e-08
  +1.85459828115e-08
  +1.85492199640e-08
  +1.85577648235e-08
  +1.85717028703e-08
  +1.85907433720e-08
  +1.68121709434e-08
  +2.90544279230e-10
  +1.00618886389e-13
  -7.97593565476e-15
  -8.18043600290e-15
  -8.51584153104e-15
  -8.74400765850e-15
  -8.94360375267e-15
  -9.11384421358e-15
  -9.25405747080e-15
  -9.36369022934e-15
  -9.44230986664e-15
  -9.48960608826e-15
  -9.50539227292e-15
  -9.48960608809e-15
  -9.44230986705e-15
  -9.36369022849e-15
  -9.25405747247e-15
  -9.11384421031e-15
  -8.94360375905e-15
  -8.74400764609e-15
  -8.51584155516e-15
  -8.18043595737e-15
  -7.97593591775e-15
  +1.00704249864e-13
  +3.24418382151e-10
  +2.21398276693e-08
  +2.05288276195e-08
  +2.06059241921e-08
  +2.06805030323e-08
  +2.07522281091e-08
  +2.08207290253e-08
  +2.08857300875e-08
  +2.09469717838e-08
  +2.10042106354e-08
  +2.10572196428e-08
  +2.11057889193e-08
  +2.11497263716e-08
  +2.11888583683e-08
  +2.12230303665e-08
  +2.12519334026e-08
  +2.12759088856e-08
  +2.12943794892e-08
  +2.13075752132e-08
  +2.13153484307e-08
  +2.13176631323e-08
  +2.13145096355e-08
  +2.13058999748e-08
  +2.12918678316e-08
  +2.12724683762e-08
  +2.12477780246e-08
  +2.12178941106e-08
  +2.11829344714e-08
  +2.11430369444e-08
  +2.10983587719e-08
  +2.10490759031e-08
  +2.09953825326e-08
  +2.09375337663e-08
  +2.08784646604e-08
  +2.08909393395e-08
  +2.16468639159e-08
  +2.42090313214e-08
  +2.70142143312e-08
  +2.79866384697e-08
  +2.64888927208e-08
  +2.31598585924e-08
  +2.07133258390e-08
  +2.02078536574e-08
  +2.00988454084e-08
  +2.00116502155e-08
  +1.99246001754e-08
  +1.98377036978e-08
  +1.97510789202e-08
  +1.96651682230e-08
  +1.95803104887e-08
  +1.94968404518e-08
  +1.94150873920e-08
  +1.93353738012e-08
  +1.92580141042e-08
  +1.91833134164e-08
  +1.91115663429e-08
  +1.90430558186e-08
  +1.89780519956e-08
  +1.89168111800e-08
  +1.88595748223e-08
  +1.88065685647e-08
  +1.87580005377e-08
  +1.87142552818e-08
  +1.86750162439e-08
</dep>
<dep V1.It time>
  -3.39894272023e-04
  -3.39878818393e-04
  -3.39863181779e-04
  -3.39847668082e-04
  -3.39832338641e-04
  -3.39817253901e-04
  -3.39802473224e-04
  -3.39788055421e-04
  -3.39774056837e-04
  -3.39760532966e-04
  -3.39747537124e-04
  -3.39735120609e-04
  -3.39723513261e-04
  -3.39718179932e-04
  -3.39718002344e-04
  -3.39718001286e-04
  -3.39718001105e-04
  -3.39718001289e-04
  -3.39718001106e-04
  -3.39718001290e-04
  -3.39718001107e-04
  -3.39718001290e-04
  -3.39718001107e-04
  -3.39718001290e-04
  -3.39718001107e-04
  -3.39718001290e-04
  -3.39718001108e-04
  -3.39718001289e-04
  -3.39718001108e-04
  -3.39718001289e-04
  -3.39718001108e-04
  -3.39718001288e-04
  -3.39718001108e-04
  -3.39718001288e-04
  -3.39718001107e-04
  -3.39718001287e-04
  -3.39718001118e-04
  -3.39718032158e-04
  -3.39722849243e-04
  -3.39734784421e-04
  -3.39747182127e-04
  -3.39760159842e-04
  -3.39773666875e-04
  -3.39787649647e-04
  -3.39802052960e-04
  -3.39816819956e-04
  -3.39831892344e-04
  -3.39847210626e-04
  -3.39862714335e-04
  -3.39878342273e-04
  -3.39894032753e-04
  -3.39909723840e-04
  -3.39925353903e-04
  -3.39940860355e-04
  -3.39956183148e-04
  -3.39971260693e-04
  -3.39986034288e-04
  -3.40000445367e-04
  -3.40014437055e-04
  -3.40027954138e-04
  -3.40040943278e-04
  -3.40053353230e-04
  -3.40065135037e-04
  -3.40076242239e-04
  -3.40086631051e-04
  -3.40096260550e-04
  -3.40105092850e-04
  -3.40113093277e-04
  -3.40120230459e-04
  -3.40126465773e-04
  -3.40131115276e-04
  -3.40115645455e-04
  -3.39879781404e-04
  -3.38967475619e-04
  -3.37780840294e-04
  -3.37195957170e-04
  -3.37570991037e-04
  -3.38761281904e-04
  -3.39840469609e-04
  -3.40113713721e-04
  -3.40131381119e-04
  -3.40126843247e-04
  -3.40120630161e-04
  -3.40113511162e-04
  -3.40105525921e-04
  -3.40096706833e-04
  -3.40087088885e-04
  -3.40076710151e-04
  -3.40065611667e-04
  -3.40053837283e-04
  -3.40041433500e-04
  -3.40028449291e-04
  -3.40014935909e-04
  -3.40000946693e-04
  -3.39986536853e-04
  -3.39971763258e-04
  -3.39956684207e-04
  -3.39941359206e-04
  -3.39925847973e-04
  -3.39910213398e-04
  -3.39894516702e-04
</dep>
<dep _net2.Vt time>
  -5.00000000000e+00
  -5.00000000000e+00
  -5.00000000000e+00
  -5.00000000000e+00
  -5.00000000000e+00
  -5.00000000000e+00
  -5.00000000000e+00
  -5.00000000000e+00
  -5.00000000000e+00
  -5.00000000000e+00
  -5.00000000000e+00
  -5.00000000000e+00
  -5.00000000000e+00
  -5.00000000000e+00
  -5.00000000000e+00
  -5.00000000000e+00
  -5.00000000000e+00
  -5.00000000000e+00
  -5.00000000000e+00
  -5.00000000000e+00
  -5.00000000000e+00
  -5.00000000000e+00
  -5.00000000000e+00
  -5.00000000000e+00
  -5.00000000000e+00
  -5.00000000000e+00
  -5.00000000000e+00
  -5.00000000000e+00
  -5.00000000000e+00
  -5.00000000000e+00
  -5.00000000000e+00
  -5.00000000000e+00
  -5.00000000000e+00
  -5.00000000000e+00
  -5.00000000000e+00
  -5.00000000000e+00
  -5.00000000000e+00
  -5.00000000000e+00
  -5.00000000000e+00
  -5.00000000000e+00
  -5.00000000000e+00
  -5.00000000000e+00
  -5.00000000000e+00
  -5.00000000000e+00
  -5.00000000000e+00
  -5.00000000000e+00
  -5.00000000000e+00
  -5.00000000000e+00
  -5.00000000000e+00
  -5.00000000000e+00
  -5.00000000000e+00
  -5.00000000000e+00
  -5.00000000000e+00
  -5.00000000000e+00
  -5.00000000000e+00
  -5.00000000000e+00
  -5.00000000000e+00
  -5.00000000000e+00
  -5.00000000000e+00
  -5.00000000000e+00
  -5.00000000000e+00
  -5.00000000000e+00
  -5.00000000000e+00
  -5.00000000000e+00
  -5.00000000000e+00
  -5.00000000000e+00
  -5.00000000000e+00
  -5.00000000000e+00
  -5.00000000000e+00
  -5.00000000000e+00
  -5.00000000000e+00
  -5.00000000000e+00
  -5.00000000000e+00
  -5.00000000000e+00
  -5.00000000000e+00
  -5.00000000000e+00
  -5.00000000000e+00
  -5.00000000000e+00
  -5.00000000000e+00
  -5.00000000000e+00
  -5.00000000000e+00
  -5.00000000000e+00
  -5.00000000000e+00
  -5.00000000000e+00
  -5.00000000000e+00
  -5.00000000000e+00
  -5.00000000000e+00
  -5.00000000000e+00
  -5.00000000000e+00
  -5.00000000000e+00
  -5.00000000000e+00
  -5.00000000000e+00
  -5.00000000000e+00
  -5.00000000000e+00
  -5.00000000000e+00
  -5.00000000000e+00
  -5.00000000000e+00
  -5.00000000000e+00
  -5.00000000000e+00
  -5.00000000000e+00
  -5.00000000000e+00
</dep>
<dep _net1.Vt time>
  +0.00000000000e+00
  +3.13952597647e-01
  +6.26666167822e-01
  +9.36906572929e-01
  +1.24344943582e+00
  +1.54508497187e+00
  +1.84062568440e+00
  +2.12889645783e+00
  +2.40876837051e+00
  +2.67913397489e+00
  +2.93892626146e+00
  +3.18711994874e+00
  +3.42273552964e+00
  +3.64484313711e+00
  +3.85256621388e+00
  +4.04508497187e+00
  +4.22163962751e+00
  +4.38153340022e+00
  +4.52413526233e+00
  +4.64888242944e+00
  +4.75528258148e+00
  +4.84291580564e+00
  +4.91143625364e+00
  +4.96057350657e+00
  +4.99013364214e+00
  +5.00000000000e+00
  +4.99013364214e+00
  +4.96057350657e+00
  +4.91143625364e+00
  +4.84291580564e+00
  +4.75528258148e+00
  +4.64888242944e+00
  +4.52413526233e+00
  +4.38153340022e+00
  +4.22163962751e+00
  +4.04508497187e+00
  +3.85256621388e+00
  +3.64484313711e+00
  +3.42273552964e+00
  +3.18711994874e+00
  +2.93892626146e+00
  +2.67913397489e+00
  +2.40876837051e+00
  +2.12889645783e+00
  +1.84062276342e+00
  +1.54508497187e+00
  +1.24344943582e+00
  +9.36906572929e-01
  +6.26666167822e-01
  +3.13952597647e-01
  +6.12323399574e-16
  -3.13952597647e-01
  -6.26666167822e-01
  -9.36906572929e-01
  -1.24344943582e+00
  -1.54508497187e+00
  -1.84062276342e+00
  -2.12889645783e+00
  -2.40876837051e+00
  -2.67913397489e+00
  -2.93892626146e+00
  -3.18711994874e+00
  -3.42273552964e+00
  -3.64484313711e+00
  -3.85256621388e+00
  -4.04508497187e+00
  -4.22163962751e+00
  -4.38153340022e+00
  -4.52413526233e+00
  -4.64888242944e+00
  -4.75528258148e+00
  -4.84291580564e+00
  -4.91143625364e+00
  -4.96057350657e+00
  -4.99013364214e+00
  -5.00000000000e+00
  -4.99013364214e+00
  -4.96057350657e+00
  -4.91143625364e+00
  -4.84291580564e+00
  -4.75528258148e+00
  -4.64888242944e+00
  -4.52413526233e+00
  -4.38153340022e+00
  -4.22163962751e+00
  -4.04508497187e+00
  -3.85256621388e+00
  -3.64484313711e+00
  -3.42273552964e+00
  -3.18711994874e+00
  -2.93892626146e+00
  -2.67913397489e+00
  -2.40876837051e+00
  -2.12889645783e+00
  -1.84062276342e+00
  -1.54508497187e+00
  -1.24344943582e+00
  -9.36906572929e-01
  -6.26663051001e-01
  -3.13952597647e-01
  -1.22464679915e-15
</dep>
<dep _net0.Vt time>
  +5.00000000000e+00
  +5.00000000000e+00
  +5.00000000000e+00
  +5.00000000000e+00
  +5.00000000000e+00
  +5.00000000000e+00
  +5.00000000000e+00
  +5.00000000000e+00
  +5.00000000000e+00
  +5.00000000000e+00
  +5.00000000000e+00
  +5.00000000000e+00
  +5.00000000000e+00
  +5.00000000000e+00
  +5.00000000000e+00
  +5.00000000000e+00
  +5.00000000000e+00
  +5.00000000000e+00
  +5.00000000000e+00
  +5.00000000000e+00
  +5.00000000000e+00
  +5.00000000000e+00
  +5.00000000000e+00
  +5.00000000000e+00
  +5.00000000000e+00
  +5.00000000000e+00
  +5.00000000000e+00
  +5.00000000000e+00
  +5.00000000000e+00
  +5.00000000000e+00
  +5.00000000000e+00
  +5.00000000000e+00
  +5.00000000000e+00
  +5.00000000000e+00
  +5.00000000000e+00
  +5.00000000000e+00
  +5.00000000000e+00
  +5.00000000000e+00
  +5.00000000000e+00
  +5.00000000000e+00
  +5.00000000000e+00
  +5.00000000000e+00
  +5.00000000000e+00
  +5.00000000000e+00
  +5.00000000000e+00
  +5.00000000000e+00
  +5.00000000000e+00
  +5.00000000000e+00
  +5.00000000000e+00
  +5.00000000000e+00
  +5.00000000000e+00
  +5.00000000000e+00
  +5.00000000000e+00
  +5.00000000000e+00
  +5.00000000000e+00
  +5.00000000000e+00
  +5.00000000000e+00
  +5.00000000000e+00
  +5.00000000000e+00
  +5.00000000000e+00
  +5.00000000000e+00
  +5.00000000000e+00
  +5.00000000000e+00
  +5.00000000000e+00
  +5.00000000000e+00
  +5.00000000000e+00
  +5.00000000000e+00
  +5.00000000000e+00
  +5.00000000000e+00
  +5.00000000000e+00
  +5.00000000000e+00
  +5.00000000000e+00
  +5.00000000000e+00
  +5.00000000000e+00
  +5.00000000000e+00
  +5.00000000000e+00
  +5.00000000000e+00
  +5.00000000000e+00
  +5.00000000000e+00
  +5.00000000000e+00
  +5.00000000000e+00
  +5.00000000000e+00
  +5.00000000000e+00
  +5.00000000000e+00
  +5.00000000000e+00
  +5.00000000000e+00
  +5.00000000000e+00
  +5.00000000000e+00
  +5.00000000000e+00
  +5.00000000000e+00
  +5.00000000000e+00
  +5.00000000000e+00
  +5.00000000000e+00
  +5.00000000000e+00
  +5.00000000000e+00
  +5.00000000000e+00
  +5.00000000000e+00
  +5.00000000000e+00
  +5.00000000000e+00
  +5.00000000000e+00
  +5.00000000000e+00
</dep>
<dep out.Vt time>
  -3.36127387933e-05
  +3.08888979726e-01
  +6.21605842660e-01
  +9.31869949666e-01
  +1.23845605576e+00
  +1.54015460937e+00
  +1.83577791457e+00
  +2.12415062485e+00
  +2.40414383249e+00
  +2.67464864001e+00
  +2.93459799721e+00
  +3.18296507375e+00
  +3.41145524013e+00
  +3.49139301838e+00
  +3.49447675494e+00
  +3.49449721422e+00
  +3.49449715218e+00
  +3.49449714378e+00
  +3.49449715323e+00
  +3.49449714314e+00
  +3.49449715356e+00
  +3.49449714298e+00
  +3.49449715364e+00
  +3.49449714294e+00
  +3.49449715366e+00
  +3.49449714293e+00
  +3.49449715366e+00
  +3.49449714293e+00
  +3.49449715366e+00
  +3.49449714294e+00
  +3.49449715365e+00
  +3.49449714294e+00
  +3.49449715364e+00
  +3.49449714295e+00
  +3.49449715364e+00
  +3.49449714292e+00
  +3.49449709126e+00
  +3.49431432378e+00
  +3.43301956487e+00
  +3.19077570699e+00
  +2.94278971689e+00
  +2.68318985135e+00
  +2.41300047871e+00
  +2.13328758302e+00
  +1.84515507052e+00
  +1.54974009167e+00
  +1.24820854815e+00
  +9.41750488895e-01
  +6.31575411800e-01
  +3.18907489024e-01
  +4.98073455267e-03
  -3.08965867012e-01
  -6.21693945453e-01
  -9.31967428410e-01
  -1.23856367255e+00
  -1.54027141767e+00
  -1.83590028627e+00
  -2.12428353562e+00
  -2.40428300360e+00
  -2.67479361982e+00
  -2.93474776769e+00
  -3.18311949848e+00
  -3.41892858091e+00
  -3.64124437019e+00
  -3.84918948125e+00
  -4.04194325161e+00
  -4.21874498047e+00
  -4.37889693095e+00
  -4.52176708257e+00
  -4.64679145459e+00
  -4.75346604416e+00
  -4.84108519600e+00
  -4.90666364756e+00
  -4.94566267200e+00
  -4.96373034627e+00
  -4.96945300100e+00
  -4.96593132869e+00
  -4.94984799989e+00
  -4.91032993655e+00
  -4.84376604826e+00
  -4.75652660779e+00
  -4.65042754817e+00
  -4.52597403375e+00
  -4.38365858667e+00
  -4.22404378515e+00
  -4.04775919485e+00
  -3.85550055792e+00
  -3.64802665105e+00
  -3.42615629060e+00
  -3.19076510106e+00
  -2.94278205931e+00
  -2.68318582853e+00
  -2.41300089607e+00
  -2.13329353060e+00
  -1.84516757457e+00
  -1.54976008839e+00
  -1.24823686376e+00
  -9.41787823566e-01
  -6.31619211989e-01
  -3.18963635277e-01
  -5.04755155281e-03
</dep>
<indep V2.I 1>
  -3.39964117455e-04
</indep>
<indep V3.I 1>
  +1.99318695052e-08
</indep>
<indep V1.I 1>
  -3.39894272023e-04
</indep>
<indep _net2.V 1>
  -5.00000000000e+00
</indep>
<indep _net1.V 1>
  +0.00000000000e+00
</indep>
<indep _net0.V 1>
  +5.00000000000e+00
</indep>
<indep out.V 1>
  -3.36127387902e-05
</indep>
