<Qucs Dataset 0.0.17>
<indep time 201>
  +0.00000000000e+00
  +3.00000000000e-06
  +6.00000000000e-06
  +9.00000000000e-06
  +1.20000000000e-05
  +1.50000000000e-05
  +1.80000000000e-05
  +2.10000000000e-05
  +2.40000000000e-05
  +2.70000000000e-05
  +3.00000000000e-05
  +3.30000000000e-05
  +3.60000000000e-05
  +3.90000000000e-05
  +4.20000000000e-05
  +4.50000000000e-05
  +4.80000000000e-05
  +5.10000000000e-05
  +5.40000000000e-05
  +5.70000000000e-05
  +6.00000000000e-05
  +6.30000000000e-05
  +6.60000000000e-05
  +6.90000000000e-05
  +7.20000000000e-05
  +7.50000000000e-05
  +7.80000000000e-05
  +8.10000000000e-05
  +8.40000000000e-05
  +8.70000000000e-05
  +9.00000000000e-05
  +9.30000000000e-05
  +9.60000000000e-05
  +9.90000000000e-05
  +1.02000000000e-04
  +1.05000000000e-04
  +1.08000000000e-04
  +1.11000000000e-04
  +1.14000000000e-04
  +1.17000000000e-04
  +1.20000000000e-04
  +1.23000000000e-04
  +1.26000000000e-04
  +1.29000000000e-04
  +1.32000000000e-04
  +1.35000000000e-04
  +1.38000000000e-04
  +1.41000000000e-04
  +1.44000000000e-04
  +1.47000000000e-04
  +1.50000000000e-04
  +1.53000000000e-04
  +1.56000000000e-04
  +1.59000000000e-04
  +1.62000000000e-04
  +1.65000000000e-04
  +1.68000000000e-04
  +1.71000000000e-04
  +1.74000000000e-04
  +1.77000000000e-04
  +1.80000000000e-04
  +1.83000000000e-04
  +1.86000000000e-04
  +1.89000000000e-04
  +1.92000000000e-04
  +1.95000000000e-04
  +1.98000000000e-04
  +2.01000000000e-04
  +2.04000000000e-04
  +2.07000000000e-04
  +2.10000000000e-04
  +2.13000000000e-04
  +2.16000000000e-04
  +2.19000000000e-04
  +2.22000000000e-04
  +2.25000000000e-04
  +2.28000000000e-04
  +2.31000000000e-04
  +2.34000000000e-04
  +2.37000000000e-04
  +2.40000000000e-04
  +2.43000000000e-04
  +2.46000000000e-04
  +2.49000000000e-04
  +2.52000000000e-04
  +2.55000000000e-04
  +2.58000000000e-04
  +2.61000000000e-04
  +2.64000000000e-04
  +2.67000000000e-04
  +2.70000000000e-04
  +2.73000000000e-04
  +2.76000000000e-04
  +2.79000000000e-04
  +2.82000000000e-04
  +2.85000000000e-04
  +2.88000000000e-04
  +2.91000000000e-04
  +2.94000000000e-04
  +2.97000000000e-04
  +3.00000000000e-04
  +3.03000000000e-04
  +3.06000000000e-04
  +3.09000000000e-04
  +3.12000000000e-04
  +3.15000000000e-04
  +3.18000000000e-04
  +3.21000000000e-04
  +3.24000000000e-04
  +3.27000000000e-04
  +3.30000000000e-04
  +3.33000000000e-04
  +3.36000000000e-04
  +3.39000000000e-04
  +3.42000000000e-04
  +3.45000000000e-04
  +3.48000000000e-04
  +3.51000000000e-04
  +3.54000000000e-04
  +3.57000000000e-04
  +3.60000000000e-04
  +3.63000000000e-04
  +3.66000000000e-04
  +3.69000000000e-04
  +3.72000000000e-04
  +3.75000000000e-04
  +3.78000000000e-04
  +3.81000000000e-04
  +3.84000000000e-04
  +3.87000000000e-04
  +3.90000000000e-04
  +3.93000000000e-04
  +3.96000000000e-04
  +3.99000000000e-04
  +4.02000000000e-04
  +4.05000000000e-04
  +4.08000000000e-04
  +4.11000000000e-04
  +4.14000000000e-04
  +4.17000000000e-04
  +4.20000000000e-04
  +4.23000000000e-04
  +4.26000000000e-04
  +4.29000000000e-04
  +4.32000000000e-04
  +4.35000000000e-04
  +4.38000000000e-04
  +4.41000000000e-04
  +4.44000000000e-04
  +4.47000000000e-04
  +4.50000000000e-04
  +4.53000000000e-04
  +4.56000000000e-04
  +4.59000000000e-04
  +4.62000000000e-04
  +4.65000000000e-04
  +4.68000000000e-04
  +4.71000000000e-04
  +4.74000000000e-04
  +4.77000000000e-04
  +4.80000000000e-04
  +4.83000000000e-04
  +4.86000000000e-04
  +4.89000000000e-04
  +4.92000000000e-04
  +4.95000000000e-04
  +4.98000000000e-04
  +5.01000000000e-04
  +5.04000000000e-04
  +5.07000000000e-04
  +5.10000000000e-04
  +5.13000000000e-04
  +5.16000000000e-04
  +5.19000000000e-04
  +5.22000000000e-04
  +5.25000000000e-04
  +5.28000000000e-04
  +5.31000000000e-04
  +5.34000000000e-04
  +5.37000000000e-04
  +5.40000000000e-04
  +5.43000000000e-04
  +5.46000000000e-04
  +5.49000000000e-04
  +5.52000000000e-04
  +5.55000000000e-04
  +5.58000000000e-04
  +5.61000000000e-04
  +5.64000000000e-04
  +5.67000000000e-04
  +5.70000000000e-04
  +5.73000000000e-04
  +5.76000000000e-04
  +5.79000000000e-04
  +5.82000000000e-04
  +5.85000000000e-04
  +5.88000000000e-04
  +5.91000000000e-04
  +5.94000000000e-04
  +5.97000000000e-04
  +6.00000000000e-04
</indep>
<dep V2.It time>
  +0.00000000000e+00
  +0.00000000000e+00
  +0.00000000000e+00
  +0.00000000000e+00
  +0.00000000000e+00
  +0.00000000000e+00
  +0.00000000000e+00
  +0.00000000000e+00
  +0.00000000000e+00
  +0.00000000000e+00
  +0.00000000000e+00
  +0.00000000000e+00
  +0.00000000000e+00
  +0.00000000000e+00
  +0.00000000000e+00
  +0.00000000000e+00
  +0.00000000000e+00
  +0.00000000000e+00
  +0.00000000000e+00
  +0.00000000000e+00
  +0.00000000000e+00
  +0.00000000000e+00
  +0.00000000000e+00
  +0.00000000000e+00
  +0.00000000000e+00
  +0.00000000000e+00
  +0.00000000000e+00
  +0.00000000000e+00
  +0.00000000000e+00
  +0.00000000000e+00
  +0.00000000000e+00
  +0.00000000000e+00
  +0.00000000000e+00
  +0.00000000000e+00
  +0.00000000000e+00
  +0.00000000000e+00
  +0.00000000000e+00
  +0.00000000000e+00
  +0.00000000000e+00
  +0.00000000000e+00
  +0.00000000000e+00
  +0.00000000000e+00
  +0.00000000000e+00
  +0.00000000000e+00
  +0.00000000000e+00
  +0.00000000000e+00
  +0.00000000000e+00
  +0.00000000000e+00
  +0.00000000000e+00
  +0.00000000000e+00
  +0.00000000000e+00
  +0.00000000000e+00
  +0.00000000000e+00
  +0.00000000000e+00
  +0.00000000000e+00
  +0.00000000000e+00
  +0.00000000000e+00
  +0.00000000000e+00
  +0.00000000000e+00
  +0.00000000000e+00
  +0.00000000000e+00
  +0.00000000000e+00
  +0.00000000000e+00
  +0.00000000000e+00
  +0.00000000000e+00
  +0.00000000000e+00
  +0.00000000000e+00
  +0.00000000000e+00
  +0.00000000000e+00
  +0.00000000000e+00
  +0.00000000000e+00
  +0.00000000000e+00
  +0.00000000000e+00
  +0.00000000000e+00
  +0.00000000000e+00
  +0.00000000000e+00
  +0.00000000000e+00
  +0.00000000000e+00
  +0.00000000000e+00
  +0.00000000000e+00
  +0.00000000000e+00
  +0.00000000000e+00
  +0.00000000000e+00
  +0.00000000000e+00
  +0.00000000000e+00
  +0.00000000000e+00
  +0.00000000000e+00
  +0.00000000000e+00
  +0.00000000000e+00
  +0.00000000000e+00
  +0.00000000000e+00
  +0.00000000000e+00
  +0.00000000000e+00
  +0.00000000000e+00
  +0.00000000000e+00
  +0.00000000000e+00
  +0.00000000000e+00
  +0.00000000000e+00
  +0.00000000000e+00
  +0.00000000000e+00
  +0.00000000000e+00
  +0.00000000000e+00
  +0.00000000000e+00
  +0.00000000000e+00
  +0.00000000000e+00
  +0.00000000000e+00
  +0.00000000000e+00
  +0.00000000000e+00
  +0.00000000000e+00
  +0.00000000000e+00
  +0.00000000000e+00
  +0.00000000000e+00
  +0.00000000000e+00
  +0.00000000000e+00
  +0.00000000000e+00
  +0.00000000000e+00
  +0.00000000000e+00
  +0.00000000000e+00
  +0.00000000000e+00
  +0.00000000000e+00
  +0.00000000000e+00
  +0.00000000000e+00
  +0.00000000000e+00
  +0.00000000000e+00
  +0.00000000000e+00
  +0.00000000000e+00
  +0.00000000000e+00
  +0.00000000000e+00
  +0.00000000000e+00
  +0.00000000000e+00
  +0.00000000000e+00
  +0.00000000000e+00
  +0.00000000000e+00
  +0.00000000000e+00
  +0.00000000000e+00
  +0.00000000000e+00
  +0.00000000000e+00
  +0.00000000000e+00
  +0.00000000000e+00
  +0.00000000000e+00
  +0.00000000000e+00
  +0.00000000000e+00
  +0.00000000000e+00
  +0.00000000000e+00
  +0.00000000000e+00
  +0.00000000000e+00
  +0.00000000000e+00
  +0.00000000000e+00
  +0.00000000000e+00
  +0.00000000000e+00
  +0.00000000000e+00
  +0.00000000000e+00
  +0.00000000000e+00
  +0.00000000000e+00
  +0.00000000000e+00
  +0.00000000000e+00
  +0.00000000000e+00
  +0.00000000000e+00
  +0.00000000000e+00
  +0.00000000000e+00
  +0.00000000000e+00
  +0.00000000000e+00
  +0.00000000000e+00
  +0.00000000000e+00
  +0.00000000000e+00
  +0.00000000000e+00
  +0.00000000000e+00
  +0.00000000000e+00
  +0.00000000000e+00
  +0.00000000000e+00
  +0.00000000000e+00
  +0.00000000000e+00
  +0.00000000000e+00
  +0.00000000000e+00
  +0.00000000000e+00
  +0.00000000000e+00
  +0.00000000000e+00
  +0.00000000000e+00
  +0.00000000000e+00
  +0.00000000000e+00
  +0.00000000000e+00
  +0.00000000000e+00
  +0.00000000000e+00
  +0.00000000000e+00
  +0.00000000000e+00
  +0.00000000000e+00
  +0.00000000000e+00
  +0.00000000000e+00
  +0.00000000000e+00
  +0.00000000000e+00
  +0.00000000000e+00
  +0.00000000000e+00
  +0.00000000000e+00
  +0.00000000000e+00
  +0.00000000000e+00
  +0.00000000000e+00
  +0.00000000000e+00
  +0.00000000000e+00
  +0.00000000000e+00
  +0.00000000000e+00
  +0.00000000000e+00
</dep>
<dep V3.It time>
  +0.00000000000e+00
  +0.00000000000e+00
  +0.00000000000e+00
  +0.00000000000e+00
  +0.00000000000e+00
  +0.00000000000e+00
  +0.00000000000e+00
  +0.00000000000e+00
  +0.00000000000e+00
  +0.00000000000e+00
  +0.00000000000e+00
  +0.00000000000e+00
  +0.00000000000e+00
  +0.00000000000e+00
  +0.00000000000e+00
  +0.00000000000e+00
  +0.00000000000e+00
  +0.00000000000e+00
  +0.00000000000e+00
  +0.00000000000e+00
  +0.00000000000e+00
  +0.00000000000e+00
  +0.00000000000e+00
  +0.00000000000e+00
  +0.00000000000e+00
  +0.00000000000e+00
  +0.00000000000e+00
  +0.00000000000e+00
  +0.00000000000e+00
  +0.00000000000e+00
  +0.00000000000e+00
  +0.00000000000e+00
  +0.00000000000e+00
  +0.00000000000e+00
  +0.00000000000e+00
  +0.00000000000e+00
  +0.00000000000e+00
  +0.00000000000e+00
  +0.00000000000e+00
  +0.00000000000e+00
  +0.00000000000e+00
  +0.00000000000e+00
  +0.00000000000e+00
  +0.00000000000e+00
  +0.00000000000e+00
  +0.00000000000e+00
  +0.00000000000e+00
  +0.00000000000e+00
  +0.00000000000e+00
  +0.00000000000e+00
  +0.00000000000e+00
  +0.00000000000e+00
  +0.00000000000e+00
  +0.00000000000e+00
  +0.00000000000e+00
  +0.00000000000e+00
  +0.00000000000e+00
  +0.00000000000e+00
  +0.00000000000e+00
  +0.00000000000e+00
  +0.00000000000e+00
  +0.00000000000e+00
  +0.00000000000e+00
  +0.00000000000e+00
  +0.00000000000e+00
  +0.00000000000e+00
  +0.00000000000e+00
  +0.00000000000e+00
  +0.00000000000e+00
  +0.00000000000e+00
  +0.00000000000e+00
  +0.00000000000e+00
  +0.00000000000e+00
  +0.00000000000e+00
  +0.00000000000e+00
  +0.00000000000e+00
  +0.00000000000e+00
  +0.00000000000e+00
  +0.00000000000e+00
  +0.00000000000e+00
  +0.00000000000e+00
  +0.00000000000e+00
  +0.00000000000e+00
  +0.00000000000e+00
  +0.00000000000e+00
  +0.00000000000e+00
  +0.00000000000e+00
  +0.00000000000e+00
  +0.00000000000e+00
  +0.00000000000e+00
  +0.00000000000e+00
  +0.00000000000e+00
  +0.00000000000e+00
  +0.00000000000e+00
  +0.00000000000e+00
  +0.00000000000e+00
  +0.00000000000e+00
  +0.00000000000e+00
  +0.00000000000e+00
  +0.00000000000e+00
  +0.00000000000e+00
  +0.00000000000e+00
  +0.00000000000e+00
  +0.00000000000e+00
  +0.00000000000e+00
  +0.00000000000e+00
  +0.00000000000e+00
  +0.00000000000e+00
  +0.00000000000e+00
  +0.00000000000e+00
  +0.00000000000e+00
  +0.00000000000e+00
  +0.00000000000e+00
  +0.00000000000e+00
  +0.00000000000e+00
  +0.00000000000e+00
  +0.00000000000e+00
  +0.00000000000e+00
  +0.00000000000e+00
  +0.00000000000e+00
  +0.00000000000e+00
  +0.00000000000e+00
  +0.00000000000e+00
  +0.00000000000e+00
  +0.00000000000e+00
  +0.00000000000e+00
  +0.00000000000e+00
  +0.00000000000e+00
  +0.00000000000e+00
  +0.00000000000e+00
  +0.00000000000e+00
  +0.00000000000e+00
  +0.00000000000e+00
  +0.00000000000e+00
  +0.00000000000e+00
  +0.00000000000e+00
  +0.00000000000e+00
  +0.00000000000e+00
  +0.00000000000e+00
  +0.00000000000e+00
  +0.00000000000e+00
  +0.00000000000e+00
  +0.00000000000e+00
  +0.00000000000e+00
  +0.00000000000e+00
  +0.00000000000e+00
  +0.00000000000e+00
  +0.00000000000e+00
  +0.00000000000e+00
  +0.00000000000e+00
  +0.00000000000e+00
  +0.00000000000e+00
  +0.00000000000e+00
  +0.00000000000e+00
  +0.00000000000e+00
  +0.00000000000e+00
  +0.00000000000e+00
  +0.00000000000e+00
  +0.00000000000e+00
  +0.00000000000e+00
  +0.00000000000e+00
  +0.00000000000e+00
  +0.00000000000e+00
  +0.00000000000e+00
  +0.00000000000e+00
  +0.00000000000e+00
  +0.00000000000e+00
  +0.00000000000e+00
  +0.00000000000e+00
  +0.00000000000e+00
  +0.00000000000e+00
  +0.00000000000e+00
  +0.00000000000e+00
  +0.00000000000e+00
  +0.00000000000e+00
  +0.00000000000e+00
  +0.00000000000e+00
  +0.00000000000e+00
  +0.00000000000e+00
  +0.00000000000e+00
  +0.00000000000e+00
  +0.00000000000e+00
  +0.00000000000e+00
  +0.00000000000e+00
  +0.00000000000e+00
  +0.00000000000e+00
  +0.00000000000e+00
  +0.00000000000e+00
  +0.00000000000e+00
  +0.00000000000e+00
  +0.00000000000e+00
  +0.00000000000e+00
  +0.00000000000e+00
  +0.00000000000e+00
  +0.00000000000e+00
  +0.00000000000e+00
  +0.00000000000e+00
  +0.00000000000e+00
  +0.00000000000e+00
  +0.00000000000e+00
  +0.00000000000e+00
</dep>
<dep V1.It time>
  -1.54944785934e-03
  -1.48033297112e-03
  -1.42471501019e-03
  -1.37596176232e-03
  -1.33194055771e-03
  -1.29184529714e-03
  -1.25523599369e-03
  -1.22178654071e-03
  -1.19121832237e-03
  -1.16328165371e-03
  -1.13774961208e-03
  -1.11441511777e-03
  -1.09308900872e-03
  -1.07359841149e-03
  -1.05578534903e-03
  -1.03950543187e-03
  -1.02462671674e-03
  -1.01102859417e-03
  -9.98600841930e-04
  -9.87242729018e-04
  -9.76862196722e-04
  -9.67375107144e-04
  -9.58704560741e-04
  -9.50780276709e-04
  -9.43538025207e-04
  -9.36919105757e-04
  -9.30869869722e-04
  -9.25341284792e-04
  -9.20288538355e-04
  -9.15670675288e-04
  -9.11450266072e-04
  -9.07593102736e-04
  -9.04067921137e-04
  -9.00846147733e-04
  -8.97896653505e-04
  -8.95205916795e-04
  -8.92746975327e-04
  -8.90499588149e-04
  -8.88445634058e-04
  -8.86568443624e-04
  -8.84852832894e-04
  -8.83284880341e-04
  -8.81851877892e-04
  -8.80542212246e-04
  -8.79345295234e-04
  -8.78251330426e-04
  -8.77251572541e-04
  -8.76337849502e-04
  -8.75502784441e-04
  -8.74739561492e-04
  -8.74042056134e-04
  -8.73404526941e-04
  -8.72821915545e-04
  -8.72289448601e-04
  -8.71802810493e-04
  -8.71358056747e-04
  -8.70951582432e-04
  -8.70580092879e-04
  -8.70240576995e-04
  -8.69930282834e-04
  -8.69646695334e-04
  -8.69387515858e-04
  -8.69150643671e-04
  -8.68934158776e-04
  -8.68736306492e-04
  -8.68555483110e-04
  -8.68390222989e-04
  -8.68239186606e-04
  -8.68101149749e-04
  -8.67974993559e-04
  -8.67859695487e-04
  -8.67754320976e-04
  -8.67658015925e-04
  -8.67569999738e-04
  -8.67489559002e-04
  -8.67416041704e-04
  -8.67348851951e-04
  -8.67287445140e-04
  -8.67231323541e-04
  -8.67180032262e-04
  -8.67133155563e-04
  -8.67090313486e-04
  -8.67051158774e-04
  -8.67015374063e-04
  -8.66982669300e-04
  -8.66952779397e-04
  -8.66925462082e-04
  -8.66900495936e-04
  -8.66877678597e-04
  -8.66856825119e-04
  -8.66837766475e-04
  -8.66820348186e-04
  -8.66804429069e-04
  -8.66789880091e-04
  -8.66776583326e-04
  -8.66764430998e-04
  -8.66753324607e-04
  -8.66743174130e-04
  -8.66733897292e-04
  -8.66725418900e-04
  -8.66717670234e-04
  -8.61966109307e-04
  -8.44825543676e-04
  -8.28233535815e-04
  -8.12179804420e-04
  -7.96646876001e-04
  -7.81617844993e-04
  -7.67076355459e-04
  -7.53006583151e-04
  -7.39393218157e-04
  -7.26221448117e-04
  -7.13476942003e-04
  -7.01145834421e-04
  -6.89214710436e-04
  -6.77670590897e-04
  -6.66500918234e-04
  -6.55693542735e-04
  -6.45134924092e-04
  -6.35024530285e-04
  -6.25241524014e-04
  -6.15774946215e-04
  -6.06616013701e-04
  -5.97753871309e-04
  -5.89178912348e-04
  -5.80881841346e-04
  -5.72853665133e-04
  -5.65085677752e-04
  -5.57569455310e-04
  -5.50296846312e-04
  -5.43259961834e-04
  -5.36451167978e-04
  -5.29863077527e-04
  -5.23488542010e-04
  -5.17320644020e-04
  -5.11362351383e-04
  -5.05587511336e-04
  -5.00370449200e-04
  -5.70139272747e-04
  -7.92588439442e-04
  -8.48753704909e-04
  -8.62161947013e-04
  -8.65496121851e-04
  -8.66340392739e-04
  -8.66556054629e-04
  -8.66610593252e-04
  -8.66624937920e-04
  -8.66629145730e-04
  -8.66630691018e-04
  -8.66631421633e-04
  -8.66631914855e-04
  -8.66632296582e-04
  -8.66632611899e-04
  -8.66632879587e-04
  -8.66633110380e-04
  -8.66633311703e-04
  -8.66633489256e-04
  -8.66633647113e-04
  -8.66633963814e-04
  -8.66633640477e-04
  -8.66634100876e-04
  -8.66634194497e-04
  -8.66634064198e-04
  -8.66634554127e-04
  -8.66634221800e-04
  -8.66634676730e-04
  -8.66634477745e-04
  -8.66634709145e-04
  -8.66634713268e-04
  -8.66634750745e-04
  -8.66634873680e-04
  -8.66634830273e-04
  -8.66634964809e-04
  -8.66634930840e-04
  -8.66635018366e-04
  -8.66635025657e-04
  -8.66635061987e-04
  -8.66635099280e-04
  -8.66635107532e-04
  -8.66635150892e-04
  -8.66635154333e-04
  -8.66635187850e-04
  -8.66635197365e-04
  -8.66635216967e-04
  -8.66635232617e-04
  -8.66635242982e-04
  -8.66635259913e-04
  -8.66635266813e-04
  -8.66635280956e-04
  -8.66635287895e-04
  -8.66635297970e-04
  -8.66635305630e-04
  -8.66635312450e-04
  -8.66635320009e-04
  -8.66635325042e-04
  -8.66635331572e-04
  -8.66635335897e-04
  -8.66635341025e-04
  -8.66635345047e-04
  -8.66635348936e-04
  -8.66635352614e-04
  -8.66635355650e-04
</dep>
<dep vdis.Vt time>
  +6.27553270392e-06
  +1.06688615246e-01
  +1.35482848800e-01
  +1.42891353866e-01
  +1.44785445111e-01
  +1.45268984936e-01
  +1.45392356463e-01
  +1.45423836341e-01
  +1.45431859972e-01
  +1.45433920880e-01
  +1.45434429713e-01
  +1.45434578320e-01
  +1.45434596030e-01
  +1.45434622244e-01
  +1.45434626417e-01
  +1.45434665500e-01
  +1.45434620623e-01
  +1.45434587067e-01
  +1.45434592462e-01
  +1.45434620818e-01
  +1.45434634911e-01
  +1.45434624060e-01
  +1.45434608514e-01
  +1.45434605953e-01
  +1.45434614572e-01
  +1.45434622005e-01
  +1.45434620949e-01
  +1.45434615158e-01
  +1.45434612229e-01
  +1.45434614347e-01
  +1.45434617641e-01
  +1.45434618279e-01
  +1.45434616491e-01
  +1.45434614923e-01
  +1.45437133142e-01
  +1.45435533374e-01
  +1.45434840026e-01
  +1.45434686488e-01
  +1.45434616725e-01
  +1.45434668598e-01
  +1.45434661902e-01
  +1.45434650422e-01
  +1.45434649889e-01
  +1.45434651023e-01
  +1.45434407489e-01
  +1.45434773869e-01
  +1.45434647873e-01
  +1.45434652478e-01
  +1.45434520829e-01
  +1.45434682256e-01
  +1.45434575925e-01
  +1.45434615311e-01
  +1.45434615897e-01
  +1.45434616075e-01
  +1.45434616132e-01
  +1.45434616135e-01
  +1.45434616138e-01
  +1.45434616151e-01
  +1.45434616128e-01
  +1.45434616164e-01
  +1.45434616106e-01
  +1.45434616187e-01
  +1.45434616104e-01
  +1.45434616169e-01
  +1.45434616121e-01
  +1.45434616158e-01
  +1.45434616130e-01
  +1.45434616151e-01
  +1.45434616135e-01
  +1.45434616140e-01
  +1.45434616098e-01
  +1.45434616131e-01
  +1.45434616162e-01
  +1.45434616161e-01
  +1.45434616140e-01
  +1.45434616129e-01
  +1.45434616135e-01
  +1.45434616146e-01
  +1.45434616149e-01
  +1.45434616143e-01
  +1.45434616138e-01
  +1.45434616139e-01
  +1.45434616143e-01
  +1.45434616144e-01
  +1.45434616143e-01
  +1.45434616141e-01
  +1.45434616141e-01
  +1.45434616142e-01
  +1.45434616143e-01
  +1.45434616142e-01
  +1.45434616142e-01
  +1.45434616142e-01
  +1.45434616142e-01
  +1.45434616142e-01
  +1.45434616142e-01
  +1.45434616142e-01
  +1.45434616142e-01
  +1.45434616142e-01
  +1.45434616142e-01
  +1.45434616142e-01
  +1.45434616142e-01
  +1.88368263213e-01
  +3.44309265505e-01
  +4.95261675190e-01
  +6.41318769546e-01
  +7.82639299089e-01
  +9.19376868442e-01
  +1.05168010091e+00
  +1.17969280001e+00
  +1.30355410578e+00
  +1.42339864600e+00
  +1.53935668255e+00
  +1.65155425297e+00
  +1.76011330746e+00
  +1.86515184142e+00
  +1.96678402372e+00
  +2.06512032079e+00
  +2.16050195610e+00
  +2.25255738005e+00
  +2.34162745387e+00
  +2.42780978006e+00
  +2.51119522192e+00
  +2.59187650861e+00
  +2.66994134044e+00
  +2.74547456780e+00
  +2.81855828607e+00
  +2.88927193315e+00
  +2.95769236932e+00
  +3.02389396160e+00
  +3.08794866644e+00
  +3.14992610648e+00
  +3.20989364649e+00
  +3.26791646658e+00
  +3.32405763315e+00
  +3.37830031800e+00
  +3.43086160041e+00
  +3.47834622266e+00
  +2.84345846997e+00
  +8.19178874026e-01
  +3.08082101414e-01
  +1.86073626639e-01
