<Qucs Dataset 0.0.17>
<indep time 400>
  +0.00000000000e+00
  +1.00250626566e-06
  +2.00501253133e-06
  +3.00751879699e-06
  +4.01002506266e-06
  +5.01253132832e-06
  +6.01503759398e-06
  +7.01754385965e-06
  +8.02005012531e-06
  +9.02255639098e-06
  +1.00250626566e-05
  +1.10275689223e-05
  +1.20300751880e-05
  +1.30325814536e-05
  +1.40350877193e-05
  +1.50375939850e-05
  +1.60401002506e-05
  +1.70426065163e-05
  +1.80451127820e-05
  +1.90476190476e-05
  +2.00501253133e-05
  +2.10526315789e-05
  +2.20551378446e-05
  +2.30576441103e-05
  +2.40601503759e-05
  +2.50626566416e-05
  +2.60651629073e-05
  +2.70676691729e-05
  +2.80701754386e-05
  +2.90726817043e-05
  +3.00751879699e-05
  +3.10776942356e-05
  +3.20802005013e-05
  +3.30827067669e-05
  +3.40852130326e-05
  +3.50877192982e-05
  +3.60902255639e-05
  +3.70927318296e-05
  +3.80952380952e-05
  +3.90977443609e-05
  +4.01002506266e-05
  +4.11027568922e-05
  +4.21052631579e-05
  +4.31077694236e-05
  +4.41102756892e-05
  +4.51127819549e-05
  +4.61152882206e-05
  +4.71177944862e-05
  +4.81203007519e-05
  +4.91228070175e-05
  +5.01253132832e-05
  +5.11278195489e-05
  +5.21303258145e-05
  +5.31328320802e-05
  +5.41353383459e-05
  +5.51378446115e-05
  +5.61403508772e-05
  +5.71428571429e-05
  +5.81453634085e-05
  +5.91478696742e-05
  +6.01503759398e-05
  +6.11528822055e-05
  +6.21553884712e-05
  +6.31578947368e-05
  +6.41604010025e-05
  +6.51629072682e-05
  +6.61654135338e-05
  +6.71679197995e-05
  +6.81704260652e-05
  +6.91729323308e-05
  +7.01754385965e-05
  +7.11779448622e-05
  +7.21804511278e-05
  +7.31829573935e-05
  +7.41854636591e-05
  +7.51879699248e-05
  +7.61904761905e-05
  +7.71929824561e-05
  +7.81954887218e-05
  +7.91979949875e-05
  +8.02005012531e-05
  +8.12030075188e-05
  +8.22055137845e-05
  +8.32080200501e-05
  +8.42105263158e-05
  +8.52130325815e-05
  +8.62155388471e-05
  +8.72180451128e-05
  +8.82205513784e-05
  +8.92230576441e-05
  +9.02255639098e-05
  +9.12280701754e-05
  +9.22305764411e-05
  +9.32330827068e-05
  +9.42355889724e-05
  +9.52380952381e-05
  +9.62406015038e-05
  +9.72431077694e-05
  +9.82456140351e-05
  +9.92481203008e-05
  +1.00250626566e-04
  +1.01253132832e-04
  +1.02255639098e-04
  +1.03258145363e-04
  +1.04260651629e-04
  +1.05263157895e-04
  +1.06265664160e-04
  +1.07268170426e-04
  +1.08270676692e-04
  +1.09273182957e-04
  +1.10275689223e-04
  +1.11278195489e-04
  +1.12280701754e-04
  +1.13283208020e-04
  +1.14285714286e-04
  +1.15288220551e-04
  +1.16290726817e-04
  +1.17293233083e-04
  +1.18295739348e-04
  +1.19298245614e-04
  +1.20300751880e-04
  +1.21303258145e-04
  +1.22305764411e-04
  +1.23308270677e-04
  +1.24310776942e-04
  +1.25313283208e-04
  +1.26315789474e-04
  +1.27318295739e-04
  +1.28320802005e-04
  +1.29323308271e-04
  +1.30325814536e-04
  +1.31328320802e-04
  +1.32330827068e-04
  +1.33333333333e-04
  +1.34335839599e-04
  +1.35338345865e-04
  +1.36340852130e-04
  +1.37343358396e-04
  +1.38345864662e-04
  +1.39348370927e-04
  +1.40350877193e-04
  +1.41353383459e-04
  +1.42355889724e-04
  +1.43358395990e-04
  +1.44360902256e-04
  +1.45363408521e-04
  +1.46365914787e-04
  +1.47368421053e-04
  +1.48370927318e-04
  +1.49373433584e-04
  +1.50375939850e-04
  +1.51378446115e-04
  +1.52380952381e-04
  +1.53383458647e-04
  +1.54385964912e-04
  +1.55388471178e-04
  +1.56390977444e-04
  +1.57393483709e-04
  +1.58395989975e-04
  +1.59398496241e-04
  +1.60401002506e-04
  +1.61403508772e-04
  +1.62406015038e-04
  +1.63408521303e-04
  +1.64411027569e-04
  +1.65413533835e-04
  +1.66416040100e-04
  +1.67418546366e-04
  +1.68421052632e-04
  +1.69423558897e-04
  +1.70426065163e-04
  +1.71428571429e-04
  +1.72431077694e-04
  +1.73433583960e-04
  +1.74436090226e-04
  +1.75438596491e-04
  +1.76441102757e-04
  +1.77443609023e-04
  +1.78446115288e-04
  +1.79448621554e-04
  +1.80451127820e-04
  +1.81453634085e-04
  +1.82456140351e-04
  +1.83458646617e-04
  +1.84461152882e-04
  +1.85463659148e-04
  +1.86466165414e-04
  +1.87468671679e-04
  +1.88471177945e-04
  +1.89473684211e-04
  +1.90476190476e-04
  +1.91478696742e-04
  +1.92481203008e-04
  +1.93483709273e-04
  +1.94486215539e-04
  +1.95488721805e-04
  +1.96491228070e-04
  +1.97493734336e-04
  +1.98496240602e-04
  +1.99498746867e-04
  +2.00501253133e-04
  +2.01503759398e-04
  +2.02506265664e-04
  +2.03508771930e-04
  +2.04511278195e-04
  +2.05513784461e-04
  +2.06516290727e-04
  +2.07518796992e-04
  +2.08521303258e-04
  +2.09523809524e-04
  +2.10526315789e-04
  +2.11528822055e-04
  +2.12531328321e-04
  +2.13533834586e-04
  +2.14536340852e-04
  +2.15538847118e-04
  +2.16541353383e-04
  +2.17543859649e-04
  +2.18546365915e-04
  +2.19548872180e-04
  +2.20551378446e-04
  +2.21553884712e-04
  +2.22556390977e-04
  +2.23558897243e-04
  +2.24561403509e-04
  +2.25563909774e-04
  +2.26566416040e-04
  +2.27568922306e-04
  +2.28571428571e-04
  +2.29573934837e-04
  +2.30576441103e-04
  +2.31578947368e-04
  +2.32581453634e-04
  +2.33583959900e-04
  +2.34586466165e-04
  +2.35588972431e-04
  +2.36591478697e-04
  +2.37593984962e-04
  +2.38596491228e-04
  +2.39598997494e-04
  +2.40601503759e-04
  +2.41604010025e-04
  +2.42606516291e-04
  +2.43609022556e-04
  +2.44611528822e-04
  +2.45614035088e-04
  +2.46616541353e-04
  +2.47619047619e-04
  +2.48621553885e-04
  +2.49624060150e-04
  +2.50626566416e-04
  +2.51629072682e-04
  +2.52631578947e-04
  +2.53634085213e-04
  +2.54636591479e-04
  +2.55639097744e-04
  +2.56641604010e-04
  +2.57644110276e-04
  +2.58646616541e-04
  +2.59649122807e-04
  +2.60651629073e-04
  +2.61654135338e-04
  +2.62656641604e-04
  +2.63659147870e-04
  +2.64661654135e-04
  +2.65664160401e-04
  +2.66666666667e-04
  +2.67669172932e-04
  +2.68671679198e-04
  +2.69674185464e-04
  +2.70676691729e-04
  +2.71679197995e-04
  +2.72681704261e-04
  +2.73684210526e-04
  +2.74686716792e-04
  +2.75689223058e-04
  +2.76691729323e-04
  +2.77694235589e-04
  +2.78696741855e-04
  +2.79699248120e-04
  +2.80701754386e-04
  +2.81704260652e-04
  +2.82706766917e-04
  +2.83709273183e-04
  +2.84711779449e-04
  +2.85714285714e-04
  +2.86716791980e-04
  +2.87719298246e-04
  +2.88721804511e-04
  +2.89724310777e-04
  +2.90726817043e-04
  +2.91729323308e-04
  +2.92731829574e-04
  +2.93734335840e-04
  +2.94736842105e-04
  +2.95739348371e-04
  +2.96741854637e-04
  +2.97744360902e-04
  +2.98746867168e-04
  +2.99749373434e-04
  +3.00751879699e-04
  +3.01754385965e-04
  +3.02756892231e-04
  +3.03759398496e-04
  +3.04761904762e-04
  +3.05764411028e-04
  +3.06766917293e-04
  +3.07769423559e-04
  +3.08771929825e-04
  +3.09774436090e-04
  +3.10776942356e-04
  +3.11779448622e-04
  +3.12781954887e-04
  +3.13784461153e-04
  +3.14786967419e-04
  +3.15789473684e-04
  +3.16791979950e-04
  +3.17794486216e-04
  +3.18796992481e-04
  +3.19799498747e-04
  +3.20802005013e-04
  +3.21804511278e-04
  +3.22807017544e-04
  +3.23809523810e-04
  +3.24812030075e-04
  +3.25814536341e-04
  +3.26817042607e-04
  +3.27819548872e-04
  +3.28822055138e-04
  +3.29824561404e-04
  +3.30827067669e-04
  +3.31829573935e-04
  +3.32832080201e-04
  +3.33834586466e-04
  +3.34837092732e-04
  +3.35839598997e-04
  +3.36842105263e-04
  +3.37844611529e-04
  +3.38847117794e-04
  +3.39849624060e-04
  +3.40852130326e-04
  +3.41854636591e-04
  +3.42857142857e-04
  +3.43859649123e-04
  +3.44862155388e-04
  +3.45864661654e-04
  +3.46867167920e-04
  +3.47869674185e-04
  +3.48872180451e-04
  +3.49874686717e-04
  +3.50877192982e-04
  +3.51879699248e-04
  +3.52882205514e-04
  +3.53884711779e-04
  +3.54887218045e-04
  +3.55889724311e-04
  +3.56892230576e-04
  +3.57894736842e-04
  +3.58897243108e-04
  +3.59899749373e-04
  +3.60902255639e-04
  +3.61904761905e-04
  +3.62907268170e-04
  +3.63909774436e-04
  +3.64912280702e-04
  +3.65914786967e-04
  +3.66917293233e-04
  +3.67919799499e-04
  +3.68922305764e-04
  +3.69924812030e-04
  +3.70927318296e-04
  +3.71929824561e-04
  +3.72932330827e-04
  +3.73934837093e-04
  +3.74937343358e-04
  +3.75939849624e-04
  +3.76942355890e-04
  +3.77944862155e-04
  +3.78947368421e-04
  +3.79949874687e-04
  +3.80952380952e-04
  +3.81954887218e-04
  +3.82957393484e-04
  +3.83959899749e-04
  +3.84962406015e-04
  +3.85964912281e-04
  +3.86967418546e-04
  +3.87969924812e-04
  +3.88972431078e-04
  +3.89974937343e-04
  +3.90977443609e-04
  +3.91979949875e-04
  +3.92982456140e-04
  +3.93984962406e-04
  +3.94987468672e-04
  +3.95989974937e-04
  +3.96992481203e-04
  +3.97994987469e-04
  +3.98997493734e-04
  +4.00000000000e-04
</indep>
<dep V1.It time>
  -1.85754424305e-04
  -1.85754424132e-04
  -1.85754424132e-04
  -1.85754424132e-04
  -1.85754424132e-04
  -1.85754424132e-04
  -1.85754424132e-04
  -1.85754424132e-04
  -1.85754424132e-04
  -1.85754424131e-04
  -1.85754424132e-04
  -1.85754424132e-04
  -1.85754424132e-04
  -1.85754424132e-04
  -1.85754424132e-04
  -1.85754424132e-04
  -1.85754424132e-04
  -1.85754424132e-04
  -1.85754424132e-04
  -1.85754424132e-04
  -1.85754424132e-04
  -1.85754424132e-04
  -1.85754424132e-04
  -1.85754424132e-04
  -1.85754424132e-04
  -1.85754424132e-04
  -1.85754424132e-04
  -1.85754424132e-04
  -1.85754424132e-04
  -1.85754424132e-04
  -1.85754424132e-04
  -1.85754424132e-04
  -1.85754424131e-04
  -1.85754424132e-04
  -1.85754424132e-04
  -1.85754424131e-04
  -1.85754424132e-04
  -1.85754424132e-04
  -1.85754424131e-04
  -1.85754424132e-04
  -1.85754424132e-04
  -1.85754424132e-04
  -1.85754424132e-04
  -1.85754424132e-04
  -1.85754424132e-04
  -1.85754424132e-04
  -1.85754424132e-04
  -1.85754424132e-04
  -1.85754424132e-04
  -1.85754424132e-04
  -1.85754424132e-04
  -1.85754424132e-04
  -1.85754424132e-04
  -1.85754424132e-04
  -1.85754424132e-04
  -1.85754424132e-04
  -1.85754424132e-04
  -1.85754424131e-04
  -1.85754424132e-04
  -1.85754424132e-04
  -1.85754424132e-04
  -1.85754424132e-04
  -1.85754424132e-04
  -1.85754424132e-04
  -1.85754424132e-04
  -1.85754424132e-04
  -1.85754424131e-04
  -1.85754424132e-04
  -1.85754424132e-04
  -1.85754424132e-04
  -1.85754424132e-04
  -1.85754424132e-04
  -1.85754424132e-04
  -1.85754424132e-04
  -1.85754424132e-04
  -1.85754424132e-04
  -1.85754424132e-04
  -1.85754424132e-04
  -1.85754424132e-04
  -1.85754424132e-04
  -1.85754424132e-04
  -1.85754424131e-04
  -1.85754424132e-04
  -1.85754424132e-04
  -1.85754424132e-04
  -1.85754424132e-04
  -1.85754424132e-04
  -1.85754424132e-04
  -1.85754424132e-04
  -1.85754424132e-04
  -1.85754424132e-04
  -1.85754424132e-04
  -1.85754424132e-04
  -1.85754424132e-04
  -1.85754424132e-04
  -1.85754424131e-04
  -1.85754424131e-04
  -1.85754424132e-04
  -1.85754424131e-04
  -1.85754424132e-04
  -1.85754424132e-04
  -1.85754424132e-04
  -1.85754424132e-04
  -1.85754424132e-04
  -1.85754424132e-04
  -1.85754424132e-04
  -1.85754424132e-04
  -1.85754424132e-04
  -1.85754424131e-04
  -1.85754424131e-04
  -1.85754424131e-04
  -1.85754424130e-04
  -1.85754424130e-04
  -1.85754424131e-04
  -1.85754424132e-04
  -1.85754424133e-04
  -1.85754424133e-04
  -1.85754424134e-04
  -1.85754424134e-04
  -1.85754424133e-04
  -1.85754424133e-04
  -1.85754424131e-04
  -1.85754424130e-04
  -1.85754424129e-04
  -1.85754424128e-04
  -1.85754424128e-04
  -1.85754424128e-04
  -1.85754424129e-04
  -1.85754424132e-04
  -1.85754424134e-04
  -1.85754424137e-04
  -1.85754424139e-04
  -1.85754424140e-04
  -1.85754424139e-04
  -1.85754424137e-04
  -1.85754424133e-04
  -1.85754424128e-04
  -1.85754424123e-04
  -1.85754424118e-04
  -1.85754424116e-04
  -1.85754424117e-04
  -1.85754424122e-04
  -1.85754424128e-04
  -1.85754424137e-04
  -1.85754424147e-04
  -1.85754424155e-04
  -1.85754424160e-04
  -1.85754424159e-04
  -1.85754424153e-04
  -1.85754424140e-04
  -1.85754424124e-04
  -1.85754424106e-04
  -1.85754424090e-04
  -1.85754424079e-04
  -1.85754424078e-04
  -1.85754424089e-04
  -1.85754424110e-04
  -1.85754424141e-04
  -1.85754424175e-04
  -1.85754424206e-04
  -1.85754424228e-04
  -1.85754424233e-04
  -1.85754424217e-04
  -1.85754424179e-04
  -1.85754424125e-04
  -1.85754424060e-04
  -1.85754424000e-04
  -1.85754423956e-04
  -1.85754423941e-04
  -1.85754423964e-04
  -1.85754424028e-04
  -1.85754424126e-04
  -1.85754424245e-04
  -1.85754424362e-04
  -1.85754424452e-04
  -1.85754424490e-04
  -1.85754424459e-04
  -1.85754424351e-04
  -1.85754424175e-04
  -1.85754423955e-04
  -1.85754423732e-04
  -1.85754423551e-04
  -1.85754423461e-04
  -1.85754423498e-04
  -1.85754423677e-04
  -1.85754423990e-04
  -1.85754424393e-04
  -1.85754424818e-04
  -1.85754425176e-04
  -1.85754425379e-04
  -1.85754425352e-04
  -1.85754425058e-04
  -1.85754424508e-04
  -1.85754423771e-04
  -1.85754422969e-04
  -1.85754422263e-04
  -1.85754421824e-04
  -1.85754421796e-04
  -1.85754422266e-04
  -1.85754423227e-04
  -1.85754424568e-04
  -1.85754426074e-04
  -1.85754427452e-04
  -1.85754428379e-04
  -1.85754428572e-04
  -1.85754427846e-04
  -1.85754426180e-04
  -1.85754423754e-04
  -1.85754420942e-04
  -1.85754418274e-04
  -1.85754416353e-04
  -1.85754415737e-04
  -1.85754416808e-04
  -1.85754419662e-04
  -1.85754424027e-04
  -1.85754429255e-04
  -1.85754434388e-04
  -1.85754438301e-04
  -1.85754439919e-04
  -1.85754438451e-04
  -1.85754433619e-04
  -1.85754425814e-04
  -1.85754416145e-04
  -1.85754406333e-04
  -1.85754398462e-04
  -1.85754394600e-04
  -1.85754396348e-04
  -1.85754404413e-04
  -1.85754418274e-04
  -1.85754436065e-04
  -1.85754454715e-04
  -1.85754470374e-04
  -1.85754479097e-04
  -1.85754477670e-04
  -1.85754464447e-04
  -1.85754440001e-04
  -1.85754407436e-04
  -1.85754372196e-04
  -1.85754341348e-04
  -1.85754322376e-04
  -1.85754321647e-04
  -1.85754342831e-04
  -1.85754385590e-04
  -1.85754444883e-04
  -1.85754511136e-04
  -1.85754571428e-04
  -1.85754611633e-04
  -1.85754619223e-04
  -1.85754586284e-04
  -1.85754512108e-04
  -1.85754404732e-04
  -1.85754280884e-04
  -1.85754164043e-04
  -1.85754080684e-04
  -1.85754055169e-04
  -1.85754104117e-04
  -1.85754231356e-04
  -1.85754424626e-04
  -1.85754655099e-04
  -1.85754880346e-04
  -1.85755050828e-04
  -1.85755119227e-04
  -1.85755051120e-04
  -1.85754834938e-04
  -1.85754488858e-04
  -1.85754062525e-04
  -1.85753632282e-04
  -1.85753289802e-04
  -1.85753125381e-04
  -1.85753208480e-04
  -1.85753569015e-04
  -1.85754183358e-04
  -1.85754968833e-04
  -1.85755789631e-04
  -1.85756475460e-04
  -1.85756851695e-04
  -1.85756776903e-04
  -1.85756180586e-04
  -1.85755092366e-04
  -1.85753654078e-04
  -1.85752109164e-04
  -1.85750768386e-04
  -1.85749956123e-04
  -1.85749945563e-04
  -1.85750893422e-04
  -1.85752785534e-04
  -1.85755404878e-04
  -1.85758333501e-04
  -1.85760998116e-04
  -1.85762763096e-04
  -1.85763062627e-04
  -1.85761547778e-04
  -1.85758210981e-04
  -1.85753448288e-04
  -1.85748033303e-04
  -1.85743002368e-04
  -1.85739476320e-04
  -1.85738456717e-04
  -1.85740628150e-04
  -1.85746182306e-04
  -1.85754673043e-04
  -1.85764929611e-04
  -1.85775090422e-04
  -1.85782837746e-04
  -1.85785871149e-04
  -1.85782545911e-04
  -1.85772476609e-04
  -1.85756855300e-04
  -1.85738316230e-04
  -1.85720376082e-04
  -1.85706690005e-04
  -1.85700437676e-04
  -1.85703996324e-04
  -1.85718759003e-04
  -1.85744753054e-04
  -1.85779822336e-04
  -1.85818649539e-04
  -1.85852584422e-04
  -1.85871335452e-04
  -1.85866476836e-04
  -1.85835239257e-04
  -1.85782572874e-04
  -1.85720077103e-04
  -1.85661693311e-04
  -1.85618408265e-04
  -1.85596002952e-04
  -1.85597425684e-04
  -1.85627048761e-04
  -1.85693044678e-04
  -1.85803672959e-04
  -1.85953102331e-04
  -1.86106105384e-04
  -1.86206965411e-04
  -1.86209751156e-04
  -1.86101198575e-04
  -1.85909255069e-04
  -1.85701089117e-04
  -1.85550481493e-04
  -1.85476011861e-04
  -1.85449290578e-04
  -1.85448568879e-04
  -1.85475186095e-04
  -1.85565459664e-04
  -1.85820197563e-04
  -1.86312493332e-04
  -1.86850563070e-04
  -1.87180032320e-04
  -1.87181624851e-04
  -1.86846469764e-04
  -1.86266334120e-04
  -1.85694465397e-04
  -1.85450929039e-04
  -1.85407743066e-04
  -1.85401313654e-04
  -1.85401377977e-04
  -1.85408273984e-04
  -1.85457790032e-04
  -1.85818846857e-04
  -1.86893372597e-04
  -1.87990484080e-04
  -1.88608100970e-04
  -1.88597054261e-04
  -1.87958638682e-04
  -1.86836179852e-04
  -1.85705655070e-04
  -1.85412698223e-04
  -1.85398088245e-04
  -1.85397269687e-04
  -1.85397272644e-04
  -1.85398125867e-04
  -1.85413694636e-04
  -1.85789939818e-04
  -1.87513500442e-04
  -1.89187271530e-04
  -1.90124578680e-04
  -1.90131894605e-04
  -1.89208108020e-04
  -1.87541171272e-04
  -1.85745105383e-04
  -1.85401843819e-04
  -1.85397140377e-04
  -1.85397046924e-04
  -1.85397046242e-04
  -1.85397124666e-04
  -1.85400848793e-04
  -1.85731025546e-04
  -1.88091170740e-04
  -1.90353271391e-04
  -1.91642655920e-04
  -1.91702878664e-04
  -1.90522273486e-04
  -1.88335138391e-04
  -1.85823586854e-04
  -1.85398683239e-04
  -1.85397046067e-04
  -1.85397035072e-04
  -1.85397034914e-04
  -1.85397041358e-04
  -1.85397799652e-04
  -1.85653778846e-04
</dep>
<dep Output.Vt time>
  +1.00000000000e+01
  +1.00000000000e+01
  +1.00000000000e+01
  +1.00000000000e+01
  +1.00000000000e+01
  +1.00000000000e+01
  +1.00000000000e+01
  +1.00000000000e+01
  +1.00000000000e+01
  +1.00000000000e+01
  +1.00000000000e+01
  +1.00000000000e+01
  +1.00000000000e+01
  +1.00000000000e+01
  +1.00000000000e+01
  +1.00000000000e+01
  +1.00000000000e+01
  +1.00000000000e+01
  +1.00000000000e+01
  +1.00000000000e+01
  +1.00000000000e+01
  +1.00000000000e+01
  +1.00000000000e+01
  +1.00000000000e+01
  +1.00000000000e+01
  +1.00000000000e+01
  +1.00000000000e+01
  +1.00000000000e+01
  +1.00000000000e+01
  +1.00000000000e+01
  +1.00000000000e+01
  +1.00000000000e+01
  +1.00000000000e+01
  +1.00000000000e+01
  +1.00000000000e+01
  +1.00000000000e+01
  +1.00000000000e+01
  +1.00000000000e+01
  +1.00000000000e+01
  +1.00000000000e+01
  +1.00000000000e+01
  +1.00000000000e+01
  +1.00000000000e+01
  +1.00000000000e+01
  +1.00000000000e+01
  +1.00000000000e+01
  +1.00000000000e+01
  +1.00000000000e+01
  +1.00000000000e+01
  +1.00000000000e+01
  +1.00000000000e+01
  +1.00000000000e+01
  +1.00000000000e+01
  +1.00000000000e+01
  +1.00000000000e+01
  +1.00000000000e+01
  +1.00000000000e+01
  +1.00000000000e+01
  +1.00000000000e+01
  +1.00000000000e+01
  +1.00000000000e+01
  +1.00000000000e+01
  +1.00000000000e+01
  +1.00000000000e+01
  +1.00000000000e+01
  +1.00000000000e+01
  +1.00000000000e+01
  +1.00000000000e+01
  +1.00000000000e+01
  +1.00000000000e+01
  +1.00000000000e+01
  +1.00000000000e+01
  +1.00000000000e+01
  +1.00000000000e+01
  +1.00000000000e+01
  +1.00000000000e+01
  +1.00000000000e+01
  +1.00000000000e+01
  +1.00000000000e+01
  +1.00000000000e+01
  +9.99999999999e+00
  +9.99999999999e+00
  +9.99999999999e+00
  +9.99999999999e+00
  +9.99999999999e+00
  +1.00000000000e+01
  +1.00000000000e+01
  +1.00000000000e+01
  +1.00000000000e+01
  +1.00000000000e+01
  +1.00000000000e+01
  +1.00000000000e+01
  +1.00000000000e+01
  +9.99999999999e+00
  +9.99999999998e+00
  +9.99999999997e+00
  +9.99999999997e+00
  +9.99999999997e+00
  +9.99999999998e+00
  +9.99999999999e+00
  +1.00000000000e+01
  +1.00000000000e+01
  +1.00000000001e+01
  +1.00000000001e+01
  +1.00000000001e+01
  +1.00000000000e+01
  +1.00000000000e+01
  +9.99999999998e+00
  +9.99999999994e+00
  +9.99999999990e+00
  +9.99999999988e+00
  +9.99999999988e+00
  +9.99999999990e+00
  +9.99999999995e+00
  +1.00000000000e+01
  +1.00000000001e+01
  +1.00000000002e+01
  +1.00000000002e+01
  +1.00000000002e+01
  +1.00000000002e+01
  +1.00000000001e+01
  +9.99999999999e+00
  +9.99999999984e+00
  +9.99999999970e+00
  +9.99999999960e+00
  +9.99999999956e+00
  +9.99999999962e+00
  +9.99999999976e+00
  +9.99999999998e+00
  +1.00000000003e+01
  +1.00000000005e+01
  +1.00000000007e+01
  +1.00000000008e+01
  +1.00000000007e+01
  +1.00000000005e+01
  +1.00000000001e+01
  +9.99999999961e+00
  +9.99999999910e+00
  +9.99999999869e+00
  +9.99999999847e+00
  +9.99999999855e+00
  +9.99999999895e+00
  +9.99999999966e+00
  +1.00000000006e+01
  +1.00000000015e+01
  +1.00000000024e+01
  +1.00000000028e+01
