<Qucs Dataset 0.0.18>
<indep acfrequency 200>
  +1.00000000000e+02
  +1.03532184330e+02
  +1.07189131921e+02
  +1.10975249641e+02
  +1.14895100019e+02
  +1.18953406737e+02
  +1.23155060329e+02
  +1.27505124071e+02
  +1.32008840083e+02
  +1.36671635646e+02
  +1.41499129743e+02
  +1.46497139831e+02
  +1.51671688847e+02
  +1.57029012473e+02
  +1.62575566644e+02
  +1.68318035333e+02
  +1.74263338601e+02
  +1.80418640939e+02
  +1.86791359902e+02
  +1.93389175046e+02
  +2.00220037182e+02
  +2.07292177960e+02
  +2.14614119786e+02
  +2.22194686094e+02
  +2.30043011977e+02
  +2.38168555198e+02
  +2.46581107582e+02
  +2.55290806824e+02
  +2.64308148697e+02
  +2.73643999707e+02
  +2.83309610184e+02
  +2.93316627839e+02
  +3.03677111804e+02
  +3.14403547159e+02
  +3.25508859984e+02
  +3.37006432927e+02
  +3.48910121341e+02
  +3.61234269971e+02
  +3.73993730248e+02
  +3.87203878181e+02
  +4.00880632890e+02
  +4.15040475785e+02
  +4.29700470432e+02
  +4.44878283113e+02
  +4.60592204115e+02
  +4.76861169771e+02
  +4.93704785284e+02
  +5.11143348344e+02
  +5.29197873596e+02
  +5.47890117959e+02
  +5.67242606849e+02
  +5.87278661319e+02
  +6.08022426165e+02
  +6.29498899022e+02
  +6.51733960488e+02
  +6.74754405311e+02
  +6.98587974679e+02
  +7.23263389648e+02
  +7.48810385759e+02
  +7.75259748863e+02
  +8.02643352226e+02
  +8.30994194935e+02
  +8.60346441668e+02
  +8.90735463861e+02
  +9.22197882333e+02
  +9.54771611421e+02
  +9.88495904663e+02
  +1.02341140211e+03
  +1.05956017928e+03
  +1.09698579789e+03
  +1.13573335834e+03
  +1.17584955405e+03
  +1.21738272774e+03
  +1.26038292968e+03
  +1.30490197801e+03
  +1.35099352120e+03
  +1.39871310265e+03
  +1.44811822767e+03
  +1.49926843279e+03
  +1.55222535743e+03
  +1.60705281826e+03
  +1.66381688608e+03
  +1.72258596540e+03
  +1.78343087693e+03
  +1.84642494290e+03
  +1.91164407539e+03
  +1.97916686785e+03
  +2.04907468982e+03
  +2.12145178491e+03
  +2.19638537242e+03
  +2.27396575236e+03
  +2.35428641432e+03
  +2.43744415012e+03
  +2.52353917043e+03
  +2.61267522556e+03
  +2.70495973046e+03
  +2.80050389418e+03
  +2.89942285388e+03
  +3.00183581358e+03
  +3.10786618778e+03
  +3.21764175025e+03
  +3.33129478793e+03
  +3.44896226041e+03
  +3.57078596490e+03
  +3.69691270720e+03
  +3.82749447852e+03
  +3.96268863870e+03
  +4.10265810583e+03
  +4.24757155254e+03
  +4.39760360930e+03
  +4.55293507487e+03
  +4.71375313412e+03
  +4.88025158365e+03
  +5.05263106534e+03
  +5.23109930806e+03
  +5.41587137808e+03
  +5.60716993821e+03
  +5.80522551609e+03
  +6.01027678207e+03
  +6.22257083673e+03
  +6.44236350872e+03
  +6.66991966303e+03
  +6.90551352016e+03
  +7.14942898660e+03
  +7.40195999692e+03
  +7.66341086801e+03
  +7.93409666580e+03
  +8.21434358492e+03
  +8.50448934180e+03
  +8.80488358164e+03
  +9.11588829975e+03
  +9.43787827778e+03
  +9.77124153535e+03
  +1.01163797977e+04
  +1.04737089796e+04
  +1.08436596869e+04
  +1.12266777351e+04
  +1.16232246868e+04
  +1.20337784078e+04
  +1.24588336430e+04
  +1.28989026125e+04
  +1.33545156293e+04
  +1.38262217376e+04
  +1.43145893752e+04
  +1.48202070580e+04
  +1.53436840893e+04
  +1.58856512943e+04
  +1.64467617799e+04
  +1.70276917223e+04
  +1.76291411810e+04
  +1.82518349432e+04
  +1.88965233969e+04
  +1.95639834352e+04
  +2.02550193923e+04
  +2.09704640132e+04
  +2.17111794569e+04
  +2.24780583355e+04
  +2.32720247896e+04
  +2.40940356024e+04
  +2.49450813523e+04
  +2.58261876068e+04
  +2.67384161584e+04
  +2.76828663039e+04
  +2.86606761695e+04
  +2.96730240819e+04
  +3.07211299886e+04
  +3.18062569279e+04
  +3.29297125510e+04
  +3.40928506975e+04
  +3.52970730273e+04
  +3.65438307096e+04
  +3.78346261713e+04
  +3.91710149081e+04
  +4.05546073584e+04
  +4.19870708444e+04
  +4.34701315813e+04
  +4.50055767570e+04
  +4.65952566866e+04
  +4.82410870417e+04
  +4.99450511586e+04
  +5.17092024290e+04
  +5.35356667741e+04
  +5.54266452066e+04
  +5.73844164830e+04
  +5.94113398497e+04
  +6.15098578858e+04
  +6.36824994472e+04
  +6.59318827133e+04
  +6.82607183427e+04
  +7.06718127393e+04
  +7.31680714343e+04
  +7.57525025877e+04
  +7.84282206134e+04
  +8.11984499318e+04
  +8.40665288562e+04
  +8.70359136149e+04
  +9.01101825167e+04
  +9.32930402628e+04
  +9.65883224116e+04
  +1.00000000000e+05
</indep>
<dep V1.i acfrequency>
  -1.65083836373e-04-j5.17256622157e-05
  -1.64950036795e-04-j5.35604755658e-05
  -1.64806617530e-04-j5.54609520304e-05
  -1.64652886915e-04-j5.74295049996e-05
  -1.64488103553e-04-j5.94686434887e-05
  -1.64311472733e-04-j6.15809766663e-05
  -1.64122142599e-04-j6.37692186706e-05
  -1.63919200035e-04-j6.60361937381e-05
  -1.63701666268e-04-j6.83848416734e-05
  -1.63468492136e-04-j7.08182236881e-05
  -1.63218553037e-04-j7.33395286441e-05
  -1.62950643494e-04-j7.59520797358e-05
  -1.62663471348e-04-j7.86593416542e-05
  -1.62355651519e-04-j8.14649282753e-05
  -1.62025699332e-04-j8.43726109249e-05
  -1.61672023350e-04-j8.73863272736e-05
  -1.61292917705e-04-j9.05101909238e-05
  -1.60886553872e-04-j9.37485017577e-05
  -1.60450971853e-04-j9.71057571205e-05
  -1.59984070737e-04-j1.00586663925e-04
  -1.59483598572e-04-j1.04196151771e-04
  -1.58947141527e-04-j1.07939387184e-04
  -1.58372112266e-04-j1.11821789090e-04
  -1.57755737501e-04-j1.15849045661e-04
  -1.57095044660e-04-j1.20027132671e-04
  -1.56386847601e-04-j1.24362333531e-04
  -1.55627731317e-04-j1.28861261187e-04
  -1.54814035560e-04-j1.33530882083e-04
  -1.53941837305e-04-j1.38378542424e-04
  -1.53006931989e-04-j1.43411996994e-04
  -1.52004813433e-04-j1.48639440831e-04
  -1.50930652367e-04-j1.54069544073e-04
  -1.49779273470e-04-j1.59711490362e-04
  -1.48545130831e-04-j1.65575019213e-04
  -1.47222281741e-04-j1.71670472833e-04
  -1.45804358715e-04-j1.78008847921e-04
  -1.44284539647e-04-j1.84601853049e-04
  -1.42655516009e-04-j1.91461972343e-04
  -1.40909458987e-04-j1.98602536215e-04
  -1.39037983482e-04-j2.06037800068e-04
  -1.37032109883e-04-j2.13783031982e-04
  -1.34882223556e-04-j2.21854610554e-04
  -1.32578031992e-04-j2.30270134222e-04
  -1.30108519612e-04-j2.39048543605e-04
  -1.27461900232e-04-j2.48210258622e-04
  -1.24625567264e-04-j2.57777332403e-04
  -1.21586041793e-04-j2.67773624327e-04
  -1.18328918742e-04-j2.78224994877e-04
  -1.14838811490e-04-j2.89159525425e-04
  -1.11099295408e-04-j3.00607766551e-04
  -1.07092851031e-04-j3.12603019086e-04
  -1.02800807796e-04-j3.25181652759e-04
  -9.82032896469e-05-j3.38383468117e-04
  -9.32791642065e-05-j3.52252108373e-04
  -8.80059978133e-05-j3.66835528930e-04
  -8.23600194184e-05-j3.82186533700e-04
  -7.63160973077e-05-j3.98363388910e-04
  -6.98477338295e-05-j4.15430526972e-04
  -6.29270849180e-05-j4.33459355249e-04
  -5.55250132844e-05-j4.52529187201e-04
  -4.76111868719e-05-j4.72728316568e-04
  -3.91542377424e-05-j4.94155259019e-04
  -3.01220012356e-05-j5.16920190113e-04
  -2.04818614004e-05-j5.41146613723e-04
  -1.02012368150e-05-j5.66973301210e-04
  +7.51748353666e-07-j5.94556548857e-04
  +1.24073489655e-05-j6.24072809360e-04
  +2.47929611779e-05-j6.55721762583e-04
  +3.79314591137e-05-j6.89729901209e-04
  +5.18389689212e-05-j7.26354717931e-04
  +6.65218980240e-05-j7.65889591773e-04
  +8.19729766893e-05-j8.08669480493e-04
  +9.81659875491e-05-j8.55077531123e-04
  +1.15048749203e-04-j9.05552717200e-04
  +1.32533773087e-04-j9.60598591186e-04
  +1.50485816233e-04-j1.02079319153e-03
  +1.68705291279e-04-j1.08680004458e-03
  +1.86906151325e-04-j1.15938001832e-03
  +2.04686422872e-04-j1.23940346304e-03
  +2.21489001587e-04-j1.32786152714e-03
  +2.36549657340e-04-j1.42587462898e-03
  +2.48828464968e-04-j1.53469459281e-03
  +2.56920231007e-04-j1.65569461510e-03
  +2.58939266659e-04-j1.79033759806e-03
  +2.52374782455e-04-j1.94010795012e-03
  +2.33916641902e-04-j2.10638421589e-03
  +1.99259704400e-04-j2.29021979517e-03
  +1.42912575181e-04-j2.49198789674e-03
  +5.80689325470e-05-j2.71083958397e-03
  -6.33477188924e-05-j2.94393220427e-03
  -2.30282894585e-04-j3.18543298597e-03
  -4.51541407817e-04-j3.42542436199e-03
  -7.33918776243e-04-j3.64906385526e-03
  -1.07942474757e-03-j3.83665152264e-03
  -1.48208339332e-03-j3.96544481837e-03
  -1.92559297793e-03-j4.01375277923e-03
  -2.38365444352e-03-j3.96671818055e-03
  -2.82414348971e-03-j3.82162221599e-03
  -3.21624406258e-03-j3.58986372059e-03
  -3.53752490452e-03-j3.29417362515e-03
  -3.77776718319e-03-j2.96239259342e-03
  -3.93844968188e-03-j2.62091424917e-03
  -4.02923026974e-03-j2.29035229770e-03
  -4.06367221415e-03-j1.98412270906e-03
  -4.05583145408e-03-j1.70915952020e-03
  -4.01823618683e-03-j1.46758057363e-03
  -3.96106123080e-03-j1.25842626751e-03
  -3.89206037998e-03-j1.07905420878e-03
  -3.81686962382e-03-j9.26098663020e-04
  -3.73943014244e-03-j7.96058196112e-04
  -3.66240016896e-03-j6.85616719238e-04
  -3.58750263601e-03-j5.91793215030e-04
  -3.51579709611e-03-j5.11990416876e-04
  -3.44788285260e-03-j4.43988793876e-04
  -3.38404624684e-03-j3.85914180391e-04
  -3.32436528972e-03-j3.36195316446e-04
  -3.26878288075e-03-j2.93520037453e-04
  -3.21715742536e-03-j2.56794401042e-04
  -3.16929743815e-03-j2.25106529257e-04
  -3.12498491939e-03-j1.97695601815e-04
  -3.08399092229e-03-j1.73925768911e-04
  -3.04608572312e-03-j1.53264461338e-04
  -3.01104528356e-03-j1.35264486316e-04
  -2.97865518269e-03-j1.19549309041e-04
  -2.94871283634e-03-j1.05800977174e-04
  -2.92102856967e-03-j9.37502185983e-05
  -2.89542593382e-03-j8.31683167001e-05
  -2.87174153530e-03-j7.38604352008e-05
  -2.84982456212e-03-j6.56601236184e-05
  -2.82953613183e-03-j5.84247842700e-05
  -2.81074854588e-03-j5.20319230317e-05
  -2.79334450634e-03-j4.63760398721e-05
  -2.77721633175e-03-j4.13660426279e-05
  -2.76226519521e-03-j3.69230896831e-05
  -2.74840039870e-03-j3.29787850942e-05
  -2.73553869158e-03-j2.94736641059e-05
  -2.72360363664e-03-j2.63559185920e-05
  -2.71252502481e-03-j2.35803212877e-05
  -2.70223833735e-03-j2.11073152090e-05
  -2.69268425366e-03-j1.89022407316e-05
  -2.68380820201e-03-j1.69346777208e-05
  -2.67555995022e-03-j1.51778840942e-05
  -2.66789323310e-03-j1.36083154392e-05
  -2.66076541383e-03-j1.22052129524e-05
  -2.65413717606e-03-j1.09502491241e-05
  -2.64797224415e-03-j9.82722236182e-06
  -2.64223712885e-03-j8.82179319672e-06
  -2.63690089605e-03-j7.92125591536e-06
  -2.63193495645e-03-j7.11434044481e-06
  -2.62731287402e-03-j6.39104013796e-06
  -2.62301019167e-03-j5.74246178450e-06
  -2.61900427220e-03-j5.16069473781e-06
  -2.61527415334e-03-j4.63869652006e-06
  -2.61180041530e-03-j4.17019266182e-06
  -2.60856505982e-03-j3.74958886385e-06
  -2.60555139949e-03-j3.37189384676e-06
  -2.60274395652e-03-j3.03265148912e-06
  -2.60012836992e-03-j2.72788105262e-06
  -2.59769131050e-03-j2.45402446087e-06
  -2.59542040275e-03-j2.20789974128e-06
  -2.59330415320e-03-j1.98665986034e-06
  -2.59133188453e-03-j1.78775628658e-06
  -2.58949367499e-03-j1.60890670367e-06
  -2.58778030259e-03-j1.44806637200e-06
  -2.58618319376e-03-j1.30340270214e-06
  -2.58469437595e-03-j1.17327265955e-06
  -2.58330643401e-03-j1.05620266808e-06
  -2.58201246981e-03-j9.50870721588e-07
  -2.58080606505e-03-j8.56090448838e-07
  -2.57968124684e-03-j7.70796908345e-07
  -2.57863245589e-03-j6.94033916722e-07
  -2.57765451710e-03-j6.24942737835e-07
  -2.57674261228e-03-j5.62751980598e-07
  -2.57589225502e-03-j5.06768571168e-07
  -2.57509926722e-03-j4.56369681019e-07
  -2.57435975755e-03-j4.10995506102e-07
  -2.57367010127e-03-j3.70142804341e-07
  -2.57302692173e-03-j3.33359109288e-07
  -2.57242707298e-03-j3.00237547070e-07
  -2.57186762383e-03-j2.70412191937e-07
  -2.57134584291e-03-j2.43553902940e-07
  -2.57085918488e-03-j2.19366590621e-07
  -2.57040527755e-03-j1.97583868261e-07
  -2.56998191000e-03-j1.77966047157e-07
  -2.56958702144e-03-j1.60297439855e-07
  -2.56921869091e-03-j1.44383939120e-07
  -2.56887512771e-03-j1.30050843949e-07
  -2.56855466246e-03-j1.17140906942e-07
  -2.56825573884e-03-j1.05512580146e-07
  -2.56797690579e-03-j9.50384388551e-08
  -2.56771681044e-03-j8.56037650729e-08
  -2.56747419132e-03-j7.71052742239e-08
  -2.56724787219e-03-j6.94499704496e-08
  -2.56703675623e-03-j6.25541173433e-08
  -2.56683982066e-03-j5.63423123497e-08
  -2.56665611169e-03-j5.07466542782e-08
  -2.56648473987e-03-j4.57059944692e-08
  -2.56632487567e-03-j4.11652631272e-08
  -2.56617574552e-03-j3.70748632118e-08
  -2.56603662791e-03-j3.33901250549e-08
</dep>
<dep _net0.v acfrequency>
  -2.32333114449e-09-j1.07755888936e-07
  -2.49071970356e-09-j1.11568247686e-07
  -2.67019592826e-09-j1.15515948901e-07
  -2.86263686047e-09-j1.19603848083e-07
  -3.06898379601e-09-j1.23836980470e-07
  -3.29024708404e-09-j1.28220568284e-07
  -3.52751129846e-09-j1.32760028337e-07
  -3.78194081223e-09-j1.37460980021e-07
  -4.05478580826e-09-j1.42329253695e-07
  -4.34738876368e-09-j1.47370899505e-07
  -4.66119144777e-09-j1.52592196672e-07
  -4.99774247755e-09-j1.57999663267e-07
  -5.35870547966e-09-j1.63600066522e-07
  -5.74586791139e-09-j1.69400433707e-07
  -6.16115059951e-09-j1.75408063622e-07
  -6.60661806113e-09-j1.81630538748e-07
  -7.08448967739e-09-j1.88075738105e-07
  -7.59715179851e-09-j1.94751850878e-07
  -8.14717086644e-09-j2.01667390871e-07
  -8.73730765106e-09-j2.08831211852e-07
  -9.37053270609e-09-j2.16252523869e-07
  -1.00500431625e-08-j2.23940910613e-07
  -1.07792809908e-08-j2.31906347915e-07
  -1.15619528776e-08-j2.40159223485e-07
  -1.24020518804e-08-j2.48710357983e-07
  -1.33038810413e-08-j2.57571027559e-07
  -1.42720791645e-08-j2.66752987973e-07
  -1.53116489850e-08-j2.76268500451e-07
  -1.64279879860e-08-j2.86130359427e-07
  -1.76269221523e-08-j2.96351922345e-07
  -1.89147429857e-08-j3.06947141711e-07
  -2.02982481494e-08-j3.17930599599e-07
  -2.17847861553e-08-j3.29317544849e-07
  -2.33823055670e-08-j3.41123933205e-07
  -2.50994092488e-08-j3.53366470660e-07
  -2.69454142715e-08-j3.66062660331e-07
  -2.89304181634e-08-j3.79230853189e-07
  -3.10653722986e-08-j3.92890303000e-07
  -3.33621633228e-08-j4.07061225898e-07
  -3.58337036542e-08-j4.21764865014e-07
  -3.84940322448e-08-j4.37023560641e-07
  -4.13584269703e-08-j4.52860826457e-07
  -4.44435302234e-08-j4.69301432379e-07
  -4.77674895299e-08-j4.86371494636e-07
  -5.13501152943e-08-j5.04098573742e-07
  -5.52130581180e-08-j5.22511781050e-07
  -5.93800085298e-08-j5.41641894643e-07
  -6.38769224363e-08-j5.61521485338e-07
  -6.87322761551e-08-j5.82185053604e-07
  -7.39773555483e-08-j6.03669178228e-07
  -7.96465845556e-08-j6.26012677532e-07
  -8.57778993543e-08-j6.49256783910e-07
  -9.24131754808e-08-j6.73445332387e-07
  -9.95987165763e-08-j6.98624963716e-07
  -1.07385815005e-07-j7.24845342349e-07
  -1.15831396505e-07-j7.52159389189e-07
  -1.24998763320e-07-j7.80623528590e-07
  -1.34958453047e-07-j8.10297948251e-07
  -1.45789233760e-07-j8.41246869625e-07
  -1.57579260034e-07-j8.73538824977e-07
  -1.70427419408e-07-j9.07246935149e-07
  -1.84444904760e-07-j9.42449179227e-07
  -1.99757055330e-07-j9.79228643393e-07
  -2.16505517895e-07-j1.01767373080e-06
  -2.34850790275e-07-j1.05787830687e-06
  -2.54975222291e-07-j1.09994174423e-06
  -2.77086564917e-07-j1.14396881741e-06
  -3.01422177198e-07-j1.19006937807e-06
  -3.28254022995e-07-j1.23835771511e-06
  -3.57894616185e-07-j1.28895146715e-06
  -3.90704103880e-07-j1.34196990430e-06
  -4.27098712207e-07-j1.39753132620e-06
  -4.67560817293e-07-j1.45574922620e-06
  -5.12650942444e-07-j1.51672673730e-06
  -5.63022015587e-07-j1.58054868920e-06
  -6.19436238048e-07-j1.64727034786e-06
  -6.82784897208e-07-j1.71690155299e-06
  -7.54111367091e-07-j1.78938448019e-06
  -8.34637323414e-07-j1.86456258889e-06
  -9.25791753156e-07-j1.94213742598e-06
  -1.02924149775e-06-j2.02160878943e-06
  -1.14692056478e-06-j2.10219229537e-06
  -1.28105285134e-06-j2.18270669377e-06
  -1.43415860038e-06-j2.26142159556e-06
  -1.60902794754e-06-j2.33585527684e-06
  -1.80863416935e-06-j2.40251341236e-06
  -2.03594366285e-06-j2.45656596480e-06
  -2.29355932966e-06-j2.49147647995e-06
  -2.58311256940e-06-j2.49863448549e-06
  -2.90430878542e-06-j2.46710895432e-06
  -3.25356085241e-06-j2.38374690642e-06
  -3.62226589655e-06-j2.23397274665e-06
  -3.99505626107e-06-j2.00372991803e-06
  -4.34879855863e-06-j1.68287905864e-06
  -4.65354969385e-06-j1.26979188284e-06
  -4.87661626372e-06-j7.75789871694e-07
  -4.98970463655e-06-j2.27000445687e-07
  -4.97699018228e-06+j3.38640831731e-07
  -4.84030294524e-06+j8.79281389464e-07
  -4.59850466322e-06+j1.35883190308e-06
  -4.28142495068e-06+j1.75404134586e-06
  -3.92169781012e-06+j2.05642889894e-06
  -3.54812744000e-06+j2.26970074935e-06
  -3.18229965260e-06+j2.40511292756e-06
  -2.83812018809e-06+j2.47704760228e-06
  -2.52304966081e-06+j2.49990975796e-06
  -2.23989313914e-06+j2.48644636339e-06
  -1.98846746579e-06+j2.44712026328e-06
  -1.76688469697e-06+j2.39010418929e-06
  -1.57243072306e-06+j2.32156523652e-06
  -1.40211578797e-06+j2.24603979526e-06
  -1.25299191205e-06+j2.16679731404e-06
  -1.12231806962e-06+j2.08615150996e-06
  -1.00763211765e-06+j2.00570937258e-06
  -9.06768940014e-07+j1.92656263109e-06
  -8.17849704544e-07+j1.84943135668e-06
  -7.39257229877e-07+j1.77476994634e-06
  -6.69606105334e-07+j1.70284451566e-06
  -6.07712292414e-07+j1.63378900758e-06
  -5.52564603975e-07+j1.56764566067e-06
  -5.03299112640e-07+j1.50439407795e-06
  -4.59176794781e-07+j1.44397202878e-06
  -4.19564326062e-07+j1.38629027412e-06
  -3.83917758984e-07+j1.33124307897e-06
  -3.51768742029e-07+j1.27871561649e-06
  -3.22712930650e-07+j1.22858913432e-06
  -2.96400261775e-07+j1.18074451166e-06
  -2.72526798252e-07+j1.13506466152e-06
  -2.50827888322e-07+j1.09143610608e-06
  -2.31072422797e-07+j1.04974996258e-06
  -2.13058006869e-07+j1.00990251153e-06
  -1.96606893548e-07+j9.71795471126e-07
  -1.81562551435e-07+j9.35336068008e-07
  -1.67786761292e-07+j9.00436968900e-07
  -1.55157153983e-07+j8.67016120018e-07
  -1.43565117453e-07+j8.34996527691e-07
  -1.32914012846e-07+j8.04306004130e-07
  -1.23117650140e-07+j7.74876895277e-07
  -1.14098982121e-07+j7.46645802592e-07
  -1.05788982486e-07+j7.19553306915e-07
  -9.81256796037e-08+j6.93543699888e-07
  -9.10533221636e-08+j6.68564726477e-07
  -8.45216568761e-08+j6.44567340721e-07
  -7.84853015791e-08+j6.21505475885e-07
  -7.29031997945e-08+j5.99335829458e-07
  -6.77381449796e-08+j5.78017662972e-07
  -6.29563645668e-08+j5.57512616278e-07
  -5.85271554088e-08+j5.37784535711e-07
  -5.44225635338e-08+j5.18799315428e-07
  -5.06171021780e-08+j5.00524751144e-07
  -4.70875029637e-08+j4.82930405442e-07
  -4.38124958450e-08+j4.65987483842e-07
  -4.07726140745e-08+j4.49668720826e-07
  -3.79500209850e-08+j4.33948275045e-07
  -3.53283558275e-08+j4.18801632971e-07
  -3.28925962966e-08+j4.04205520305e-07
  -3.06289356951e-08+j3.90137820488e-07
  -2.85246729720e-08+j3.76577499728e-07
  -2.65681141010e-08+j3.63504537969e-07
  -2.47484834713e-08+j3.50899865304e-07
  -2.30558441353e-08+j3.38745303361e-07
  -2.14810259059e-08+j3.27023511220e-07
  -2.00155604249e-08+j3.15717935482e-07
  -1.86516224329e-08+j3.04812764122e-07
  -1.73819765676e-08+j2.94292883799e-07
  -1.61999290984e-08+j2.84143840327e-07
  -1.50992840773e-08+j2.74351802031e-07
  -1.40743034463e-08+j2.64903525742e-07
  -1.31196706979e-08+j2.55786325212e-07
  -1.22304577291e-08+j2.46988041734e-07
  -1.14020945720e-08+j2.38497016787e-07
  -1.06303417192e-08+j2.30302066538e-07
  -9.91126479374e-09+j2.22392458044e-07
  -9.24121133927e-09+j2.14757887020e-07
  -8.61678953271e-09+j2.07388457031e-07
  -8.03484864038e-09+j2.00274660019e-07
  -7.49246105860e-09+j1.93407358031e-07
  -6.98690579585e-09+j1.86777766075e-07
  -6.51565326803e-09+j1.80377436000e-07
  -6.07635129155e-09+j1.74198241334e-07
  -5.66681216997e-09+j1.68232363003e-07
  -5.28500078060e-09+j1.62472275858e-07
  -4.92902357608e-09+j1.56910735963e-07
  -4.59711842423e-09+j1.51540768580e-07
  -4.28764521675e-09+j1.46355656801e-07
  -3.99907718346e-09+j1.41348930788e-07
  -3.72999285498e-09+j1.36514357571e-07
  -3.47906862148e-09+j1.31845931371e-07
  -3.24507184023e-09+j1.27337864411e-07
  -3.02685444837e-09+j1.22984578180e-07
  -2.82334704155e-09+j1.18780695131e-07
  -2.63355338221e-09+j1.14721030766e-07
