<Qucs Dataset 0.0.18>
<indep time 300>
  +0.00000000000e+00
  +3.34448160535e-06
  +6.68896321070e-06
  +1.00334448161e-05
  +1.33779264214e-05
  +1.67224080268e-05
  +2.00668896321e-05
  +2.34113712375e-05
  +2.67558528428e-05
  +3.01003344482e-05
  +3.34448160535e-05
  +3.67892976589e-05
  +4.01337792642e-05
  +4.34782608696e-05
  +4.68227424749e-05
  +5.01672240803e-05
  +5.35117056856e-05
  +5.68561872910e-05
  +6.02006688963e-05
  +6.35451505017e-05
  +6.68896321070e-05
  +7.02341137124e-05
  +7.35785953177e-05
  +7.69230769231e-05
  +8.02675585284e-05
  +8.36120401338e-05
  +8.69565217391e-05
  +9.03010033445e-05
  +9.36454849498e-05
  +9.69899665552e-05
  +1.00334448161e-04
  +1.03678929766e-04
  +1.07023411371e-04
  +1.10367892977e-04
  +1.13712374582e-04
  +1.17056856187e-04
  +1.20401337793e-04
  +1.23745819398e-04
  +1.27090301003e-04
  +1.30434782609e-04
  +1.33779264214e-04
  +1.37123745819e-04
  +1.40468227425e-04
  +1.43812709030e-04
  +1.47157190635e-04
  +1.50501672241e-04
  +1.53846153846e-04
  +1.57190635452e-04
  +1.60535117057e-04
  +1.63879598662e-04
  +1.67224080268e-04
  +1.70568561873e-04
  +1.73913043478e-04
  +1.77257525084e-04
  +1.80602006689e-04
  +1.83946488294e-04
  +1.87290969900e-04
  +1.90635451505e-04
  +1.93979933110e-04
  +1.97324414716e-04
  +2.00668896321e-04
  +2.04013377926e-04
  +2.07357859532e-04
  +2.10702341137e-04
  +2.14046822742e-04
  +2.17391304348e-04
  +2.20735785953e-04
  +2.24080267559e-04
  +2.27424749164e-04
  +2.30769230769e-04
  +2.34113712375e-04
  +2.37458193980e-04
  +2.40802675585e-04
  +2.44147157191e-04
  +2.47491638796e-04
  +2.50836120401e-04
  +2.54180602007e-04
  +2.57525083612e-04
  +2.60869565217e-04
  +2.64214046823e-04
  +2.67558528428e-04
  +2.70903010033e-04
  +2.74247491639e-04
  +2.77591973244e-04
  +2.80936454849e-04
  +2.84280936455e-04
  +2.87625418060e-04
  +2.90969899666e-04
  +2.94314381271e-04
  +2.97658862876e-04
  +3.01003344482e-04
  +3.04347826087e-04
  +3.07692307692e-04
  +3.11036789298e-04
  +3.14381270903e-04
  +3.17725752508e-04
  +3.21070234114e-04
  +3.24414715719e-04
  +3.27759197324e-04
  +3.31103678930e-04
  +3.34448160535e-04
  +3.37792642140e-04
  +3.41137123746e-04
  +3.44481605351e-04
  +3.47826086957e-04
  +3.51170568562e-04
  +3.54515050167e-04
  +3.57859531773e-04
  +3.61204013378e-04
  +3.64548494983e-04
  +3.67892976589e-04
  +3.71237458194e-04
  +3.74581939799e-04
  +3.77926421405e-04
  +3.81270903010e-04
  +3.84615384615e-04
  +3.87959866221e-04
  +3.91304347826e-04
  +3.94648829431e-04
  +3.97993311037e-04
  +4.01337792642e-04
  +4.04682274247e-04
  +4.08026755853e-04
  +4.11371237458e-04
  +4.14715719064e-04
  +4.18060200669e-04
  +4.21404682274e-04
  +4.24749163880e-04
  +4.28093645485e-04
  +4.31438127090e-04
  +4.34782608696e-04
  +4.38127090301e-04
  +4.41471571906e-04
  +4.44816053512e-04
  +4.48160535117e-04
  +4.51505016722e-04
  +4.54849498328e-04
  +4.58193979933e-04
  +4.61538461538e-04
  +4.64882943144e-04
  +4.68227424749e-04
  +4.71571906355e-04
  +4.74916387960e-04
  +4.78260869565e-04
  +4.81605351171e-04
  +4.84949832776e-04
  +4.88294314381e-04
  +4.91638795987e-04
  +4.94983277592e-04
  +4.98327759197e-04
  +5.01672240803e-04
  +5.05016722408e-04
  +5.08361204013e-04
  +5.11705685619e-04
  +5.15050167224e-04
  +5.18394648829e-04
  +5.21739130435e-04
  +5.25083612040e-04
  +5.28428093645e-04
  +5.31772575251e-04
  +5.35117056856e-04
  +5.38461538462e-04
  +5.41806020067e-04
  +5.45150501672e-04
  +5.48494983278e-04
  +5.51839464883e-04
  +5.55183946488e-04
  +5.58528428094e-04
  +5.61872909699e-04
  +5.65217391304e-04
  +5.68561872910e-04
  +5.71906354515e-04
  +5.75250836120e-04
  +5.78595317726e-04
  +5.81939799331e-04
  +5.85284280936e-04
  +5.88628762542e-04
  +5.91973244147e-04
  +5.95317725753e-04
  +5.98662207358e-04
  +6.02006688963e-04
  +6.05351170569e-04
  +6.08695652174e-04
  +6.12040133779e-04
  +6.15384615385e-04
  +6.18729096990e-04
  +6.22073578595e-04
  +6.25418060201e-04
  +6.28762541806e-04
  +6.32107023411e-04
  +6.35451505017e-04
  +6.38795986622e-04
  +6.42140468227e-04
  +6.45484949833e-04
  +6.48829431438e-04
  +6.52173913043e-04
  +6.55518394649e-04
  +6.58862876254e-04
  +6.62207357860e-04
  +6.65551839465e-04
  +6.68896321070e-04
  +6.72240802676e-04
  +6.75585284281e-04
  +6.78929765886e-04
  +6.82274247492e-04
  +6.85618729097e-04
  +6.88963210702e-04
  +6.92307692308e-04
  +6.95652173913e-04
  +6.98996655518e-04
  +7.02341137124e-04
  +7.05685618729e-04
  +7.09030100334e-04
  +7.12374581940e-04
  +7.15719063545e-04
  +7.19063545151e-04
  +7.22408026756e-04
  +7.25752508361e-04
  +7.29096989967e-04
  +7.32441471572e-04
  +7.35785953177e-04
  +7.39130434783e-04
  +7.42474916388e-04
  +7.45819397993e-04
  +7.49163879599e-04
  +7.52508361204e-04
  +7.55852842809e-04
  +7.59197324415e-04
  +7.62541806020e-04
  +7.65886287625e-04
  +7.69230769231e-04
  +7.72575250836e-04
  +7.75919732441e-04
  +7.79264214047e-04
  +7.82608695652e-04
  +7.85953177258e-04
  +7.89297658863e-04
  +7.92642140468e-04
  +7.95986622074e-04
  +7.99331103679e-04
  +8.02675585284e-04
  +8.06020066890e-04
  +8.09364548495e-04
  +8.12709030100e-04
  +8.16053511706e-04
  +8.19397993311e-04
  +8.22742474916e-04
  +8.26086956522e-04
  +8.29431438127e-04
  +8.32775919732e-04
  +8.36120401338e-04
  +8.39464882943e-04
  +8.42809364548e-04
  +8.46153846154e-04
  +8.49498327759e-04
  +8.52842809365e-04
  +8.56187290970e-04
  +8.59531772575e-04
  +8.62876254181e-04
  +8.66220735786e-04
  +8.69565217391e-04
  +8.72909698997e-04
  +8.76254180602e-04
  +8.79598662207e-04
  +8.82943143813e-04
  +8.86287625418e-04
  +8.89632107023e-04
  +8.92976588629e-04
  +8.96321070234e-04
  +8.99665551839e-04
  +9.03010033445e-04
  +9.06354515050e-04
  +9.09698996656e-04
  +9.13043478261e-04
  +9.16387959866e-04
  +9.19732441472e-04
  +9.23076923077e-04
  +9.26421404682e-04
  +9.29765886288e-04
  +9.33110367893e-04
  +9.36454849498e-04
  +9.39799331104e-04
  +9.43143812709e-04
  +9.46488294314e-04
  +9.49832775920e-04
  +9.53177257525e-04
  +9.56521739130e-04
  +9.59866220736e-04
  +9.63210702341e-04
  +9.66555183946e-04
  +9.69899665552e-04
  +9.73244147157e-04
  +9.76588628763e-04
  +9.79933110368e-04
  +9.83277591973e-04
  +9.86622073579e-04
  +9.89966555184e-04
  +9.93311036789e-04
  +9.96655518395e-04
  +1.00000000000e-03
</indep>
<dep Output time>
  +1.77635683940e-15
  +5.82071758956e-01
  +6.08247812555e-01
  +6.14031239599e-01
  +6.19341284568e-01
  +6.24743882784e-01
  +6.30332399402e-01
  +6.36152543331e-01
  +6.42224954834e-01
  +6.48549816550e-01
  +6.55108298113e-01
  +6.61862035649e-01
  +6.68737245812e-01
  +6.75090991511e-01
  +6.53770510215e-01
  -6.97284680102e-02
  -6.74408674643e-01
  -6.98583612186e-01
  -7.03701890973e-01
  -7.08455266025e-01
  -7.13322074560e-01
  -7.18367415674e-01
  -7.23624816217e-01
  -7.29109349357e-01
  -7.34819055215e-01
  -7.40735469800e-01
  -7.46823327200e-01
  -7.53011839030e-01
  -7.58475232484e-01
  -7.26258204446e-01
  +1.54719519043e-01
  +7.57003482565e-01
  +7.78519034150e-01
  +7.82553731533e-01
  +7.86262444137e-01
  +7.90075273588e-01
  +7.94047631402e-01
  +7.98208520747e-01
  +8.02570715300e-01
  +8.07131259759e-01
  +8.11871711807e-01
  +8.16757758189e-01
  +8.21715369923e-01
  +8.25682485814e-01
  +7.79840561999e-01
  -2.47721832637e-01
  -8.22299311509e-01
  -8.40411892665e-01
  -8.42938898833e-01
  -8.45170594405e-01
  -8.47493475772e-01
  -8.49958614038e-01
  -8.52593118109e-01
  -8.55408743920e-01
  -8.58402066823e-01
  -8.61554615960e-01
  -8.64832306977e-01
  -8.68155397920e-01
  -8.70186849637e-01
  -8.08566557861e-01
  +3.39082573414e-01
  +8.64087809701e-01
  +8.78247461840e-01
  +8.78956771566e-01
  +8.79408791002e-01
  +8.79944768639e-01
  +8.80613317688e-01
  +8.81440743888e-01
  +8.82438360961e-01
  +8.83602515065e-01
  +8.84914665563e-01
  +8.86340587548e-01
  +8.87793582459e-01
  +8.87636438093e-01
  +8.08934706206e-01
  -4.18613825798e-01
  -8.78358556034e-01
  -8.88328490227e-01
  -8.87076927361e-01
  -8.85616322351e-01
  -8.84241827042e-01
  -8.83000433253e-01
  -8.81918155702e-01
  -8.81006114324e-01
  -8.80260471781e-01
  -8.79662466727e-01
  -8.79177343881e-01
  -8.78710699368e-01
  -8.76316785721e-01
  -7.80370110178e-01
  +4.77652212249e-01
  +8.63787674636e-01
  +8.69666408863e-01
  +8.66499644613e-01
  +8.63180692880e-01
  +8.59960174566e-01
  +8.56883998034e-01
  +8.53978149387e-01
  +8.51253604991e-01
  +8.48706200959e-01
  +8.46316586211e-01
  +8.44048795581e-01
  +8.41799967122e-01
  +8.37327082910e-01
  +7.25301465057e-01
  -5.10721855478e-01
  -8.21888577807e-01
  -8.24084708987e-01
  -8.19237514352e-01
  -8.14299407034e-01
  -8.09480747998e-01
  -8.04826986978e-01
  -8.00364273164e-01
  -7.96103340557e-01
  -7.92039304209e-01
  -7.88151422785e-01
  -7.84401055511e-01
  -7.80674999361e-01
  -7.74462339415e-01
  -6.48789559804e-01
  +5.16057613448e-01
  +7.56850294479e-01
  +7.56033919731e-01
  +7.49913682295e-01
  +7.43760918629e-01
  +7.37753214970e-01
  +7.31936827143e-01
  +7.26338422120e-01
  +7.20968258684e-01
  +7.15819868751e-01
  +7.10869278170e-01
  +7.06071408363e-01
  +7.01295701764e-01
  +6.93795812970e-01
  +5.57642428849e-01
  -4.95740040407e-01
  -6.75068101718e-01
  -6.72128879114e-01
  -6.65292689530e-01
  -6.58464025140e-01
  -6.51801767920e-01
  -6.45356566488e-01
  -6.39156750157e-01
  -6.33211718346e-01
  -6.27511362121e-01
  -6.22023466399e-01
  -6.16684662810e-01
  -6.11318235229e-01
  -6.02927785301e-01
  -4.60358116507e-01
  +4.55549746435e-01
  +5.84362143127e-01
  +5.80416880465e-01
  +5.73572172569e-01
  +5.66713728564e-01
  +5.60016401577e-01
  +5.53547538328e-01
  +5.47341329028e-01
  +5.41405723640e-01
  +5.35721123890e-01
  +5.30231014936e-01
  +5.24814015353e-01
  +5.19187278040e-01
  +5.10323127938e-01
  +3.66500272016e-01
  -4.03986116235e-01
  -4.93511490705e-01
  -4.89520368499e-01
  -4.83485210418e-01
  -4.77344817636e-01
  -4.71288408801e-01
  -4.65426578862e-01
  -4.59812381126e-01
  -4.54451777323e-01
  -4.49300814458e-01
  -4.44248770551e-01
  -4.39137024793e-01
  -4.33859459979e-01
  -4.25592066199e-01
  -2.83922949739e-01
  +3.50820306782e-01
  +4.12133136255e-01
  +4.08583176024e-01
  +4.03756694805e-01
  +3.98929581822e-01
  +3.94151406431e-01
  +3.89495026978e-01
  +3.85020932590e-01
  +3.80734630850e-01
  +3.76582915204e-01
  +3.72492848866e-01
  +3.68443124672e-01
  +3.64394645284e-01
  +3.57383750376e-01
  +2.17916099997e-01
  -3.05743500836e-01
  -3.48600729466e-01
  -3.46098953903e-01
  -3.42773974163e-01
  -3.39526637173e-01
  -3.36378222832e-01
  -3.33346550386e-01
  -3.30457142058e-01
  -3.27714736887e-01
  -3.25098544637e-01
  -3.22589643980e-01
  -3.20186484971e-01
  -3.17825568304e-01
  -3.12332403959e-01
  -1.70432663124e-01
  +2.77145711590e-01
  +3.09286406183e-01
  +3.08323880149e-01
  +3.06806849116e-01
  +3.05396224328e-01
  +3.04107489613e-01
  +3.02947257148e-01
  +3.01927279042e-01
  +3.01050929739e-01
  +3.00308941609e-01
  +2.99692589876e-01
  +2.99199310607e-01
  +2.98751207287e-01
  +2.94691653568e-01
  +1.39690238570e-01
  -2.71129600888e-01
  -2.98137378379e-01
  -2.98989818442e-01
  -2.99430941853e-01
  -2.99985258515e-01
  -3.00663875800e-01
  -3.01471545278e-01
  -3.02419166879e-01
  -3.03510567940e-01
  -3.04736410852e-01
  -3.06086448943e-01
  -3.07555969258e-01
  -3.09046351363e-01
  -3.05923206121e-01
  -1.20427652727e-01
  +2.90858386355e-01
  +3.16306639014e-01
  +3.19018285421e-01
  +3.21374830104e-01
  +3.23831059648e-01
  +3.26392471988e-01
  +3.29068497917e-01
  +3.31883019403e-01
  +3.34846036688e-01
  +3.37939408470e-01
  +3.41138341149e-01
  +3.44431836891e-01
  +3.47688307392e-01
  +3.44534647642e-01
  +1.04874090621e-01
  -3.36279576408e-01
  -3.62042496496e-01
  -3.66433944096e-01
  -3.70461916193e-01
  -3.74533240683e-01
  -3.78646935515e-01
  -3.82856425248e-01
  -3.87233374438e-01
  -3.91803178625e-01
  -3.96530374978e-01
  -4.01340070563e-01
  -4.06176475698e-01
  -4.10855325397e-01
  -4.06210591993e-01
  -8.43230902181e-02
  +4.04221267302e-01
  +4.30859536905e-01
  +4.36530212083e-01
  +4.41708459469e-01
  +4.46772306267e-01
  +4.51855212644e-01
  +4.57101808803e-01
  +4.62587097239e-01
  +4.68328674478e-01
  +4.74297690030e-01
  +4.80413980355e-01
  +4.86534352825e-01
  +4.92261619404e-01
  +4.84223895070e-01
  +5.10276786341e-02
  -4.88816395190e-01
  -5.15907743414e-01
  -5.22059554209e-01
  -5.27525022585e-01
  -5.32957279206e-01
  -5.38534522227e-01
  -5.44340222239e-01
  -5.50410503983e-01
  -5.56750634397e-01
  -5.63339762461e-01
  -5.70128908130e-01
  -5.77021401207e-01
  -5.83474972540e-01
  -5.70015172341e-01
  -2.30926389122e-14
</dep>
<dep V2.It time>
  -4.00000000189e-04
  -4.04202490416e-04
  -4.08403124940e-04
  -4.12600048882e-04
  -4.16791408996e-04
  -4.20975354497e-04
  -4.25150037871e-04
  -4.29313615698e-04
  -4.33464249456e-04
  -4.37600106344e-04
  -4.41719360084e-04
  -4.45820191729e-04
  -4.49900790467e-04
  -4.53959354421e-04
  -4.57994091443e-04
  -4.62003219907e-04
  -4.65984969495e-04
  -4.69937581978e-04
  -4.73859311994e-04
  -4.77748427816e-04
  -4.81603212122e-04
  -4.85421962747e-04
  -4.89202993438e-04
  -4.92944634598e-04
  -4.96645234024e-04
  -5.00303157635e-04
  -5.03916790195e-04
  -5.07484536027e-04
  -5.11004819713e-04
  -5.14476086796e-04
  -5.17896804463e-04
  -5.21265462218e-04
  -5.24580572560e-04
  -5.27840671628e-04
  -5.31044319854e-04
  -5.34190102598e-04
  -5.37276630771e-04
  -5.40302541447e-04
  -5.43266498471e-04
  -5.46167193043e-04
  -5.49003344297e-04
  -5.51773699869e-04
  -5.54477036447e-04
  -5.57112160315e-04
  -5.59677907877e-04
  -5.62173146171e-04
  -5.64596773365e-04
  -5.66947719260e-04
  -5.69224945742e-04
  -5.71427447252e-04
  -5.73554251227e-04
  -5.75604418531e-04
  -5.77577043867e-04
  -5.79471256179e-04
  -5.81286219037e-04
  -5.83021131005e-04
  -5.84675225993e-04
  -5.86247773600e-04
  -5.87738079434e-04
  -5.89145485417e-04
  -5.90469370080e-04
  -5.91709148827e-04
  -5.92864274214e-04
  -5.93934236166e-04
  -5.94918562219e-04
  -5.95816817722e-04
  -5.96628606031e-04
  -5.97353568684e-04
  -5.97991385556e-04
  -5.98541775005e-04
  -5.99004493997e-04
  -5.99379338206e-04
  -5.99666142112e-04
  -5.99864779070e-04
  -5.99975161370e-04
  -5.99997240269e-04
  -5.99931006012e-04
  -5.99776487855e-04
  -5.99533754024e-04
  -5.99202911704e-04
  -5.98784106987e-04
  -5.98277524804e-04
  -5.97683388848e-04
  -5.97001961473e-04
  -5.96233543577e-04
  -5.95378474473e-04
  -5.94437131734e-04
  -5.93409931032e-04
  -5.92297325949e-04
  -5.91099807781e-04
  -5.89817905319e-04
  -5.88452184609e-04
  -5.87003248723e-04
  -5.85471737466e-04
  -5.83858327112e-04
  -5.82163730095e-04
  -5.80388694704e-04
  -5.78534004744e-04
  -5.76600479193e-04
  -5.74588971842e-04
  -5.72500370916e-04
  -5.70335598682e-04
  -5.68095611043e-04
  -5.65781397115e-04
  -5.63393978789e-04
  -5.60934410283e-04
  -5.58403777668e-04
  -5.55803198407e-04
  -5.53133820839e-04
  -5.50396823687e-04
  -5.47593415532e-04
  -5.44724834279e-04
  -5.41792346614e-04
  -5.38797247440e-04
  -5.35740859309e-04
  -5.32624531836e-04
  -5.29449641103e-04
  -5.26217589053e-04
  -5.22929802869e-04
  -5.19587734345e-04
  -5.16192859244e-04
  -5.12746676646e-04
  -5.09250708291e-04
  -5.05706497899e-04
  -5.02115610493e-04
  -4.98479631708e-04
  -4.94800167091e-04
  -4.91078841388e-04
  -4.87317297833e-04
  -4.83517197417e-04
  -4.79680218158e-04
  -4.75808054358e-04
  -4.71902415856e-04
  -4.67965027270e-04
  -4.63997627242e-04
  -4.60001967664e-04
  -4.55979812906e-04
  -4.51932939039e-04
  -4.47863133047e-04
  -4.43772192044e-04
  -4.39661922473e-04
  -4.35534139314e-04
  -4.31390665279e-04
  -4.27233330010e-04
  -4.23063969269e-04
  -4.18884424129e-04
  -4.14696540159e-04
  -4.10502166610e-04
  -4.06303155600e-04
  -4.02101361293e-04
  -3.97898639086e-04
  -3.93696844781e-04
  -3.89497833772e-04
  -3.85303460224e-04
  -3.81115576254e-04
  -3.76936031114e-04
  -3.72766670373e-04
  -3.68609335104e-04
  -3.64465861069e-04
  -3.60338077910e-04
  -3.56227808338e-04
  -3.52136867335e-04
  -3.48067061343e-04
  -3.44020187474e-04
  -3.39998032715e-04
  -3.36002373137e-04
  -3.32034973110e-04
  -3.28097584526e-04
  -3.24191946024e-04
  -3.20319782224e-04
  -3.16482802965e-04
  -3.12682702550e-04
  -3.08921158995e-04
  -3.05199833292e-04
  -3.01520368674e-04
  -2.97884389889e-04
  -2.94293502482e-04
  -2.90749292089e-04
  -2.87253323733e-04
  -2.83807141135e-04
  -2.80412266034e-04
  -2.77070197511e-04
  -2.73782411327e-04
  -2.70550359278e-04
  -2.67375468546e-04
  -2.64259141073e-04
  -2.61202752942e-04
  -2.58207653769e-04
  -2.55275166103e-04
  -2.52406584850e-04
  -2.49603176694e-04
  -2.46866179541e-04
  -2.44196801972e-04
  -2.41596222710e-04
  -2.39065590096e-04
  -2.36606021589e-04
  -2.34218603264e-04
  -2.31904389336e-04
  -2.29664401698e-04
  -2.27499629465e-04
  -2.25411028540e-04
  -2.23399521189e-04
  -2.21465995638e-04
  -2.19611305677e-04
  -2.17836270286e-04
  -2.16141673269e-04
  -2.14528262914e-04
  -2.12996751656e-04
  -2.11547815768e-04
  -2.10182095060e-04
  -2.08900192597e-04
  -2.07702674429e-04
  -2.06590069347e-04
  -2.05562868646e-04
  -2.04621525908e-04
  -2.03766456804e-04
  -2.02998038909e-04
  -2.02316611533e-04
  -2.01722475577e-04
  -2.01215893394e-04
  -2.00797088676e-04
  -2.00466246356e-04
  -2.00223512524e-04
  -2.00068994365e-04
  -2.00002760110e-04
  -2.00024839008e-04
  -2.00135221308e-04
  -2.00333858267e-04
  -2.00620662174e-04
  -2.00995506384e-04
  -2.01458225376e-04
  -2.02008614826e-04
  -2.02646431698e-04
  -2.03371394350e-04
  -2.04183182659e-04
  -2.05081438161e-04
  -2.06065764214e-04
  -2.07135726165e-04
  -2.08290851550e-04
  -2.09530630299e-04
  -2.10854514961e-04
  -2.12261920945e-04
  -2.13752226779e-04
  -2.15324774387e-04
  -2.16978869376e-04
  -2.18713781344e-04
  -2.20528744203e-04
  -2.22422956515e-04
  -2.24395581851e-04
  -2.26445749154e-04
  -2.28572553129e-04
  -2.30775054638e-04
  -2.33052281119e-04
  -2.35403227013e-04
  -2.37826854208e-04
  -2.40322092501e-04
  -2.42887840064e-04
  -2.45522963933e-04
  -2.48226300512e-04
  -2.50996656085e-04
  -2.53832807339e-04
  -2.56733501911e-04
  -2.59697458935e-04
  -2.62723369612e-04
  -2.65809897784e-04
  -2.68955680527e-04
  -2.72159328753e-04
  -2.75419427820e-04
  -2.78734538161e-04
  -2.82103195916e-04
  -2.85523913583e-04
  -2.88995180667e-04
  -2.92515464354e-04
  -2.96083210186e-04
  -2.99696842748e-04
  -3.03354766359e-04
  -3.07055365785e-04
  -3.10797006945e-04
  -3.14578037636e-04
  -3.18396788260e-04
  -3.22251572566e-04
  -3.26140688388e-04
  -3.30062418403e-04
  -3.34015030885e-04
  -3.37996780472e-04
  -3.42005908937e-04
  -3.46040645960e-04
  -3.50099209915e-04
  -3.54179808653e-04
  -3.58280640299e-04
  -3.62399894039e-04
  -3.66535750927e-04
  -3.70686384686e-04
  -3.74849962511e-04
  -3.79024645886e-04
  -3.83208591387e-04
  -3.87399951500e-04
  -3.91596875441e-04
  -3.95797509964e-04
  -4.00000000189e-04
</dep>
<dep LO.It time>
  +4.06083546575e-19
  -1.54753718131e-06
  -2.31818703877e-06
  -3.09122684968e-06
  -3.80996606382e-06
  -4.40802050235e-06
  -4.84387096478e-06
  -5.09224126837e-06
  -5.14065397871e-06
  -4.98825299418e-06
  -4.64531511155e-06
  -4.13301581625e-06
  -3.48352318638e-06
  -2.73866234337e-06
  -1.84449737482e-06
  +1.42446993887e-07
  +2.03546585811e-06
  +3.00346207516e-06
  +3.85168692720e-06
  +4.60103447643e-06
  +5.20861839900e-06
  +5.64250845384e-06
  +5.88178844500e-06
  +5.91615835073e-06
  +5.74580828792e-06
  +5.38122115576e-06
  +4.84279311278e-06
  +4.16022283772e-06
  +3.36803945731e-06
  +2.31987353922e-06
  -3.10345631459e-07
  -2.68736570454e-06
  -3.71355290627e-06
  -4.57943740356e-06
  -5.33028875347e-06
  -5.93017646683e-06
  -6.35054342810e-06
  -6.57236010473e-06
  -6.58649728662e-06
  -6.39389030482e-06
  -6.00542250279e-06
  -5.44149436477e-06
  -4.73117692363e-06
  -3.90573919502e-06
  -2.73373162167e-06
  +4.91947372744e-07
