<Qucs Dataset 0.0.20>
<indep Rmeasure 100>
  +1.00000000000000000000e+01
  +2.00000000000000000000e+01
  +3.00000000000000000000e+01
  +4.00000000000000000000e+01
  +5.00000000000000000000e+01
  +6.00000000000000000000e+01
  +7.00000000000000000000e+01
  +8.00000000000000000000e+01
  +9.00000000000000000000e+01
  +1.00000000000000000000e+02
  +1.10000000000000000000e+02
  +1.20000000000000000000e+02
  +1.30000000000000000000e+02
  +1.40000000000000000000e+02
  +1.50000000000000000000e+02
  +1.60000000000000000000e+02
  +1.70000000000000000000e+02
  +1.80000000000000000000e+02
  +1.90000000000000000000e+02
  +2.00000000000000000000e+02
  +2.10000000000000000000e+02
  +2.20000000000000000000e+02
  +2.30000000000000000000e+02
  +2.40000000000000000000e+02
  +2.50000000000000000000e+02
  +2.60000000000000000000e+02
  +2.70000000000000000000e+02
  +2.80000000000000000000e+02
  +2.90000000000000000000e+02
  +3.00000000000000000000e+02
  +3.10000000000000000000e+02
  +3.20000000000000000000e+02
  +3.30000000000000000000e+02
  +3.40000000000000000000e+02
  +3.50000000000000000000e+02
  +3.60000000000000000000e+02
  +3.70000000000000000000e+02
  +3.80000000000000000000e+02
  +3.90000000000000000000e+02
  +4.00000000000000000000e+02
  +4.10000000000000000000e+02
  +4.20000000000000000000e+02
  +4.30000000000000000000e+02
  +4.40000000000000000000e+02
  +4.50000000000000000000e+02
  +4.60000000000000000000e+02
  +4.70000000000000000000e+02
  +4.80000000000000000000e+02
  +4.90000000000000000000e+02
  +5.00000000000000000000e+02
  +5.10000000000000000000e+02
  +5.20000000000000000000e+02
  +5.30000000000000000000e+02
  +5.40000000000000000000e+02
  +5.50000000000000000000e+02
  +5.60000000000000000000e+02
  +5.70000000000000000000e+02
  +5.80000000000000000000e+02
  +5.90000000000000000000e+02
  +6.00000000000000000000e+02
  +6.10000000000000000000e+02
  +6.20000000000000000000e+02
  +6.30000000000000000000e+02
  +6.40000000000000000000e+02
  +6.50000000000000000000e+02
  +6.60000000000000000000e+02
  +6.70000000000000000000e+02
  +6.80000000000000000000e+02
  +6.90000000000000000000e+02
  +7.00000000000000000000e+02
  +7.10000000000000000000e+02
  +7.20000000000000000000e+02
  +7.30000000000000000000e+02
  +7.40000000000000000000e+02
  +7.50000000000000000000e+02
  +7.60000000000000000000e+02
  +7.70000000000000000000e+02
  +7.80000000000000000000e+02
  +7.90000000000000000000e+02
  +8.00000000000000000000e+02
  +8.10000000000000000000e+02
  +8.20000000000000000000e+02
  +8.30000000000000000000e+02
  +8.40000000000000000000e+02
  +8.50000000000000000000e+02
  +8.60000000000000000000e+02
  +8.70000000000000000000e+02
  +8.80000000000000000000e+02
  +8.90000000000000000000e+02
  +9.00000000000000000000e+02
  +9.10000000000000000000e+02
  +9.20000000000000000000e+02
  +9.30000000000000000000e+02
  +9.40000000000000000000e+02
  +9.50000000000000000000e+02
  +9.60000000000000000000e+02
  +9.70000000000000000000e+02
  +9.80000000000000000000e+02
  +9.90000000000000000000e+02
  +1.00000000000000000000e+03
</indep>
<indep Rbranch 4>
  +2.00000000000000000000e+02
  +4.66666666666666685614e+02
  +7.33333333333333371229e+02
  +1.00000000000000000000e+03
</indep>
<dep Umeasure Rmeasure Rbranch>
  +1.83818932099537342140e+01
  +1.66589541878759810345e+01
  +1.51759767516951900035e+01
  +1.38860937814449574290e+01
  +1.27538970240906923692e+01
  +1.17521367521367530173e+01
  +1.08594999579089179775e+01
  +1.00590771195912491720e+01
  +9.33728080163971618788e+00
  +8.68306801736613742548e+00
  +8.08737125872675655103e+00
  +7.54267566494640817609e+00
  +7.04270033627307867619e+00
  +6.58215504631886805242e+00
  +6.15655233069481155894e+00
  +5.76206078409219646375e+00
  +5.39538939451740962028e+00
  +5.05369551484522894214e+00
  +4.73451102173802773621e+00
  +4.43568260226712940408e+00
  +4.15532311219372729738e+00
  +3.89177168272794826720e+00
  +3.64356079348657502237e+00
  +3.40938893259900055455e+00
  +3.18809776833156899301e+00
  +2.97865298692702307193e+00
  +2.78012812764414984912e+00
  +2.59169088196026242699e+00
  +2.41259142955615590864e+00
  +2.24215246636771192712e+00
  +2.07976064509067315456e+00
  +1.92485920011406808072e+00
  +1.77694156998013030879e+00
  +1.63554586343192087661e+00
  +1.50025004167360820340e+00
  +1.37066771098492590220e+00
  +1.24644443734219723119e+00
  +1.12725450901803725401e+00
  +1.01279808489090150658e+00
  +9.02798675895275293257e-01
  +7.97000915075125937470e-01
  +6.95168578380267576655e-01
  +5.97082823917425287163e-01
  +5.02540622033611494857e-01
  +4.11353352529816251870e-01
  +3.23345548609613786528e-01
  +2.38353769962132644444e-01
  +1.56225589751599086563e-01
  +7.68186823035412746918e-02
  +5.19106168629835389831e-15
  +7.43549706297919610343e-02
  +1.46362882373032687777e-01
  +2.16133138013018200052e-01
  +2.83768444948917286652e-01
  +3.49365319669259488666e-01
  +4.13014547290161848636e-01
  +4.74801600759686914799e-01
  +5.34807023798905101231e-01
  +5.93106781187530573973e-01
  +6.49772579597140076402e-01
  +7.04872161821562426276e-01
  +7.58469576942524703611e-01
  +8.10625428696140626350e-01
  +8.61397104064973051507e-01
  +9.10838983908513810661e-01
  +9.59002637257245660329e-01
  +1.00593700072980429816e+00
  +1.05168854438515269045e+00
  +1.09630142519185569405e+00
  +1.13981762917932649692e+00
  +1.18227710323342605214e+00
  +1.22371787740572002257e+00
  +1.26417617852366959141e+00
  +1.30368653581517435214e+00
  +1.34228187919463581856e+00
  +1.37999363079862180648e+00
  +1.41685179030593566551e+00
  +1.45288501452884943888e+00
  +1.48812069171955396740e+00
  +1.52258501099644760757e+00
  +1.55630302726040259387e+00
  +1.58929872193894472510e+00
  +1.62159505986797491950e+00
  +1.65321404259456783414e+00
  +1.68417675836074431928e+00
  +1.71450342900685592795e+00
  +1.74421345401404570552e+00
  +1.77332545188688706084e+00
  +1.80185729906211422602e+00
  +1.82982616651418683595e+00
  +1.85724855421504653208e+00
  +1.88414032359362981772e+00
  +1.91051672812902784138e+00
  +1.93639244220162476395e+00
  +1.96178158831650462091e+00
  +1.98669776280555865355e+00
  +2.01115406010640640488e+00
  +2.03516309570918974003e+00
  +2.05873702785597734177e+00
  +2.08188757807078683726e+00
  +9.93444617152125530879e+00
  +9.24420097577676891376e+00
  +8.61981130153037256036e+00
  +8.05228147975259744840e+00
  +7.53418286671007564337e+00
  +7.05932686822590138576e+00
  +6.62251655629139257542e+00
  +6.21935568791339132844e+00
  +5.84610022338756873950e+00
  +5.49954170485792914747e+00
  +5.17691479476703886320e+00
  +4.87582332981665977911e+00
  +4.59418070444104120753e+00
  +4.33016144552549953062e+00
  +4.08216160176245779212e+00
  +3.84876613085805141523e+00
  +3.62872188351436175680e+00
  +3.42091509478785527065e+00
  +3.22435252920986314962e+00
  +3.03814560594126437110e+00
  +2.86149696856739055306e+00
  +2.69368907131862611593e+00
  +2.53407443713305724486e+00
  +2.38206730867113103400e+00
  +2.23713646532439014436e+00
  +2.09879902056045786196e+00
  +1.96661504698025346727e+00
  +1.84018290302793952051e+00
  +1.71913515676875117144e+00
  +1.60313501959387205709e+00
  +1.49187321694977548248e+00
  +1.38506523486260646472e+00
  +1.28244889063979283783e+00
  +1.18378218407812996205e+00
  +1.08884139210388064534e+00
  +9.97419375267168284438e-01
  +9.09324069108629506886e-01
  +8.24377137274060367567e-01
  +7.42412766499941700893e-01
  +6.63276586336502327335e-01
  +5.86824698799546018435e-01
  +5.12922805117837388167e-01
  +4.41445418427188152055e-01
  +3.72275152701750322581e-01
  +3.05302079446380547623e-01
  +2.40423144734732890937e-01
  +1.77541640090220720349e-01
  +1.16566721496196956664e-01
  +5.74129715040322397002e-02
  +3.88595503983742192605e-15
  +5.57479202928664249739e-02
  +1.09902187053524252880e-01
  +1.62530173425716351066e-01
  +2.13695507645547039255e-01
  +2.63458329674183755476e-01
  +3.11875527011882980322e-01
  +3.59000951637446497067e-01
  +4.04885619812397345996e-01
  +4.49577896308465285724e-01
  +4.93123664456741495066e-01
  +5.35566483275720761625e-01
  +5.76947732809094282480e-01
  +6.17306748692839968307e-01
  +6.56680946871383564023e-01
  +6.95105939294083152724e-01
  +7.32615641343937418206e-01
  +7.69242371679819569863e-01
  +8.05016945109771175915e-01
  +8.39968759056683000885e-01
  +8.74125874125870283571e-01
  +9.07515089238977279429e-01
  +9.40162011756774940174e-01
  +9.72091122976577182158e-01
  +1.00332583935639174655e+00
  +1.03388856978748244764e+00
  +1.06380076920978261512e+00
  +1.09308298883975818505e+00
  +1.12175492325771819502e+00
  +1.14983545458150326901e+00
  +1.17734269393450508012e+00
  +1.20429402039961663817e+00
  +1.23070611763499337954e+00
  +1.25659500831383219577e+00
  +1.28197608653757066932e+00
  +1.30686414836020459163e+00
  +1.33127342055091557604e+00
  +1.35521758771269196231e+00
  +1.37870981786518220780e+00
  +1.40176278659260167281e+00
  +1.42438869984965266191e+00
  +1.44659931551154197216e+00
  +1.46840596374824716719e+00
  +1.48981956629697176453e+00
  +1.51085065470195445414e+00
  +1.53150938758532362272e+00
  +1.55180556700876004506e+00
  +1.57174865398120622295e+00
  +1.59134778316412339727e+00
  +1.61061177682253342525e+00
  +1.62954915806627020913e+00
  +6.80650090290318132702e+00
  +6.39696736362020867972e+00
  +6.01938155479344771948e+00
  +5.67014545155723492798e+00
  +5.34618177018018503333e+00
  +5.04484304932735394544e+00
  +4.76383913733889752251e+00
  +4.50117888018290468466e+00
  +4.25512286811425433086e+00
  +4.02414486921529146457e+00
  +3.80690014208088722825e+00
  +3.60219923742916714460e+00
  +3.40898621049721972653e+00
  +3.22632040149764875991e+00
  +3.05336112053506480990e+00
  +2.88935471078125960531e+00
  +2.73362356990989008310e+00
  +2.58555679247315550739e+00
  +2.44460216071287828044e+00
  +2.31025926242834023228e+00
  +2.18207355510780898200e+00
  +2.05963122793252306764e+00
  +1.94255473927398103484e+00
  +1.83049892829763405366e+00
  +1.72314761631246726736e+00
  +1.62021062738155929850e+00
  +1.52142116906884949934e+00
  +1.42653352353780360495e+00
  +1.33532100693094935018e+00
  +1.24757416135292431569e+00
  +1.16309914910115019815e+00
  +1.08171632323286326383e+00
  +1.00325895228290029593e+00
  +9.27572080080389715917e-01
  +8.54511504256730503037e-01
  +7.83942859276036352334e-01
  +7.15740791719429614304e-01
  +6.49788217173662308035e-01
  +5.85975649456348723909e-01
  +5.24200594094006433465e-01
  +4.64366998985272283473e-01
  +4.06384756056267448798e-01
  +3.50169248470089955472e-01
  +2.95640938605229885994e-01
  +2.42724992583398857526e-01
  +1.91350937619593597372e-01
  +1.41452348894839985416e-01
  +9.29665630261634762244e-02
  +4.58344155348139048467e-02
  +2.87523228062454272292e-15
  +4.45895531631372923909e-02
  +8.79842801419497416715e-02
  +1.30231571026853482076e-01
  +1.71376342448013918585e-01
  +2.11461196870369572132e-01
  +2.50526569734532633671e-01
  +2.88610865511920389181e-01
  +3.25750583636458035386e-01
  +3.61980435180923265648e-01
  +3.97333451061763154311e-01
  +4.31841082481647875468e-01
  +4.65533294251525897600e-01
  +4.98438651574343638551e-01
  +5.30584400818615797846e-01
  +5.61996544761986349670e-01
  +5.92699912741399437266e-01
  +6.22718226107772498956e-01
  +6.52074159347605819548e-01
  +6.80789397202793522546e-01
  +7.08884688090734904620e-01
  +7.36379894101553578167e-01
  +7.63294037825460902624e-01
  +7.89645346242322077046e-01
  +8.15451291886265305919e-01
  +8.40728631480620380856e-01
  +8.65493442222761588667e-01
  +8.89761155883958210211e-01
  +9.13546590876134878556e-01
  +9.36863982425726771197e-01
  +9.59727010983543182832e-01
  +9.82148828989933941891e-01
  +1.00414208610518507214e+00
  +1.02571895300687221386e+00
  +1.04689114384831438720e+00
  +1.06766993746505400864e+00
  +1.08806619741013310687e+00
  +1.10809039089302641123e+00
  +1.12775260669133725600e+00
  +1.14706257209991235868e+00
  +1.16602966897713500316e+00
  +1.18466294894391510617e+00
  +1.20297114778723779338e+00
  +1.22096269911630139759e+00
  +1.23864574731627175019e+00
  +1.25602815984121418680e+00
  +1.27311753888543321978e+00
  +1.28992123246942247405e+00
  +1.30644634497441058940e+00
  +1.32269974715739668802e+00
  +1.33868808567603725379e+00
  +5.17660316230587724817e+00
  +4.89063985871484874224e+00
  +4.62431537174904061516e+00
  +4.37567379034815129302e+00
  +4.14301058769372421153e+00
  +3.92483349191246455590e+00
  +3.71983044493785897089e+00
  +3.52684319543189905843e+00
  +3.34484540287711151763e+00
  +3.17292437863564202871e+00
  +3.01026577816656804032e+00
  +2.85614070251039819937e+00
  +2.70989477795952193873e+00
  +2.57093886878689703579e+00
  +2.43874114504703332074e+00
  +2.31282028025939956350e+00
  +2.19273959556136288640e+00
  +2.07810200017317470156e+00
  +1.96854560463984196161e+00
  +1.86373990474218365065e+00
  +1.76338245130429616125e+00
  +1.66719593521752984522e+00
  +1.57492562851198814045e+00
  +1.48633713175044657184e+00
  +1.40121438580103041538e+00
  +1.31935791248259182140e+00
  +1.24058325392402135634e+00
  +1.16471958493629434983e+00
  +1.09160847642645331135e+00
  +1.02110279101429513027e+00
  +9.53065694651129113879e-01
  +8.87369770269826996234e-01
  +8.23896221385756799549e-01
  +7.62534155175700889551e-01
  +7.03179935932493060946e-01
  +6.45736600965531093443e-01
  +5.90113332021970915520e-01
  +5.36224976167779754377e-01
  +4.83991610812082806437e-01
  +4.33338148201646899960e-01
  +3.84193975269292053998e-01
  +3.36492625203302475612e-01
  +2.90171477525525245422e-01
  +2.45171483832301251304e-01
  +2.01436916672258603533e-01
  +1.58915139315605580261e-01
  +1.17556394414767048651e-01
  +7.73136097724388959840e-02
  +3.81422196229032478554e-02
  +2.72070808653828028146e-15
  +3.71530830866808811641e-02
  +7.33550138151954633781e-02
  +1.08641856085755675321e-01
  +1.43047873354947202573e-01
  +1.76605639606754516446e-01
  +2.09346142215810826492e-01
  +2.41298877385701437959e-01
  +2.72491938780140718901e-01
  +3.02952099906869665169e-01
  +3.32704890761894023221e-01
  +3.61774669195435993885e-01
  +3.90184687418710984819e-01
  +4.17957154033287148209e-01
  +4.45113291930731014290e-01
  +4.71673392379855616063e-01
  +4.97656865591171060359e-01
  +5.23082288023471009275e-01
  +5.47967446674650138227e-01
  +5.72329380578957658265e-01
  +5.96184419713829072407e-01
  +6.19548221503235851948e-01
  +6.42435805088871103585e-01
  +6.64861583526853761050e-01
  +6.86839394055027696595e-01
  +7.08382526564347525522e-01
  +7.29503750397483052836e-01
  +7.50215339588215179845e-01
  +7.70529096646363598211e-01
  +7.90456374985238685582e-01
  +8.10008100081001214399e-01
  +8.29194789446934477084e-01
  +8.48026571499240433560e-01
  +8.66513203385525954126e-01
  +8.84664087841936730428e-01
  +9.02488289140063293381e-01
  +9.19994548180453897146e-01
  +9.37191296785685690196e-01
  +9.54086671241822670275e-01
  +9.70688525134197566224e-01
  +9.87004441519990782794e-01
  +1.00304174447715288565e+00
  +1.01880751006679193260e+00
  +1.03430857674329268470e+00
  +1.04955155524457999228e+00
  +1.06454283799235316366e+00
  +1.07928860803053128237e+00
  +1.09379484752810141046e+00
  +1.10806734587090582878e+00
  +1.12211170736548426774e+00
  +1.13593335857629895713e+00
</dep>
<dep Pr1.I Rmeasure Rbranch>
  +3.67637864199074695937e-02
  +3.33179083757519645115e-02
  +3.03519535033903789523e-02
  +2.77721875628899154964e-02
  +2.55077940481813862650e-02
  +2.35042735042735075057e-02
  +2.17189999158178374816e-02
  +2.01181542391824993987e-02
  +1.86745616032794325978e-02
  +1.73661360347322733799e-02
  +1.61747425174535129633e-02
  +1.50853513298928165048e-02
  +1.40854006725461573107e-02
  +1.31643100926377362714e-02
  +1.23131046613896236869e-02
  +1.15241215681843936491e-02
  +1.07907787890348192544e-02
  +1.01073910296904587169e-02
  +9.46902204347605490342e-03
  +8.87136520453425843347e-03
  +8.31064622438745445598e-03
  +7.78354336545589685359e-03
  +7.28712158697315034311e-03
  +6.81877786519800074133e-03
  +6.37619553666313784029e-03
  +5.95730597385404642835e-03
  +5.56025625528829958027e-03
  +5.18338176392052485397e-03
  +4.82518285911231158136e-03
  +4.48430493273542420812e-03
  +4.15952129018134619115e-03
  +3.84971840022813602614e-03
  +3.55388313996026069738e-03
  +3.27109172686384196138e-03
  +3.00050008334721641026e-03
  +2.74133542196985198133e-03
  +2.49288887468439432013e-03
  +2.25450901803607439700e-03
  +2.02559616978180293337e-03
  +1.80559735179055061427e-03
  +1.59400183015025198076e-03
  +1.39033715676053506137e-03
  +1.19416564783485050494e-03
  +1.00508124406722292900e-03
  +8.22706705059632510679e-04
  +6.46691097219227587801e-04
  +4.76707539924265278480e-04
  +3.12451179503198160983e-04
  +1.53637364607082542228e-04
  +1.03821233725967078706e-17
  -1.48709941259583908624e-04
  -2.92725764746065383361e-04
  -4.32266276026036389696e-04
  -5.67536889897834562028e-04
  -6.98730639338519029374e-04
  -8.26029094580323650435e-04
  -9.49603201519373814853e-04
  -1.06961404759781022328e-03
  -1.18621356237506121387e-03
  -1.29954515919428019444e-03
  -1.40974432364312477102e-03
  -1.51693915388504936906e-03
  -1.62125085739228116596e-03
  -1.72279420812994615159e-03
  -1.82167796781702753632e-03
  -1.91800527451449140393e-03
  -2.01187400145960877673e-03
  -2.10337708877030536703e-03
  -2.19260285038371145749e-03
  -2.27963525835865295568e-03
  -2.36455420646685191000e-03
  -2.44743575481143988901e-03
  -2.52835235704733938059e-03
  -2.60737307163034885693e-03
  -2.68456375838927157468e-03
  -2.75998726159724363724e-03
  -2.83370358061187143164e-03
  -2.90577002905769874938e-03
  -2.97624138343910785154e-03
  -3.04517002199289517350e-03
  -3.11260605452080537162e-03
  -3.17859744387788932529e-03
  -3.24319011973594984941e-03
  -3.30642808518913583829e-03
  -3.36835351672148865937e-03
  -3.42900685801371179692e-03
  -3.48842690802809128614e-03
  -3.54665090377377428474e-03
  -3.60371459812422858041e-03
  -3.65965233302837375864e-03
  -3.71449710843009322722e-03
  -3.76828064718725966667e-03
  -3.82103345625805579724e-03
  -3.87278488440324962852e-03
  -3.92356317663300913773e-03
  -3.97339552561111735568e-03
  -4.02230812021281240731e-03
  -4.07032619141837938986e-03
  -4.11747405571195445456e-03
  -4.16377515614157339696e-03
  +1.98688923430425101735e-02
  +1.84884019515535388822e-02
  +1.72396226030607467583e-02
  +1.61045629595051933980e-02
  +1.50683657334201512312e-02
  +1.41186537364518024246e-02
  +1.32450331125827849149e-02
  +1.24387113758267827540e-02
  +1.16922004467751375345e-02
  +1.09990834097158582394e-02
  +1.03538295895340779623e-02
  +9.75164665963331941945e-03
  +9.18836140888208176281e-03
  +8.66032289105099842286e-03
  +8.16432320352491504301e-03
  +7.69753226171610276801e-03
  +7.25744376702872322910e-03
  +6.84183018957571029844e-03
  +6.44870505841972641026e-03
  +6.07629121188252904057e-03
  +5.72299393713478123796e-03
  +5.38737814263725266206e-03
  +5.06814887426611411503e-03
  +4.76413461734226210964e-03
  +4.47427293064877988626e-03
  +4.19759804112091600148e-03
  +3.93323009396050714270e-03
  +3.68036580605587883980e-03
  +3.43827031353750216594e-03
  +3.20627003918774397540e-03
  +2.98374643389955106557e-03
  +2.77013046972521314107e-03
  +2.56489778127958574158e-03
  +2.36756436815625977144e-03
  +2.17768278420776145721e-03
  +1.99483875053433658275e-03
  +1.81864813821725900163e-03
  +1.64875427454812067095e-03
  +1.48482553299988332546e-03
  +1.32655317267300464773e-03
  +1.17364939759909202126e-03
  +1.02584561023567476419e-03
  +8.82890836854376267681e-04
  +7.44550305403500630418e-04
  +6.10604158892761087439e-04
  +4.80846289469465755419e-04
  +3.55083280180441417280e-04
  +2.33133442992393912462e-04
  +1.14825943008064484279e-04
  +7.77191007967484430817e-18
  -1.11495840585732844418e-04
  -2.19804374107048492749e-04
  -3.25060346851432674809e-04
  -4.27391015291094075908e-04
  -5.26916659348367565595e-04
  -6.23751054023766009216e-04
  -7.18001903274893046175e-04
