<Qucs Dataset 0.0.17>
<indep time 200>
  +0.00000000000e+00
  +2.51256281407e-04
  +5.02512562814e-04
  +7.53768844221e-04
  +1.00502512563e-03
  +1.25628140704e-03
  +1.50753768844e-03
  +1.75879396985e-03
  +2.01005025126e-03
  +2.26130653266e-03
  +2.51256281407e-03
  +2.76381909548e-03
  +3.01507537688e-03
  +3.26633165829e-03
  +3.51758793970e-03
  +3.76884422111e-03
  +4.02010050251e-03
  +4.27135678392e-03
  +4.52261306533e-03
  +4.77386934673e-03
  +5.02512562814e-03
  +5.27638190955e-03
  +5.52763819095e-03
  +5.77889447236e-03
  +6.03015075377e-03
  +6.28140703518e-03
  +6.53266331658e-03
  +6.78391959799e-03
  +7.03517587940e-03
  +7.28643216080e-03
  +7.53768844221e-03
  +7.78894472362e-03
  +8.04020100503e-03
  +8.29145728643e-03
  +8.54271356784e-03
  +8.79396984925e-03
  +9.04522613065e-03
  +9.29648241206e-03
  +9.54773869347e-03
  +9.79899497487e-03
  +1.00502512563e-02
  +1.03015075377e-02
  +1.05527638191e-02
  +1.08040201005e-02
  +1.10552763819e-02
  +1.13065326633e-02
  +1.15577889447e-02
  +1.18090452261e-02
  +1.20603015075e-02
  +1.23115577889e-02
  +1.25628140704e-02
  +1.28140703518e-02
  +1.30653266332e-02
  +1.33165829146e-02
  +1.35678391960e-02
  +1.38190954774e-02
  +1.40703517588e-02
  +1.43216080402e-02
  +1.45728643216e-02
  +1.48241206030e-02
  +1.50753768844e-02
  +1.53266331658e-02
  +1.55778894472e-02
  +1.58291457286e-02
  +1.60804020101e-02
  +1.63316582915e-02
  +1.65829145729e-02
  +1.68341708543e-02
  +1.70854271357e-02
  +1.73366834171e-02
  +1.75879396985e-02
  +1.78391959799e-02
  +1.80904522613e-02
  +1.83417085427e-02
  +1.85929648241e-02
  +1.88442211055e-02
  +1.90954773869e-02
  +1.93467336683e-02
  +1.95979899497e-02
  +1.98492462312e-02
  +2.01005025126e-02
  +2.03517587940e-02
  +2.06030150754e-02
  +2.08542713568e-02
  +2.11055276382e-02
  +2.13567839196e-02
  +2.16080402010e-02
  +2.18592964824e-02
  +2.21105527638e-02
  +2.23618090452e-02
  +2.26130653266e-02
  +2.28643216080e-02
  +2.31155778894e-02
  +2.33668341709e-02
  +2.36180904523e-02
  +2.38693467337e-02
  +2.41206030151e-02
  +2.43718592965e-02
  +2.46231155779e-02
  +2.48743718593e-02
  +2.51256281407e-02
  +2.53768844221e-02
  +2.56281407035e-02
  +2.58793969849e-02
  +2.61306532663e-02
  +2.63819095477e-02
  +2.66331658291e-02
  +2.68844221106e-02
  +2.71356783920e-02
  +2.73869346734e-02
  +2.76381909548e-02
  +2.78894472362e-02
  +2.81407035176e-02
  +2.83919597990e-02
  +2.86432160804e-02
  +2.88944723618e-02
  +2.91457286432e-02
  +2.93969849246e-02
  +2.96482412060e-02
  +2.98994974874e-02
  +3.01507537688e-02
  +3.04020100503e-02
  +3.06532663317e-02
  +3.09045226131e-02
  +3.11557788945e-02
  +3.14070351759e-02
  +3.16582914573e-02
  +3.19095477387e-02
  +3.21608040201e-02
  +3.24120603015e-02
  +3.26633165829e-02
  +3.29145728643e-02
  +3.31658291457e-02
  +3.34170854271e-02
  +3.36683417085e-02
  +3.39195979899e-02
  +3.41708542714e-02
  +3.44221105528e-02
  +3.46733668342e-02
  +3.49246231156e-02
  +3.51758793970e-02
  +3.54271356784e-02
  +3.56783919598e-02
  +3.59296482412e-02
  +3.61809045226e-02
  +3.64321608040e-02
  +3.66834170854e-02
  +3.69346733668e-02
  +3.71859296482e-02
  +3.74371859296e-02
  +3.76884422111e-02
  +3.79396984925e-02
  +3.81909547739e-02
  +3.84422110553e-02
  +3.86934673367e-02
  +3.89447236181e-02
  +3.91959798995e-02
  +3.94472361809e-02
  +3.96984924623e-02
  +3.99497487437e-02
  +4.02010050251e-02
  +4.04522613065e-02
  +4.07035175879e-02
  +4.09547738693e-02
  +4.12060301508e-02
  +4.14572864322e-02
  +4.17085427136e-02
  +4.19597989950e-02
  +4.22110552764e-02
  +4.24623115578e-02
  +4.27135678392e-02
  +4.29648241206e-02
  +4.32160804020e-02
  +4.34673366834e-02
  +4.37185929648e-02
  +4.39698492462e-02
  +4.42211055276e-02
  +4.44723618090e-02
  +4.47236180905e-02
  +4.49748743719e-02
  +4.52261306533e-02
  +4.54773869347e-02
  +4.57286432161e-02
  +4.59798994975e-02
  +4.62311557789e-02
  +4.64824120603e-02
  +4.67336683417e-02
  +4.69849246231e-02
  +4.72361809045e-02
  +4.74874371859e-02
  +4.77386934673e-02
  +4.79899497487e-02
  +4.82412060302e-02
  +4.84924623116e-02
  +4.87437185930e-02
  +4.89949748744e-02
  +4.92462311558e-02
  +4.94974874372e-02
  +4.97487437186e-02
  +5.00000000000e-02
</indep>
<dep V1.It time>
  +0.00000000000e+00
  -2.07129148225e-09
  -5.25468794338e-02
  -1.76202495443e-01
  -1.72827214424e-01
  -1.68370070629e-01
  -1.62867138176e-01
  -1.56352484194e-01
  -1.48868945913e-01
  -1.40466008392e-01
  -1.31199734868e-01
  -1.21132841449e-01
  -1.10335001102e-01
  -9.88835989273e-02
  -8.68653931614e-02
  -7.43800704703e-02
  -6.15480012426e-02
  -4.85279841527e-02
  -3.55604983016e-02
  -2.30788327753e-02
  -1.19808446355e-02
  -4.00768529212e-03
  -5.86784234788e-04
  -2.58862056525e-05
  -3.03043921118e-07
  -9.53038570121e-10
  -2.60833352996e-13
  +6.27820028855e-13
  +6.28938288555e-13
  +6.32946702490e-13
  +6.38351788952e-13
  +5.87283513120e-13
  +5.93247837325e-13
  +6.55972412049e-13
  +6.04264702003e-13
  +6.66027576466e-13
  +6.13181035289e-13
  +6.73701247173e-13
  +6.19562325753e-13
  +6.78784898931e-13
  +6.23384550998e-13
  +6.81425450998e-13
  +6.24974006406e-13
  +6.82159568113e-13
  +6.25137048333e-13
  +6.82164495305e-13
  +6.25592595662e-13
  +6.83993445056e-13
  +6.30253976647e-13
  +6.93925105009e-13
  +6.49823494356e-13
  +7.32144144340e-13
  +7.84943458727e-13
  +1.11684617921e-09
  +6.63471197781e-06
  +9.73653640425e-03
  +5.82331500649e-02
  +4.59191637097e-02
  +3.30063097624e-02
  +2.07092319021e-02
  +1.00773453332e-02
  +2.95863494938e-03
  +3.48792271683e-04
  +1.18336391901e-05
  +1.06257088160e-07
  +2.57568888359e-10
  -4.02323562731e-13
  -6.23778437839e-13
  -6.25509194821e-13
  -6.29905294358e-13
  -6.35470165768e-13
  -5.92524759873e-13
  -6.47382444460e-13
  -6.04112566613e-13
  -6.58226058520e-13
  -6.13951610974e-13
  -6.66900281844e-13
  -6.21369176825e-13
  -6.73020865399e-13
  -6.26195887312e-13
  -6.76598240081e-13
  -6.28612999762e-13
  -6.77997254220e-13
  -6.29204828415e-13
  -6.78087881690e-13
  -6.29239187762e-13
  -6.78724726399e-13
  -6.31484421791e-13
  -6.84183398190e-13
  -6.42876316073e-13
  -7.06517653388e-13
  -6.86579832252e-13
  -1.24805304348e-12
  -6.99825537539e-09
  -3.25175778896e-05
  -2.62694334053e-02
  -5.61385580293e-02
  -4.33164043186e-02
  -3.04669196814e-02
  -1.83910110738e-02
  -8.27904101695e-03
  -2.10074451689e-03
  -1.96651855955e-04
  -5.11815236414e-06
  -3.52883817848e-08
  -6.56882551843e-11
  +5.91710239498e-13
  +6.24606084931e-13
  +6.27036918261e-13
  +5.81236633996e-13
  +5.86940899687e-13
  +6.43424203138e-13
  +6.48741499987e-13
  +6.55864348804e-13
  +6.60126158472e-13
  +6.63671058577e-13
  +6.68653598153e-13
  +6.71487244397e-13
  +6.73608170594e-13
  +6.75729898892e-13
  +6.76439226931e-13
  +6.78573301036e-13
  +6.77871427012e-13
  +6.78603740897e-13
  +6.79350962046e-13
  +6.78669817083e-13
  +6.78706577700e-13
  +6.80216982910e-13
  +6.86731973952e-13
  +6.95391676959e-13
  +7.11271408289e-13
  +7.44360661854e-13
  +4.22061421523e-12
  +4.17295998344e-08
  +1.50954334049e-04
  +4.61045241395e-02
  +5.36753877289e-02
  +4.07197038894e-02
  +2.79650086493e-02
  +1.61539036301e-02
  +6.69135394668e-03
  +1.43783096584e-03
  +1.05601205692e-04
  +2.10576014115e-06
  +1.11620771752e-08
  +1.56191360096e-11
  -5.69093128651e-13
  -6.24478877333e-13
  -5.77698656622e-13
  -5.82680774899e-13
  -6.38280811316e-13
  -5.94482333351e-13
  -6.50105896621e-13
  -6.05828918223e-13
  -6.60546584152e-13
  -6.65071750882e-13
  -6.67927607351e-13
  -6.70062297878e-13
  -6.75733723039e-13
  -6.75727981087e-13
  -6.77866683574e-13
  -6.77884777870e-13
  -6.77902227361e-13
  -6.78624575307e-13
  -6.77921429154e-13
  -6.77938272283e-13
  -6.80076721983e-13
  -6.80755615980e-13
  -6.86428288160e-13
  -6.95745670157e-13
  -7.15733784482e-13
  -7.56206109834e-13
  -2.54032511242e-11
  -2.37739081634e-07
  -6.66105304714e-04
  -5.68175384745e-02
  -5.11150334918e-02
  -3.81341659046e-02
  -2.54914477647e-02
  -1.40301831578e-02
  -5.25697305726e-03
  -9.40511832623e-04
  -5.37115336705e-05
  -8.20463735563e-07
  -3.34790565686e-09
  -3.20385516054e-12
  +6.26188885742e-13
  +6.27322991992e-13
  +5.76114492819e-13
  +6.36103534087e-13
  +5.87174789140e-13
  +6.47971711941e-13
  +5.98953577722e-13
  +6.59150690092e-13
  +6.09217918073e-13
  +6.68304964637e-13
  +6.17145608967e-13
  +6.74946448891e-13
  +6.22487246453e-13
  +6.79016116371e-13
</dep>
<dep dc_voltage.Vt time>
  +0.00000000000e+00
  +1.02854255560e-09
  +1.82840589232e-02
  +8.42532758217e-01
  +1.71671476088e+00
  +2.56903684827e+00
  +3.39421575446e+00
  +4.18714881414e+00
  +4.94294389700e+00
  +5.65695295404e+00
  +6.32480450310e+00
  +6.94243608973e+00
  +7.50612756705e+00
  +8.01253684639e+00
  +8.45874139998e+00
  +8.84229224714e+00
  +9.16129497540e+00
  +9.41455141826e+00
  +9.60184557132e+00
  +9.72459377525e+00
  +9.78741756237e+00
  +9.80127347881e+00
  +9.78638881383e+00
  +9.76282497153e+00
  +9.73835841464e+00
  +9.71392121464e+00
  +9.68954501369e+00
  +9.66522998188e+00
  +9.64097596685e+00
  +9.61678281492e+00
  +9.59265037282e+00
  +9.56857848579e+00
  +9.54456700775e+00
  +9.52061578333e+00
  +9.49672466233e+00
  +9.47289349393e+00
  +9.44912212768e+00
  +9.42541041352e+00
  +9.40175820175e+00
  +9.37816534306e+00
  +9.35463168851e+00
  +9.33115708953e+00
  +9.30774139792e+00
  +9.28438446586e+00
  +9.26108614591e+00
  +9.23784629098e+00
  +9.21466475435e+00
  +9.19154138968e+00
  +9.16847605100e+00
  +9.14546859271e+00
  +9.12251886976e+00
  +9.09962673724e+00
  +9.07679205044e+00
  +9.05401466604e+00
  +9.03129983262e+00
  +9.01619006062e+00
  +9.21788276576e+00
  +9.45727282192e+00
  +9.63147121261e+00
  +9.74171110658e+00
  +9.79354499447e+00
  +9.79982043349e+00
  +9.78192165217e+00
  +9.75792633886e+00
  +9.73345389821e+00
  +9.70902879469e+00
  +9.68466486824e+00
  +9.66036208294e+00
  +9.63612028328e+00
  +9.61193931619e+00
  +9.58781902802e+00
  +9.56375926742e+00
  +9.53975988260e+00
  +9.51582072206e+00
  +9.49194163466e+00
  +9.46812246967e+00
  +9.44436307670e+00
  +9.42066330578e+00
  +9.39702300727e+00
  +9.37344203195e+00
  +9.34992023094e+00
  +9.32645745575e+00
  +9.30305355826e+00
  +9.27970839073e+00
  +9.25642180578e+00
  +9.23319365639e+00
  +9.21002379594e+00
  +9.18691207814e+00
  +9.16385835710e+00
  +9.14086248728e+00
  +9.11792432351e+00
  +9.09504372097e+00
  +9.07222053657e+00
  +9.04945462914e+00
  +9.02677937069e+00
  +9.02894006160e+00
  +9.27072692216e+00
  +9.49735279955e+00
  +9.65854164427e+00
  +9.75650224103e+00
  +9.79802185367e+00
  +9.79752553488e+00
  +9.77736653203e+00
  +9.75312198831e+00
  +9.72865353000e+00
  +9.70424039635e+00
  +9.67988848769e+00
  +9.65559768837e+00
  +9.63136784465e+00
  +9.60719880312e+00
  +9.58309041123e+00
  +9.55904251511e+00
  +9.53505496455e+00
  +9.51112760857e+00
  +9.48726029613e+00
  +9.46345287654e+00
  +9.43970519951e+00
  +9.41601711513e+00
  +9.39238847384e+00
  +9.36881912649e+00
  +9.34530892428e+00
  +9.32185771879e+00
  +9.29846536197e+00
  +9.27513170616e+00
  +9.25185660403e+00
  +9.22863990867e+00
  +9.20548147350e+00
  +9.18238115232e+00
  +9.15933879931e+00
  +9.13635426899e+00
  +9.11342741626e+00
  +9.09055809639e+00
  +9.06774616502e+00
  +9.04499152286e+00
  +9.02246236104e+00
  +9.06115392805e+00
  +9.32124879049e+00
  +9.53480152743e+00
  +9.68305626824e+00
  +9.76899538941e+00
  +9.80047490547e+00
  +9.79427835607e+00
  +9.77251867205e+00
  +9.74814353568e+00
  +9.72368385712e+00
  +9.69928316814e+00
  +9.67494369938e+00
  +9.65066530869e+00
  +9.62644784228e+00
  +9.60229114664e+00
  +9.57819506970e+00
  +9.55415945967e+00
  +9.53018416216e+00
  +9.50626903176e+00
  +9.48241391197e+00
  +9.45861865396e+00
  +9.43488310800e+00
  +9.41120712423e+00
  +9.38759055321e+00
  +9.36403324582e+00
  +9.34053505336e+00
  +9.31709582749e+00
  +9.29371542023e+00
  +9.27039368398e+00
  +9.24713047151e+00
  +9.22392563597e+00
  +9.20077903086e+00
  +9.17769051005e+00
  +9.15465992780e+00
  +9.13168713870e+00
  +9.10877199773e+00
  +9.08591436336e+00
  +9.06311408809e+00
  +9.04037120266e+00
  +9.01813931095e+00
  +9.10917437739e+00
  +9.36921094090e+00
  +9.56962659126e+00
  +9.70507719505e+00
  +9.77920216194e+00
  +9.80152826421e+00
  +9.79052950567e+00
  +9.76767497093e+00
  +9.74323538322e+00
  +9.71878654887e+00
  +9.69439813987e+00
  +9.67007092931e+00
  +9.64580476646e+00
  +9.62159949684e+00
  +9.59745496686e+00
  +9.57337102437e+00
  +9.54934751847e+00
  +9.52538429751e+00
  +9.50148121007e+00
  +9.47763810527e+00
  +9.45385483258e+00
  +9.43013124184e+00
  +9.40646718331e+00
  +9.38286250759e+00
  +9.35931706565e+00
</dep>
<dep _net3.Vt time>
  +0.00000000000e+00
  +1.81360854437e+01
  +3.61592298825e+01
  +5.39571956422e+01
  +7.14191473311e+01
  +8.84363420574e+01
  +1.04902806618e+02
  +1.20715997436e+02
  +1.35777439145e+02
  +1.49993337836e+02
  +1.63275165150e+02
  +1.75540209581e+02
  +1.86712091557e+02
  +1.96721239087e+02
  +2.05505321014e+02
  +2.13009635180e+02
  +2.19187449074e+02
  +2.24000290860e+02
  +2.27418188955e+02
  +2.29419858676e+02
  +2.29992834786e+02
  +2.29133549122e+02
  +2.26847352818e+02
  +2.23148482974e+02
  +2.18059974005e+02
  +2.11613514188e+02
  +2.03849248329e+02
  +1.94815527768e+02
  +1.84568609266e+02
  +1.73172304682e+02
  +1.60697583578e+02
  +1.47222131273e+02
  +1.32829865055e+02
  +1.17610411598e+02
  +1.01658548816e+02
  +8.50736156458e+01
  +6.79588934160e+01
  +5.04209626750e+01
  +3.25690394677e+01
  +1.45142952019e+01
  -3.63083566314e+00
  -2.17533557928e+01
  -3.97404086590e+01
  -5.74799813452e+01
  -7.48616020973e+01
  -9.17770282784e+01
  -1.08120920440e+02
  -1.23791498317e+02
  -1.38691174651e+02
  -1.52727162915e+02
  -1.65812055127e+02
  -1.77864366180e+02
  -1.88809041280e+02
  -1.98577923349e+02
  -2.07110177465e+02
  -2.14352669705e+02
  -2.20260298035e+02
  -2.24796273176e+02
  -2.27932347712e+02
  -2.29648991991e+02
  -2.29935515749e+02
  -2.28790134685e+02
  -2.26219981564e+02
  -2.22241061809e+02
  -2.16878153820e+02
  -2.10164654672e+02
  -2.02142372138e+02
  -1.92861264335e+02
  -1.82379128609e+02
  -1.70761241614e+02
  -1.58079952800e+02
  -1.44414233868e+02
  -1.29849186978e+02
  -1.14475514779e+02
  -9.83889555733e+01
  -8.16896871057e+01
  -6.44817027199e+01
  -4.68721637467e+01
  -2.89707321656e+01
  -1.08888876935e+01
  +7.26076644591e+00
  +2.53652047496e+01
  +4.33116832926e+01
  +6.09884418317e+01
  +7.82853997829e+01
  +9.50948417400e+01
  +1.11312088263e+02
  +1.26836147761e+02
  +1.41570345409e+02
  +1.55422925183e+02
  +1.68307621264e+02
  +1.80144195249e+02
  +1.90858935831e+02
  +2.00385117830e+02
  +2.08663417717e+02
  +2.15642283051e+02
  +2.21278253512e+02
  +2.25536231549e+02
  +2.28389700949e+02
  +2.29820891962e+02
  +2.29820891962e+02
  +2.28389700949e+02
  +2.25536231549e+02
  +2.21278253512e+02
  +2.15642283051e+02
  +2.08663417717e+02
  +2.00385117830e+02
  +1.90858935831e+02
  +1.80144195249e+02
  +1.68307621264e+02
  +1.55422925183e+02
  +1.41570345409e+02
  +1.26836147761e+02
  +1.11312088263e+02
  +9.50948417400e+01
  +7.82853997829e+01
  +6.09884418317e+01
  +4.33116832926e+01
  +2.53652047496e+01
  +7.26076644591e+00
  -1.08888876935e+01
  -2.89707321656e+01
  -4.68721637467e+01
  -6.44817027199e+01
  -8.16896871057e+01
  -9.83889555733e+01
  -1.14475514779e+02
  -1.29849186978e+02
  -1.44414233868e+02
  -1.58079952800e+02
  -1.70761241614e+02
  -1.82379128609e+02
  -1.92861264335e+02
  -2.02142372138e+02
  -2.10164654672e+02
  -2.16878153820e+02
  -2.22241061809e+02
  -2.26219981564e+02
  -2.28790134685e+02
  -2.29935515749e+02
  -2.29648991991e+02
  -2.27932347712e+02
  -2.24796273176e+02
  -2.20260298035e+02
  -2.14352669705e+02
  -2.07110177465e+02
  -1.98577923349e+02
  -1.88809041280e+02
  -1.77864366180e+02
  -1.65812055127e+02
  -1.52727162915e+02
  -1.38691174651e+02
  -1.23791498317e+02
  -1.08120920440e+02
  -9.17770282784e+01
  -7.48616020973e+01
  -5.74799813452e+01
  -3.97404086590e+01
  -2.17533557928e+01
  -3.63083566314e+00
  +1.45142952019e+01
  +3.25690394677e+01
  +5.04209626750e+01
  +6.79588934160e+01
  +8.50736156458e+01
  +1.01658548816e+02
  +1.17610411598e+02
  +1.32829865055e+02
  +1.47222131273e+02
  +1.60697583578e+02
  +1.73172304682e+02
  +1.84568609266e+02
  +1.94815527768e+02
  +2.03849248329e+02
  +2.11613514188e+02
  +2.18059974005e+02
  +2.23148482974e+02
  +2.26847352818e+02
  +2.29133549122e+02
  +2.29992834786e+02
  +2.29419858676e+02
  +2.27418188955e+02
  +2.24000290860e+02
  +2.19187449074e+02
  +2.13009635180e+02
  +2.05505321014e+02
  +1.96721239087e+02
  +1.86712091557e+02
  +1.75540209581e+02
  +1.63275165150e+02
  +1.49993337836e+02
  +1.35777439145e+02
  +1.20715997436e+02
  +1.04902806618e+02
  +8.84363420574e+01
  +7.14191473311e+01
  +5.39571956422e+01
  +3.61592298825e+01
  +1.81360854437e+01
  -2.67727691160e-13
</dep>
<dep _net2.Vt time>
  +0.00000000000e+00
  +1.81360854427e+01
  +3.61329564428e+01
  +5.38690943945e+01
  +7.13327337238e+01
  +8.83521570220e+01
  +1.04821373049e+02
  +1.20637821194e+02
  +1.35703004672e+02
  +1.49923104832e+02
  +1.63209565283e+02
  +1.75479643160e+02
  +1.86656924056e+02
  +1.96671797287e+02
  +2.05461888318e+02
  +2.12972445145e+02
  +2.19156675073e+02
  +2.23976026868e+02
  +2.27400408706e+02
  +2.29408319259e+02
  +2.29986844363e+02
  +2.29131545280e+02
  +2.26847059426e+02
  +2.23148470031e+02
  +2.18059973854e+02
  +2.11613514187e+02
  +2.03849248329e+02
  +1.94815527768e+02
  +1.84568609266e+02
  +1.73172304682e+02
  +1.60697583578e+02
  +1.47222131273e+02
  +1.32829865055e+02
  +1.17610411598e+02
  +1.01658548816e+02
  +8.50736156458e+01
  +6.79588934160e+01
  +5.04209626750e+01
  +3.25690394677e+01
  +1.45142952019e+01
  -3.63083566314e+00
  -2.17533557928e+01
  -3.97404086590e+01
  -5.74799813452e+01
  -7.48616020973e+01
  -9.17770282784e+01
  -1.08120920440e+02
  -1.23791498317e+02
  -1.38691174651e+02
  -1.52727162915e+02
  -1.65812055127e+02
  -1.77864366180e+02
  -1.88809041280e+02
  -1.98577923349e+02
  -2.07110174148e+02
  -2.14347801437e+02
  -2.20231181460e+02
  -2.24773313594e+02
  -2.27915844557e+02
  -2.29638637375e+02
  -2.29930477077e+02
  -2.28788655367e+02
  -2.26219807168e+02
  -2.22241055892e+02
  -2.16878153766e+02
  -2.10164654671e+02
  -2.02142372138e+02
  -1.92861264335e+02
  -1.82379128609e+02
  -1.70761241614e+02
  -1.58079952800e+02
  -1.44414233868e+02
  -1.29849186978e+02
  -1.14475514779e+02
  -9.83889555733e+01
  -8.16896871057e+01
  -6.44817027199e+01
  -4.68721637467e+01
  -2.89707321656e+01
  -1.08888876935e+01
  +7.26076644591e+00
  +2.53652047496e+01
  +4.33116832926e+01
  +6.09884418317e+01
  +7.82853997829e+01
  +9.50948417400e+01
  +1.11312088263e+02
  +1.26836147761e+02
  +1.41570345409e+02
  +1.55422925183e+02
  +1.68307621264e+02
  +1.80144195249e+02
  +1.90858935831e+02
  +2.00385117826e+02
  +2.08663401459e+02
  +2.15629148334e+02
  +2.21250184233e+02
  +2.25514573347e+02
  +2.28374467489e+02
  +2.29811696457e+02
  +2.29816752442e+02
  +2.28388650577e+02
  +2.25536133223e+02
  +2.21278250953e+02
  +2.15642283034e+02
  +2.08663417717e+02
  +2.00385117830e+02
  +1.90858935831e+02
  +1.80144195249e+02
  +1.68307621264e+02
  +1.55422925183e+02
  +1.41570345409e+02
  +1.26836147761e+02
  +1.11312088263e+02
  +9.50948417400e+01
  +7.82853997829e+01
  +6.09884418317e+01
  +4.33116832926e+01
  +2.53652047496e+01
  +7.26076644591e+00
  -1.08888876935e+01
  -2.89707321656e+01
  -4.68721637467e+01
  -6.44817027199e+01
  -8.16896871057e+01
  -9.83889555733e+01
  -1.14475514779e+02
  -1.29849186978e+02
  -1.44414233868e+02
  -1.58079952800e+02
  -1.70761241614e+02
  -1.82379128609e+02
  -1.92861264335e+02
  -2.02142372117e+02
  -2.10164579194e+02
  -2.16855101557e+02
  -2.22214224115e+02
  -2.26199621712e+02
  -2.28776152180e+02
  -2.29927438798e+02
  -2.29645646314e+02
  -2.27931628796e+02
  -2.24796220376e+02
  -2.20260296982e+02
  -2.14352669699e+02
