<Qucs Dataset 0.0.18>
<indep time 200>
  +0.00000000000e+00
  +2.51256281407e-04
  +5.02512562814e-04
  +7.53768844221e-04
  +1.00502512563e-03
  +1.25628140704e-03
  +1.50753768844e-03
  +1.75879396985e-03
  +2.01005025126e-03
  +2.26130653266e-03
  +2.51256281407e-03
  +2.76381909548e-03
  +3.01507537688e-03
  +3.26633165829e-03
  +3.51758793970e-03
  +3.76884422111e-03
  +4.02010050251e-03
  +4.27135678392e-03
  +4.52261306533e-03
  +4.77386934673e-03
  +5.02512562814e-03
  +5.27638190955e-03
  +5.52763819095e-03
  +5.77889447236e-03
  +6.03015075377e-03
  +6.28140703518e-03
  +6.53266331658e-03
  +6.78391959799e-03
  +7.03517587940e-03
  +7.28643216080e-03
  +7.53768844221e-03
  +7.78894472362e-03
  +8.04020100503e-03
  +8.29145728643e-03
  +8.54271356784e-03
  +8.79396984925e-03
  +9.04522613065e-03
  +9.29648241206e-03
  +9.54773869347e-03
  +9.79899497487e-03
  +1.00502512563e-02
  +1.03015075377e-02
  +1.05527638191e-02
  +1.08040201005e-02
  +1.10552763819e-02
  +1.13065326633e-02
  +1.15577889447e-02
  +1.18090452261e-02
  +1.20603015075e-02
  +1.23115577889e-02
  +1.25628140704e-02
  +1.28140703518e-02
  +1.30653266332e-02
  +1.33165829146e-02
  +1.35678391960e-02
  +1.38190954774e-02
  +1.40703517588e-02
  +1.43216080402e-02
  +1.45728643216e-02
  +1.48241206030e-02
  +1.50753768844e-02
  +1.53266331658e-02
  +1.55778894472e-02
  +1.58291457286e-02
  +1.60804020101e-02
  +1.63316582915e-02
  +1.65829145729e-02
  +1.68341708543e-02
  +1.70854271357e-02
  +1.73366834171e-02
  +1.75879396985e-02
  +1.78391959799e-02
  +1.80904522613e-02
  +1.83417085427e-02
  +1.85929648241e-02
  +1.88442211055e-02
  +1.90954773869e-02
  +1.93467336683e-02
  +1.95979899497e-02
  +1.98492462312e-02
  +2.01005025126e-02
  +2.03517587940e-02
  +2.06030150754e-02
  +2.08542713568e-02
  +2.11055276382e-02
  +2.13567839196e-02
  +2.16080402010e-02
  +2.18592964824e-02
  +2.21105527638e-02
  +2.23618090452e-02
  +2.26130653266e-02
  +2.28643216080e-02
  +2.31155778894e-02
  +2.33668341709e-02
  +2.36180904523e-02
  +2.38693467337e-02
  +2.41206030151e-02
  +2.43718592965e-02
  +2.46231155779e-02
  +2.48743718593e-02
  +2.51256281407e-02
  +2.53768844221e-02
  +2.56281407035e-02
  +2.58793969849e-02
  +2.61306532663e-02
  +2.63819095477e-02
  +2.66331658291e-02
  +2.68844221106e-02
  +2.71356783920e-02
  +2.73869346734e-02
  +2.76381909548e-02
  +2.78894472362e-02
  +2.81407035176e-02
  +2.83919597990e-02
  +2.86432160804e-02
  +2.88944723618e-02
  +2.91457286432e-02
  +2.93969849246e-02
  +2.96482412060e-02
  +2.98994974874e-02
  +3.01507537688e-02
  +3.04020100503e-02
  +3.06532663317e-02
  +3.09045226131e-02
  +3.11557788945e-02
  +3.14070351759e-02
  +3.16582914573e-02
  +3.19095477387e-02
  +3.21608040201e-02
  +3.24120603015e-02
  +3.26633165829e-02
  +3.29145728643e-02
  +3.31658291457e-02
  +3.34170854271e-02
  +3.36683417085e-02
  +3.39195979899e-02
  +3.41708542714e-02
  +3.44221105528e-02
  +3.46733668342e-02
  +3.49246231156e-02
  +3.51758793970e-02
  +3.54271356784e-02
  +3.56783919598e-02
  +3.59296482412e-02
  +3.61809045226e-02
  +3.64321608040e-02
  +3.66834170854e-02
  +3.69346733668e-02
  +3.71859296482e-02
  +3.74371859296e-02
  +3.76884422111e-02
  +3.79396984925e-02
  +3.81909547739e-02
  +3.84422110553e-02
  +3.86934673367e-02
  +3.89447236181e-02
  +3.91959798995e-02
  +3.94472361809e-02
  +3.96984924623e-02
  +3.99497487437e-02
  +4.02010050251e-02
  +4.04522613065e-02
  +4.07035175879e-02
  +4.09547738693e-02
  +4.12060301508e-02
  +4.14572864322e-02
  +4.17085427136e-02
  +4.19597989950e-02
  +4.22110552764e-02
  +4.24623115578e-02
  +4.27135678392e-02
  +4.29648241206e-02
  +4.32160804020e-02
  +4.34673366834e-02
  +4.37185929648e-02
  +4.39698492462e-02
  +4.42211055276e-02
  +4.44723618090e-02
  +4.47236180905e-02
  +4.49748743719e-02
  +4.52261306533e-02
  +4.54773869347e-02
  +4.57286432161e-02
  +4.59798994975e-02
  +4.62311557789e-02
  +4.64824120603e-02
  +4.67336683417e-02
  +4.69849246231e-02
  +4.72361809045e-02
  +4.74874371859e-02
  +4.77386934673e-02
  +4.79899497487e-02
  +4.82412060302e-02
  +4.84924623116e-02
  +4.87437185930e-02
  +4.89949748744e-02
  +4.92462311558e-02
  +4.94974874372e-02
  +4.97487437186e-02
  +5.00000000000e-02
</indep>
<dep V1.It time>
  +0.00000000000e+00
  -2.07129148225e-09
  -5.25468794338e-02
  -1.76202495443e-01
  -1.72827214424e-01
  -1.68370070629e-01
  -1.62867138176e-01
  -1.56352484194e-01
  -1.48868945913e-01
  -1.40466008392e-01
  -1.31199734868e-01
  -1.21132841449e-01
  -1.10335001102e-01
  -9.88835989273e-02
  -8.68653931614e-02
  -7.43800704703e-02
  -6.15480012426e-02
  -4.85279841527e-02
  -3.55604983016e-02
  -2.30788327753e-02
  -1.19808446355e-02
  -4.00768529212e-03
  -5.86784234788e-04
  -2.58862056525e-05
  -3.03043921118e-07
  -9.53038570121e-10
  -2.60833352996e-13
  +6.27820028855e-13
  +6.28938288555e-13
  +6.32946702490e-13
  +6.38351788952e-13
  +5.87283513120e-13
  +6.50243817480e-13
  +5.98976865957e-13
  +6.61260670970e-13
  +6.09032003920e-13
  +6.70176968305e-13
  +6.16705684607e-13
  +6.76558250018e-13
  +6.21789299537e-13
  +6.80380429454e-13
  +6.24429748613e-13
  +6.81969804987e-13
  +6.25163701518e-13
  +6.82132700778e-13
  +6.25168379172e-13
  +6.82587767691e-13
  +6.26996614442e-13
  +6.87247813069e-13
  +6.36908239803e-13
  +7.06856580017e-13
  +6.75122429987e-13
  +8.42043840549e-13
  +1.11678890040e-09
  +6.63470862962e-06
  +9.73652997734e-03
  +5.82351598384e-02
  +4.59185447903e-02
  +3.29993446879e-02
  +2.07012244481e-02
  +1.00538383485e-02
  +2.95500465701e-03
  +3.48417559482e-04
  +1.18210669504e-05
  +1.06143796381e-07
  +2.57291853028e-10
  -3.98729258661e-13
  -6.27569038145e-13
  -5.72814435013e-13
  -5.77205389434e-13
  -5.82778652403e-13
  -6.45215111460e-13
  -6.51588759403e-13
  -6.57264824744e-13
  -6.61520719238e-13
  -6.67201614273e-13
  -6.71464664976e-13
  -6.74325457090e-13
  -6.76451153649e-13
  -6.79283414030e-13
  -6.79280614014e-13
  -6.80702982073e-13
  -6.81429624660e-13
  -6.80745006842e-13
  -6.82909054757e-13
  -6.81495981809e-13
  -6.81490758309e-13
  -6.84319697923e-13
  -6.87911599541e-13
  -6.95031163498e-13
  -7.11421209262e-13
  -7.39467938378e-13
  -1.19659135023e-12
  -6.99131678379e-09
  -3.24896968589e-05
  -2.62556450746e-02
  -5.61411715759e-02
  -4.33164624725e-02
  -3.04686322640e-02
  -1.83910258231e-02
  -8.27959210810e-03
  -2.10119559586e-03
  -1.96693273887e-04
  -5.11922189152e-06
  -3.52957458017e-08
  -6.57087563207e-11
  +5.85029376961e-13
  +6.17937574217e-13
  +6.20366923711e-13
  +6.25067326254e-13
  +6.30770466999e-13
  +5.99596648983e-13
  +6.06107488758e-13
  +6.10372506837e-13
  +6.16757922857e-13
  +6.21756102545e-13
  +6.23880582391e-13
  +6.28146921130e-13
  +6.29566315632e-13
  +6.33812721497e-13
  +6.33818552002e-13
  +6.35265695978e-13
  +6.35293160185e-13
  +6.36041876081e-13
  +6.36072758535e-13
  +6.34688119715e-13
  +6.34729404963e-13
  +6.36915212550e-13
  +6.42655384470e-13
  +6.49884618047e-13
  +6.67852462922e-13
  +7.01827065975e-13
  +4.17649815260e-12
  +4.17376835608e-08
  +1.51066028826e-04
  +4.61140550430e-02
  +5.36769043740e-02
  +4.07199887901e-02
  +2.79672204380e-02
  +1.61559609674e-02
  +6.69071231506e-03
  +1.43763416449e-03
  +1.05593203043e-04
  +2.10561673121e-06
  +1.11613652004e-08
  +1.56226897614e-11
  -5.73806136485e-13
  -5.79391696773e-13
  -5.82405914916e-13
  -5.87407382249e-13
  -6.33574462638e-13
  -6.38849662987e-13
  -6.45255104529e-13
  -6.50912063097e-13
  -6.55888197780e-13
  -6.59432625473e-13
  -6.64404529783e-13
  -6.67941499304e-13
  -6.69344579693e-13
  -6.71465294274e-13
  -6.72892248624e-13
  -6.73607108516e-13
  -6.72903374907e-13
  -6.73604731493e-13
  -6.73613154126e-13
  -6.74311567289e-13
  -6.75025065583e-13
  -6.77154943332e-13
  -6.82855446224e-13
  -6.92122030572e-13
  -7.11434970224e-13
  -7.51382169142e-13
  -2.54065164833e-11
  -2.37724200149e-07
  -6.66066677528e-04
  -5.68147314348e-02
  -5.11185382855e-02
  -3.81307444175e-02
  -2.55073227327e-02
  -1.40290950035e-02
  -5.25816680280e-03
  -9.40671066645e-04
  -5.37199016014e-05
  -8.20590544950e-07
  -3.34842800264e-09
  -3.15903555137e-12
  +5.80917343669e-13
  +5.82059337744e-13
  +6.21364983828e-13
  +6.26574295997e-13
  +5.96723066018e-13
  +6.03279162958e-13
  +6.08947008959e-13
  +6.14646744622e-13
  +6.18914324562e-13
  +6.21731140899e-13
  +6.26000074507e-13
  +6.30259270840e-13
  +6.31673906799e-13
  +6.33093577562e-13
</dep>
<dep dc_voltage.Vt time>
  +0.00000000000e+00
  +1.02854255560e-09
  +1.82840589232e-02
  +8.42532758217e-01
  +1.71671476088e+00
  +2.56903684827e+00
  +3.39421575446e+00
  +4.18714881414e+00
  +4.94294389700e+00
  +5.65695295404e+00
  +6.32480450310e+00
  +6.94243608973e+00
  +7.50612756705e+00
  +8.01253684639e+00
  +8.45874139998e+00
  +8.84229224714e+00
  +9.16129497540e+00
  +9.41455141826e+00
  +9.60184557132e+00
  +9.72459377525e+00
  +9.78741756237e+00
  +9.80127347881e+00
  +9.78638881383e+00
  +9.76282497153e+00
  +9.73835841464e+00
  +9.71392121464e+00
  +9.68954501369e+00
  +9.66522998188e+00
  +9.64097596685e+00
  +9.61678281492e+00
  +9.59265037282e+00
  +9.56857848579e+00
  +9.54456700781e+00
  +9.52061578350e+00
  +9.49672466262e+00
  +9.47289349434e+00
  +9.44912212821e+00
  +9.42541041417e+00
  +9.40175820252e+00
  +9.37816534395e+00
  +9.35463168952e+00
  +9.33115709065e+00
  +9.30774139916e+00
  +9.28438446722e+00
  +9.26108614738e+00
  +9.23784629256e+00
  +9.21466475605e+00
  +9.19154139149e+00
  +9.16847605292e+00
  +9.14546859486e+00
  +9.12251887205e+00
  +9.09962673949e+00
  +9.07679205265e+00
  +9.05401466821e+00
  +9.03129985915e+00
  +9.01619009491e+00
  +9.21788093111e+00
  +9.45727353429e+00
  +9.63148229861e+00
  +9.74173130258e+00
  +9.79366633084e+00
  +9.79988400491e+00
  +9.78197723776e+00
  +9.75798129957e+00
  +9.73350905302e+00
  +9.70908381493e+00
  +9.68471975255e+00
  +9.66041682952e+00
  +9.63617489249e+00
  +9.61199378819e+00
  +9.58787336392e+00
  +9.56381346621e+00
  +9.53981394370e+00
  +9.51587464582e+00
  +9.49199542144e+00
  +9.46817611980e+00
  +9.44441659055e+00
  +9.42071668367e+00
  +9.39707624956e+00
  +9.37349513898e+00
  +9.34997320306e+00
  +9.32651029330e+00
  +9.30310626159e+00
  +9.27976096017e+00
  +9.25647424167e+00
  +9.23324595908e+00
  +9.21007596575e+00
  +9.18696411542e+00
  +9.16391026219e+00
  +9.14091426051e+00
  +9.11797596520e+00
  +9.09509523364e+00
  +9.07227191772e+00
  +9.04950588051e+00
  +9.02682372221e+00
  +9.02896755192e+00
  +9.27072444978e+00
  +9.49735272868e+00
  +9.65853869519e+00
  +9.75650219920e+00
  +9.79801839834e+00
  +9.79751442272e+00
  +9.77735564246e+00
  +9.75311118501e+00
  +9.72864275151e+00
  +9.70422964486e+00
  +9.67987776315e+00
  +9.65558699072e+00
  +9.63135717388e+00
  +9.60718815887e+00
  +9.58307979377e+00
  +9.55903192460e+00
  +9.53504440076e+00
  +9.51111707144e+00
  +9.48724978558e+00
  +9.46344239251e+00
  +9.43969474193e+00
  +9.41600668393e+00
  +9.39237806897e+00
  +9.36880874787e+00
  +9.34529857184e+00
  +9.32184739247e+00
  +9.29845506171e+00
  +9.27512143188e+00
  +9.25184635568e+00
  +9.22862968617e+00
  +9.20547127679e+00
  +9.18237098134e+00
  +9.15932865399e+00
  +9.13634414926e+00
  +9.11341732207e+00
  +9.09054803025e+00
  +9.06773612734e+00
  +9.04498149681e+00
  +9.02242411529e+00
  +9.06114300242e+00
  +9.32124729165e+00
  +9.53480115855e+00
  +9.68305212376e+00
  +9.76898875344e+00
  +9.80047987963e+00
  +9.79428543840e+00
  +9.77252259063e+00
  +9.74814705717e+00
  +9.72368736721e+00
  +9.69928666890e+00
  +9.67494719132e+00
  +9.65066879182e+00
  +9.62645131606e+00
  +9.60229461181e+00
  +9.57819852473e+00
  +9.55416290402e+00
  +9.53018759851e+00
  +9.50627245687e+00
  +9.48241732810e+00
  +9.45862206161e+00
  +9.43488650719e+00
  +9.41121051499e+00
  +9.38759393555e+00
  +9.36403661977e+00
  +9.34053841894e+00
  +9.31709918471e+00
  +9.29371876912e+00
  +9.27039702456e+00
  +9.24713380380e+00
  +9.22392895999e+00
  +9.20078234663e+00
  +9.17769381759e+00
  +9.15466322713e+00
  +9.13169042985e+00
  +9.10877528071e+00
  +9.08591763796e+00
  +9.06311735458e+00
  +9.04037444888e+00
  +9.01814231030e+00
  +9.10917700204e+00
  +9.36920730822e+00
  +9.56963131601e+00
  +9.70504460915e+00
  +9.77920619936e+00
  +9.80151649482e+00
  +9.79052074863e+00
  +9.76766691613e+00
  +9.74322739304e+00
  +9.71877860975e+00
  +9.69439022183e+00
  +9.67006303128e+00
  +9.64579688825e+00
  +9.62159163873e+00
  +9.59744712942e+00
  +9.57336320641e+00
  +9.54933971938e+00
  +9.52537651711e+00
  +9.50147344833e+00
  +9.47763036213e+00
  +9.45384710800e+00
  +9.43012353579e+00
  +9.40645949573e+00
  +9.38285483843e+00
  +9.35930941488e+00
</dep>
<dep _net3.Vt time>
  +0.00000000000e+00
  +1.81360854437e+01
  +3.61592298825e+01
  +5.39571956422e+01
  +7.14191473311e+01
  +8.84363420574e+01
  +1.04902806618e+02
  +1.20715997436e+02
  +1.35777439145e+02
  +1.49993337836e+02
  +1.63275165150e+02
  +1.75540209581e+02
  +1.86712091557e+02
  +1.96721239087e+02
  +2.05505321014e+02
  +2.13009635180e+02
  +2.19187449074e+02
  +2.24000290860e+02
  +2.27418188955e+02
  +2.29419858676e+02
  +2.29992834786e+02
  +2.29133549122e+02
  +2.26847352818e+02
  +2.23148482974e+02
  +2.18059974005e+02
  +2.11613514188e+02
  +2.03849248329e+02
  +1.94815527768e+02
  +1.84568609266e+02
  +1.73172304682e+02
  +1.60697583578e+02
  +1.47222131273e+02
  +1.32829865055e+02
  +1.17610411598e+02
  +1.01658548816e+02
  +8.50736156458e+01
  +6.79588934160e+01
  +5.04209626750e+01
  +3.25690394677e+01
  +1.45142952019e+01
  -3.63083566314e+00
  -2.17533557928e+01
  -3.97404086590e+01
  -5.74799813452e+01
  -7.48616020973e+01
  -9.17770282784e+01
  -1.08120920440e+02
  -1.23791498317e+02
  -1.38691174651e+02
  -1.52727162915e+02
  -1.65812055127e+02
  -1.77864366180e+02
  -1.88809041280e+02
  -1.98577923349e+02
  -2.07110177465e+02
  -2.14352669705e+02
  -2.20260298035e+02
  -2.24796273176e+02
  -2.27932347712e+02
  -2.29648991991e+02
  -2.29935515749e+02
  -2.28790134685e+02
  -2.26219981564e+02
  -2.22241061809e+02
  -2.16878153820e+02
  -2.10164654672e+02
  -2.02142372138e+02
  -1.92861264335e+02
  -1.82379128609e+02
  -1.70761241614e+02
  -1.58079952800e+02
  -1.44414233868e+02
  -1.29849186978e+02
  -1.14475514779e+02
  -9.83889555733e+01
  -8.16896871057e+01
  -6.44817027199e+01
  -4.68721637467e+01
  -2.89707321656e+01
  -1.08888876935e+01
  +7.26076644591e+00
  +2.53652047496e+01
  +4.33116832926e+01
  +6.09884418317e+01
  +7.82853997829e+01
  +9.50948417400e+01
  +1.11312088263e+02
  +1.26836147761e+02
  +1.41570345409e+02
  +1.55422925183e+02
  +1.68307621264e+02
  +1.80144195249e+02
  +1.90858935831e+02
  +2.00385117830e+02
  +2.08663417717e+02
  +2.15642283051e+02
  +2.21278253512e+02
  +2.25536231549e+02
  +2.28389700949e+02
  +2.29820891962e+02
  +2.29820891962e+02
  +2.28389700949e+02
  +2.25536231549e+02
  +2.21278253512e+02
  +2.15642283051e+02
  +2.08663417717e+02
  +2.00385117830e+02
  +1.90858935831e+02
  +1.80144195249e+02
  +1.68307621264e+02
  +1.55422925183e+02
  +1.41570345409e+02
  +1.26836147761e+02
  +1.11312088263e+02
  +9.50948417400e+01
  +7.82853997829e+01
  +6.09884418317e+01
  +4.33116832926e+01
  +2.53652047496e+01
  +7.26076644591e+00
  -1.08888876935e+01
  -2.89707321656e+01
  -4.68721637467e+01
  -6.44817027199e+01
  -8.16896871057e+01
  -9.83889555733e+01
  -1.14475514779e+02
  -1.29849186978e+02
  -1.44414233868e+02
  -1.58079952800e+02
  -1.70761241614e+02
  -1.82379128609e+02
  -1.92861264335e+02
  -2.02142372138e+02
  -2.10164654672e+02
  -2.16878153820e+02
  -2.22241061809e+02
  -2.26219981564e+02
  -2.28790134685e+02
  -2.29935515749e+02
  -2.29648991991e+02
  -2.27932347712e+02
  -2.24796273176e+02
  -2.20260298035e+02
  -2.14352669705e+02
  -2.07110177465e+02
  -1.98577923349e+02
  -1.88809041280e+02
  -1.77864366180e+02
  -1.65812055127e+02
  -1.52727162915e+02
  -1.38691174651e+02
  -1.23791498317e+02
  -1.08120920440e+02
  -9.17770282784e+01
  -7.48616020973e+01
  -5.74799813452e+01
  -3.97404086590e+01
  -2.17533557928e+01
  -3.63083566314e+00
  +1.45142952019e+01
  +3.25690394677e+01
  +5.04209626750e+01
  +6.79588934160e+01
  +8.50736156458e+01
  +1.01658548816e+02
  +1.17610411598e+02
  +1.32829865055e+02
  +1.47222131273e+02
  +1.60697583578e+02
  +1.73172304682e+02
  +1.84568609266e+02
  +1.94815527768e+02
  +2.03849248329e+02
  +2.11613514188e+02
  +2.18059974005e+02
  +2.23148482974e+02
  +2.26847352818e+02
  +2.29133549122e+02
  +2.29992834786e+02
  +2.29419858676e+02
  +2.27418188955e+02
  +2.24000290860e+02
  +2.19187449074e+02
  +2.13009635180e+02
  +2.05505321014e+02
  +1.96721239087e+02
  +1.86712091557e+02
  +1.75540209581e+02
  +1.63275165150e+02
  +1.49993337836e+02
  +1.35777439145e+02
  +1.20715997436e+02
  +1.04902806618e+02
  +8.84363420574e+01
  +7.14191473311e+01
  +5.39571956422e+01
  +3.61592298825e+01
  +1.81360854437e+01
  -2.67727691160e-13
</dep>
<dep _net2.Vt time>
  +0.00000000000e+00
  +1.81360854427e+01
  +3.61329564428e+01
  +5.38690943945e+01
  +7.13327337238e+01
  +8.83521570220e+01
  +1.04821373049e+02
  +1.20637821194e+02
  +1.35703004672e+02
  +1.49923104832e+02
  +1.63209565283e+02
  +1.75479643160e+02
  +1.86656924056e+02
  +1.96671797287e+02
  +2.05461888318e+02
  +2.12972445145e+02
  +2.19156675073e+02
  +2.23976026868e+02
  +2.27400408706e+02
  +2.29408319259e+02
  +2.29986844363e+02
  +2.29131545280e+02
  +2.26847059426e+02
  +2.23148470031e+02
  +2.18059973854e+02
  +2.11613514187e+02
  +2.03849248329e+02
  +1.94815527768e+02
  +1.84568609266e+02
  +1.73172304682e+02
  +1.60697583578e+02
  +1.47222131273e+02
  +1.32829865055e+02
  +1.17610411598e+02
  +1.01658548816e+02
  +8.50736156458e+01
  +6.79588934160e+01
  +5.04209626750e+01
  +3.25690394677e+01
  +1.45142952019e+01
  -3.63083566314e+00
  -2.17533557928e+01
  -3.97404086590e+01
  -5.74799813452e+01
  -7.48616020973e+01
  -9.17770282784e+01
  -1.08120920440e+02
  -1.23791498317e+02
  -1.38691174651e+02
  -1.52727162915e+02
  -1.65812055127e+02
  -1.77864366180e+02
  -1.88809041280e+02
  -1.98577923349e+02
  -2.07110174148e+02
  -2.14347801440e+02
  -2.20231180455e+02
  -2.24773313904e+02
  -2.27915848039e+02
  -2.29638641378e+02
  -2.29930488830e+02
  -2.28788657182e+02
  -2.26219807356e+02
  -2.22241055898e+02
  -2.16878153766e+02
  -2.10164654671e+02
  -2.02142372138e+02
  -1.92861264335e+02
  -1.82379128609e+02
  -1.70761241614e+02
  -1.58079952800e+02
  -1.44414233868e+02
  -1.29849186978e+02
  -1.14475514779e+02
  -9.83889555733e+01
  -8.16896871057e+01
  -6.44817027199e+01
  -4.68721637467e+01
  -2.89707321656e+01
  -1.08888876935e+01
  +7.26076644591e+00
  +2.53652047496e+01
  +4.33116832926e+01
  +6.09884418317e+01
  +7.82853997829e+01
  +9.50948417400e+01
  +1.11312088263e+02
  +1.26836147761e+02
  +1.41570345409e+02
  +1.55422925183e+02
  +1.68307621264e+02
  +1.80144195249e+02
  +1.90858935831e+02
  +2.00385117826e+02
  +2.08663401473e+02
  +2.15629155229e+02
  +2.21250182926e+02
  +2.25514573318e+02
  +2.28374466633e+02
  +2.29811696449e+02
  +2.29816752166e+02
  +2.28388650351e+02
  +2.25536133202e+02
  +2.21278250952e+02
  +2.15642283034e+02
  +2.08663417717e+02
  +2.00385117830e+02
  +1.90858935831e+02
  +1.80144195249e+02
  +1.68307621264e+02
  +1.55422925183e+02
  +1.41570345409e+02
  +1.26836147761e+02
  +1.11312088263e+02
  +9.50948417400e+01
  +7.82853997829e+01
  +6.09884418317e+01
  +4.33116832926e+01
  +2.53652047496e+01
  +7.26076644591e+00
  -1.08888876935e+01
  -2.89707321656e+01
  -4.68721637467e+01
  -6.44817027199e+01
  -8.16896871057e+01
  -9.83889555733e+01
  -1.14475514779e+02
  -1.29849186978e+02
  -1.44414233868e+02
  -1.58079952800e+02
  -1.70761241614e+02
  -1.82379128609e+02
  -1.92861264335e+02
  -2.02142372117e+02
  -2.10164579139e+02
  -2.16855096792e+02
  -2.22214223357e+02
  -2.26199621570e+02
  -2.28776151075e+02
  -2.29927437769e+02
  -2.29645646635e+02
  -2.27931628895e+02
  -2.24796220380e+02
  -2.20260296982e+02
  -2.14352669699e+02
