<Qucs Dataset 0.0.17>
<indep time 300>
  +0.00000000000e+00
  +1.00334448161e-04
  +2.00668896321e-04
  +3.01003344482e-04
  +4.01337792642e-04
  +5.01672240803e-04
  +6.02006688963e-04
  +7.02341137124e-04
  +8.02675585284e-04
  +9.03010033445e-04
  +1.00334448161e-03
  +1.10367892977e-03
  +1.20401337793e-03
  +1.30434782609e-03
  +1.40468227425e-03
  +1.50501672241e-03
  +1.60535117057e-03
  +1.70568561873e-03
  +1.80602006689e-03
  +1.90635451505e-03
  +2.00668896321e-03
  +2.10702341137e-03
  +2.20735785953e-03
  +2.30769230769e-03
  +2.40802675585e-03
  +2.50836120401e-03
  +2.60869565217e-03
  +2.70903010033e-03
  +2.80936454849e-03
  +2.90969899666e-03
  +3.01003344482e-03
  +3.11036789298e-03
  +3.21070234114e-03
  +3.31103678930e-03
  +3.41137123746e-03
  +3.51170568562e-03
  +3.61204013378e-03
  +3.71237458194e-03
  +3.81270903010e-03
  +3.91304347826e-03
  +4.01337792642e-03
  +4.11371237458e-03
  +4.21404682274e-03
  +4.31438127090e-03
  +4.41471571906e-03
  +4.51505016722e-03
  +4.61538461538e-03
  +4.71571906355e-03
  +4.81605351171e-03
  +4.91638795987e-03
  +5.01672240803e-03
  +5.11705685619e-03
  +5.21739130435e-03
  +5.31772575251e-03
  +5.41806020067e-03
  +5.51839464883e-03
  +5.61872909699e-03
  +5.71906354515e-03
  +5.81939799331e-03
  +5.91973244147e-03
  +6.02006688963e-03
  +6.12040133779e-03
  +6.22073578595e-03
  +6.32107023411e-03
  +6.42140468227e-03
  +6.52173913043e-03
  +6.62207357860e-03
  +6.72240802676e-03
  +6.82274247492e-03
  +6.92307692308e-03
  +7.02341137124e-03
  +7.12374581940e-03
  +7.22408026756e-03
  +7.32441471572e-03
  +7.42474916388e-03
  +7.52508361204e-03
  +7.62541806020e-03
  +7.72575250836e-03
  +7.82608695652e-03
  +7.92642140468e-03
  +8.02675585284e-03
  +8.12709030100e-03
  +8.22742474916e-03
  +8.32775919732e-03
  +8.42809364548e-03
  +8.52842809365e-03
  +8.62876254181e-03
  +8.72909698997e-03
  +8.82943143813e-03
  +8.92976588629e-03
  +9.03010033445e-03
  +9.13043478261e-03
  +9.23076923077e-03
  +9.33110367893e-03
  +9.43143812709e-03
  +9.53177257525e-03
  +9.63210702341e-03
  +9.73244147157e-03
  +9.83277591973e-03
  +9.93311036789e-03
  +1.00334448161e-02
  +1.01337792642e-02
  +1.02341137124e-02
  +1.03344481605e-02
  +1.04347826087e-02
  +1.05351170569e-02
  +1.06354515050e-02
  +1.07357859532e-02
  +1.08361204013e-02
  +1.09364548495e-02
  +1.10367892977e-02
  +1.11371237458e-02
  +1.12374581940e-02
  +1.13377926421e-02
  +1.14381270903e-02
  +1.15384615385e-02
  +1.16387959866e-02
  +1.17391304348e-02
  +1.18394648829e-02
  +1.19397993311e-02
  +1.20401337793e-02
  +1.21404682274e-02
  +1.22408026756e-02
  +1.23411371237e-02
  +1.24414715719e-02
  +1.25418060201e-02
  +1.26421404682e-02
  +1.27424749164e-02
  +1.28428093645e-02
  +1.29431438127e-02
  +1.30434782609e-02
  +1.31438127090e-02
  +1.32441471572e-02
  +1.33444816054e-02
  +1.34448160535e-02
  +1.35451505017e-02
  +1.36454849498e-02
  +1.37458193980e-02
  +1.38461538462e-02
  +1.39464882943e-02
  +1.40468227425e-02
  +1.41471571906e-02
  +1.42474916388e-02
  +1.43478260870e-02
  +1.44481605351e-02
  +1.45484949833e-02
  +1.46488294314e-02
  +1.47491638796e-02
  +1.48494983278e-02
  +1.49498327759e-02
  +1.50501672241e-02
  +1.51505016722e-02
  +1.52508361204e-02
  +1.53511705686e-02
  +1.54515050167e-02
  +1.55518394649e-02
  +1.56521739130e-02
  +1.57525083612e-02
  +1.58528428094e-02
  +1.59531772575e-02
  +1.60535117057e-02
  +1.61538461538e-02
  +1.62541806020e-02
  +1.63545150502e-02
  +1.64548494983e-02
  +1.65551839465e-02
  +1.66555183946e-02
  +1.67558528428e-02
  +1.68561872910e-02
  +1.69565217391e-02
  +1.70568561873e-02
  +1.71571906355e-02
  +1.72575250836e-02
  +1.73578595318e-02
  +1.74581939799e-02
  +1.75585284281e-02
  +1.76588628763e-02
  +1.77591973244e-02
  +1.78595317726e-02
  +1.79598662207e-02
  +1.80602006689e-02
  +1.81605351171e-02
  +1.82608695652e-02
  +1.83612040134e-02
  +1.84615384615e-02
  +1.85618729097e-02
  +1.86622073579e-02
  +1.87625418060e-02
  +1.88628762542e-02
  +1.89632107023e-02
  +1.90635451505e-02
  +1.91638795987e-02
  +1.92642140468e-02
  +1.93645484950e-02
  +1.94648829431e-02
  +1.95652173913e-02
  +1.96655518395e-02
  +1.97658862876e-02
  +1.98662207358e-02
  +1.99665551839e-02
  +2.00668896321e-02
  +2.01672240803e-02
  +2.02675585284e-02
  +2.03678929766e-02
  +2.04682274247e-02
  +2.05685618729e-02
  +2.06688963211e-02
  +2.07692307692e-02
  +2.08695652174e-02
  +2.09698996656e-02
  +2.10702341137e-02
  +2.11705685619e-02
  +2.12709030100e-02
  +2.13712374582e-02
  +2.14715719064e-02
  +2.15719063545e-02
  +2.16722408027e-02
  +2.17725752508e-02
  +2.18729096990e-02
  +2.19732441472e-02
  +2.20735785953e-02
  +2.21739130435e-02
  +2.22742474916e-02
  +2.23745819398e-02
  +2.24749163880e-02
  +2.25752508361e-02
  +2.26755852843e-02
  +2.27759197324e-02
  +2.28762541806e-02
  +2.29765886288e-02
  +2.30769230769e-02
  +2.31772575251e-02
  +2.32775919732e-02
  +2.33779264214e-02
  +2.34782608696e-02
  +2.35785953177e-02
  +2.36789297659e-02
  +2.37792642140e-02
  +2.38795986622e-02
  +2.39799331104e-02
  +2.40802675585e-02
  +2.41806020067e-02
  +2.42809364548e-02
  +2.43812709030e-02
  +2.44816053512e-02
  +2.45819397993e-02
  +2.46822742475e-02
  +2.47826086957e-02
  +2.48829431438e-02
  +2.49832775920e-02
  +2.50836120401e-02
  +2.51839464883e-02
  +2.52842809365e-02
  +2.53846153846e-02
  +2.54849498328e-02
  +2.55852842809e-02
  +2.56856187291e-02
  +2.57859531773e-02
  +2.58862876254e-02
  +2.59866220736e-02
  +2.60869565217e-02
  +2.61872909699e-02
  +2.62876254181e-02
  +2.63879598662e-02
  +2.64882943144e-02
  +2.65886287625e-02
  +2.66889632107e-02
  +2.67892976589e-02
  +2.68896321070e-02
  +2.69899665552e-02
  +2.70903010033e-02
  +2.71906354515e-02
  +2.72909698997e-02
  +2.73913043478e-02
  +2.74916387960e-02
  +2.75919732441e-02
  +2.76923076923e-02
  +2.77926421405e-02
  +2.78929765886e-02
  +2.79933110368e-02
  +2.80936454849e-02
  +2.81939799331e-02
  +2.82943143813e-02
  +2.83946488294e-02
  +2.84949832776e-02
  +2.85953177258e-02
  +2.86956521739e-02
  +2.87959866221e-02
  +2.88963210702e-02
  +2.89966555184e-02
  +2.90969899666e-02
  +2.91973244147e-02
  +2.92976588629e-02
  +2.93979933110e-02
  +2.94983277592e-02
  +2.95986622074e-02
  +2.96989966555e-02
  +2.97993311037e-02
  +2.98996655518e-02
  +3.00000000000e-02
</indep>
<dep V1.It time>
  +0.00000000000e+00
  -2.55051105632e-02
  -9.93696735682e-03
  +6.49916419706e-10
  +1.69696482758e-02
  +6.28227240655e-02
  +5.07169962613e-02
  +1.93924287738e-02
  -6.55212081745e-10
  -1.28562469291e-02
  -3.14364382545e-02
  -2.51600789640e-02
  -9.35691914101e-03
  +9.18248674722e-10
  +1.72162463800e-02
  +2.09117618629e-02
  +1.65681000565e-02
  +1.81622055776e-02
  -6.38422514338e-10
  -1.30724473974e-02
  -1.57537495193e-02
  -2.47799752527e-02
  -8.75866408976e-03
  +1.15216125252e-09
  +5.01181351917e-09
  +2.08733610332e-02
  +1.62784093656e-02
  +1.69274101761e-02
  +3.50919189498e-10
  -1.20094043161e-05
  -1.57545883100e-02
  -2.43263635764e-02
  -8.15657710984e-03
  +1.02350942639e-09
  +4.02022821565e-10
  +2.08380244279e-02
  +1.59856363311e-02
  +1.56913290067e-02
  +3.41776535750e-10
  +2.42718606881e-11
  -1.57410913337e-02
  -2.40230723509e-02
  -7.55130515742e-03
  -8.31955762679e-10
  +2.17940999312e-09
  +2.07961358509e-02
  +1.56911818783e-02
  +1.44547902902e-02
  +3.47097972099e-10
  +1.17287194899e-10
  -1.57236749656e-02
  -2.28768513060e-02
  -6.94454158920e-03
  +1.70999036366e-09
  -3.95733008891e-10
  +1.66914774354e-02
  +1.53897237420e-02
  +1.32186592142e-02
  -2.26999138452e-09
  -2.45879559390e-09
  -1.56956230038e-02
  -2.20013473671e-02
  -6.33679741238e-03
  +1.87077549166e-09
  +2.01993842626e-09
  +1.15368987731e-08
  +1.50830800050e-02
  +1.19885731998e-02
  -1.55751005524e-09
  +2.16998814569e-10
  -6.00054979707e-03
  -2.49655957745e-02
  -5.77397192824e-03
  +1.73153103342e-09
  +1.86646941735e-09
  +2.15410428267e-09
  +1.47723781422e-02
  +1.07658493008e-02
  +7.32224946853e-10
  -2.05681249858e-09
  -2.52555966255e-09
  -2.17484321118e-02
  -5.12165708255e-03
  -6.98782292751e-10
  -5.74670747657e-10
  -3.82605799642e-10
  +1.44547698413e-02
  +9.55171164016e-03
  +7.93110176562e-10
  +6.59076902598e-10
  +3.60964920323e-10
  -1.64681020862e-02
  -4.53244900080e-03
  +1.60517124296e-09
  +1.72135523676e-09
  +1.86859440631e-09
  +1.41308398796e-02
  +8.35683377656e-03
  +6.25689889869e-10
  -1.93359020942e-09
  +2.84633397149e-10
  -1.11809663264e-02
  -3.94331219145e-03
  +2.29725711861e-09
  +2.40541978111e-09
  -9.07434389671e-10
  +1.38030766597e-02
  +7.18386954334e-03
  +1.21814640401e-09
  -2.52200985030e-09
  -2.69464206945e-09
  -1.05732078417e-02
  -3.36408594965e-03
  +2.44012944514e-09
  +2.54197779487e-09
  +2.63822018908e-09
  +1.34690084843e-02
  +6.03636894424e-03
  +1.31873502032e-09
  -2.62037904511e-09
  +1.06566449787e-09
  -1.05394703314e-02
  -2.70419020523e-03
  -8.03798617806e-10
  -7.06809372906e-10
  -6.25052170136e-10
  +1.31302895297e-02
  +4.94078350249e-03
  -2.02193735087e-09
  +7.21140492827e-10
  +5.97658923585e-10
  -9.43501494336e-03
  -2.27331480664e-03
  -7.13007282243e-10
  +1.98732982953e-09
  -5.49830897152e-10
  +1.27855207673e-02
  +3.90103368678e-03
  +7.47169316474e-10
  +6.49390507934e-10
  -2.15724763592e-09
  -1.06326980549e-02
  -1.76620517499e-03
  -3.51586945178e-10
  +1.62825045037e-09
  -2.02476447265e-10
  +1.24359108051e-02
  +2.94440129749e-03
  +3.55730485954e-10
  +2.62498559539e-10
  +1.65777567746e-10
  -8.10437983332e-03
  -1.31566152613e-03
  +1.17816192892e-09
  +1.26174009550e-09
  +1.31621973906e-09
  +1.20814391447e-02
  +2.09161197955e-03
  -1.50476408318e-11
  -1.04215682472e-10
  -1.37659773342e-09
  -1.03872345298e-02
  -9.05619918000e-04
  +1.53853085686e-09
  -2.57384492916e-10
  +1.66699945753e-09
  +1.17218419892e-02
  +1.38061628594e-03
  -1.56314114405e-09
  +2.58022288901e-10
  -1.73028149486e-09
  -8.98832871293e-03
  -5.91896114176e-04
  -2.55274019112e-10
  +1.53881014333e-09
  +1.58211323144e-09
  +1.13575427037e-02
  +8.20312293307e-04
  +2.67038246204e-10
  +1.84948879396e-10
  +1.09776372674e-10
  -8.51952151621e-03
  -3.38074804099e-04
  -2.19453154801e-10
  +1.50607679977e-09
  +1.54518178130e-09
  +1.09886219535e-02
  +4.37810981540e-04
  -1.45944370988e-09
  +1.49511318573e-10
  -1.60990085044e-09
  -9.92732235058e-03
  -1.68847441315e-04
  +1.28436031245e-10
  +1.99294297174e-10
  +2.34402760060e-10
  +1.06153191432e-02
  +2.04837044628e-04
  -1.47139511983e-10
  -1.16557444333e-09
  -2.90479680104e-10
  -7.43228869757e-03
  -7.50584289857e-05
  +1.36170552728e-09
  +1.42977634852e-09
  +1.46169459398e-09
  +1.02377395533e-02
  +8.29828721825e-05
  -1.35960544235e-09
  -1.43306618562e-09
  -1.49719270847e-09
  -7.74455093180e-03
  -3.00295627147e-05
  -6.13995631964e-12
  +5.92547453703e-11
  +8.84551674095e-11
  +9.85604534033e-03
  +2.84264276192e-05
  +5.32250772398e-12
  -1.32411118559e-09
  -1.38576613960e-09
  -5.81119076672e-03
  -8.91753038751e-06
  -2.77971327792e-10
  +1.57644622060e-09
  -1.87664618757e-10
  +9.47044206708e-03
  +8.26108198738e-06
  -1.51176919354e-09
  +1.89874949402e-10
  -1.64178782478e-09
  -6.63182333023e-03
  -2.71867047340e-06
  +1.68032711499e-09
  +1.74101734225e-09
  +1.76614221956e-09
  +9.08115225393e-03
  +2.02726448664e-06
  -1.67816925493e-09
  -1.74444261603e-09
  -1.80538744696e-09
  -7.59851860203e-03
  -5.95892165078e-07
  -6.51458066078e-10
  -5.93177139828e-10
  +1.97994800619e-09
  +8.68833617032e-03
  +4.20144199410e-07
  -1.90668150741e-09
  +5.78258161641e-10
  +5.17334961438e-10
  -8.52533755699e-03
  -1.32339199310e-07
  +2.18821179739e-09
  +2.24388680193e-09
  -8.57829837111e-10
  +8.29242353181e-03
  +7.52215984591e-08
  +9.23796834446e-10
  -2.25544971981e-09
  -2.31665441251e-09
  -1.05551365902e-02
  -2.13779472840e-08
  -1.15325409665e-09
  +2.46398008825e-09
  -1.07790121693e-09
  +7.89364035805e-03
  +1.22996338400e-08
  -2.42123338959e-09
  +1.08628252495e-09
  -2.54422462376e-09
  -1.01650942781e-02
  -4.27440847017e-09
  +2.28429234504e-09
  -9.70291617849e-10
  +2.35655776909e-09
  +7.49426660678e-03
  +2.52501573027e-09
  -2.29084165808e-09
  +9.52502607348e-10
  -2.41454092103e-09
  -9.52189842855e-03
  -1.65743280102e-09
  -1.15675483499e-09
  -1.10736318822e-09
  -1.08713363517e-09
  +7.10306459181e-03
  +1.41799582322e-09
  +1.15319283483e-09
  +1.09680162532e-09
  +1.02754995748e-09
  -1.05228023938e-02
  +2.11057881759e-09
  +2.26992449289e-09
  +2.31713854513e-09
  +2.33789349354e-09
  +6.76521285600e-03
  -2.14591654010e-09
  -2.27214522412e-09
  -2.32674172466e-09
</dep>
<dep _net3.Vt time>
  +0.00000000000e+00
  +5.89484021371e+00
  +9.52346849460e+00
  +9.49089525655e+00
  +5.80964295276e+00
  -1.05068055189e-01
  -5.97938670783e+00
  -9.55499037974e+00
  -9.45727426154e+00
  -5.72380433042e+00
  +2.10124511285e-01
  +6.06327310152e+00
  +9.58545743208e+00
  +9.42260922119e+00
  +5.63733382292e+00
  -3.15157770473e-01
  -6.14649013405e+00
  -9.61486628817e+00
  -9.38690396239e+00
  -5.55024097626e+00
  +4.20156237501e-01
  +6.22902861861e+00
  +9.64321370139e+00
  +9.35016242685e+00
  +5.46253540516e+00
  -5.25108320957e-01
  -6.31087944326e+00
  -9.67049654231e+00
  -9.31238867070e+00
  -5.37422679194e+00
  +6.30002434550e-01
  +6.39203357201e+00
  +9.69671179900e+00
  +9.27358686401e+00
  +5.28532488553e+00
  -7.34826998388e-01
  -6.47248204577e+00
  -9.72185657741e+00
  -9.23376129034e+00
  -5.19583950035e+00
  +8.39570440259e-01
  +6.55221598333e+00
  +9.74592810166e+00
  +9.19291634627e+00
  +5.10578051523e+00
  -9.44221196904e-01
  -6.63122658241e+00
  -9.76892371434e+00
  -9.15105654093e+00
  -5.01515787231e+00
  +1.04876771530e+00
  +6.70950512053e+00
  +9.79084087682e+00
  +9.10818649546e+00
  +4.92398157598e+00
  -1.15319845392e+00
  -6.78704295607e+00
  -9.81167716955e+00
  -9.06431094256e+00
  -4.83226169174e+00
  +1.25750188404e+00
  +6.86383152915e+00
  +9.83143029228e+00
  +9.01943472590e+00
  +4.74000834509e+00
  -1.36166649096e+00
  -6.93986236262e+00
  -9.85009806434e+00
  -8.97356279965e+00
  -4.64723172044e+00
  +1.46568077534e+00
  +7.01512706299e+00
  +9.86767842489e+00
  +8.92670022788e+00
  +4.55394205995e+00
  -1.56953325441e+00
  -7.08961732132e+00
  -9.88416943311e+00
  -8.87885218402e+00
  -4.46014966243e+00
  +1.67321246328e+00
  +7.16332491420e+00
  +9.89956926849e+00
  +8.83002395033e+00
  +4.36586488219e+00
  -1.77670695617e+00
  -7.23624170459e+00
  -9.91387623092e+00
  -8.78022091722e+00
  -4.27109812789e+00
  +1.88000530770e+00
  +7.30835964278e+00
  +9.92708874098e+00
  +8.72944858277e+00
  +4.17585986141e+00
  -1.98309611414e+00
  -7.37967076723e+00
  -9.93920534006e+00
  -8.67771255204e+00
  -4.08016059666e+00
  +2.08596799469e+00
  +7.45016720549e+00
  +9.95022469055e+00
  +8.62501853647e+00
  +3.98401089846e+00
  -2.18860959270e+00
  -7.51984117501e+00
  -9.96014557593e+00
  -8.57137235328e+00
  -3.88742138136e+00
  +2.29100957695e+00
  +7.58868498408e+00
  +9.96896690100e+00
  +8.51677992479e+00
  +3.79040270846e+00
  -2.39315664288e+00
  -7.65669103262e+00
  -9.97668769191e+00
  -8.46124727779e+00
  -3.69296559022e+00
  +2.49503951386e+00
  +7.72385181302e+00
  +9.98330709631e+00
  +8.40478054285e+00
  +3.59512078333e+00
  -2.59664694245e+00
  -7.79015991101e+00
  -9.98882438345e+00
  -8.34738595369e+00
  -3.49687908944e+00
  +2.69796771157e+00
  +7.85560800644e+00
  +9.99323894424e+00
  +8.28906984643e+00
  +3.39825135406e+00
  -2.79899063583e+00
  -7.92018887409e+00
  -9.99655029134e+00
  -8.22983865894e+00
  -3.29924846529e+00
  +2.89970456269e+00
  +7.98389538450e+00
  +9.99875805918e+00
  +8.16969893010e+00
  +3.19988135266e+00
  -3.00009837374e+00
  -8.04672050472e+00
  -9.99986200404e+00
  -8.10865729912e+00
  -3.10016098590e+00
  +3.10016098590e+00
  +8.10865729912e+00
  +9.99986200404e+00
  +8.04672050472e+00
  +3.00009837374e+00
  -3.19988135266e+00
  -8.16969893010e+00
  -9.99875805918e+00
  -7.98389538450e+00
  -2.89970456269e+00
  +3.29924846529e+00
  +8.22983865894e+00
  +9.99655029134e+00
  +7.92018887409e+00
  +2.79899063583e+00
  -3.39825135406e+00
  -8.28906984643e+00
  -9.99323894424e+00
  -7.85560800644e+00
  -2.69796771157e+00
  +3.49687908944e+00
  +8.34738595369e+00
  +9.98882438345e+00
  +7.79015991101e+00
  +2.59664694245e+00
  -3.59512078332e+00
  -8.40478054285e+00
  -9.98330709631e+00
  -7.72385181302e+00
  -2.49503951386e+00
  +3.69296559022e+00
  +8.46124727779e+00
  +9.97668769191e+00
  +7.65669103262e+00
  +2.39315664288e+00
  -3.79040270846e+00
  -8.51677992479e+00
  -9.96896690100e+00
  -7.58868498408e+00
  -2.29100957695e+00
  +3.88742138136e+00
  +8.57137235328e+00
  +9.96014557593e+00
  +7.51984117501e+00
  +2.18860959270e+00
  -3.98401089846e+00
  -8.62501853647e+00
  -9.95022469055e+00
  -7.45016720549e+00
  -2.08596799469e+00
  +4.08016059666e+00
  +8.67771255204e+00
  +9.93920534006e+00
  +7.37967076723e+00
  +1.98309611414e+00
  -4.17585986141e+00
  -8.72944858277e+00
  -9.92708874098e+00
  -7.30835964278e+00
  -1.88000530770e+00
  +4.27109812789e+00
  +8.78022091722e+00
  +9.91387623092e+00
  +7.23624170459e+00
  +1.77670695617e+00
  -4.36586488219e+00
  -8.83002395033e+00
  -9.89956926849e+00
  -7.16332491420e+00
  -1.67321246328e+00
  +4.46014966243e+00
  +8.87885218402e+00
  +9.88416943311e+00
  +7.08961732132e+00
  +1.56953325442e+00
  -4.55394205995e+00
  -8.92670022788e+00
  -9.86767842489e+00
  -7.01512706299e+00
  -1.46568077534e+00
  +4.64723172044e+00
  +8.97356279965e+00
  +9.85009806434e+00
  +6.93986236262e+00
  +1.36166649096e+00
  -4.74000834509e+00
  -9.01943472590e+00
  -9.83143029228e+00
  -6.86383152915e+00
  -1.25750188404e+00
  +4.83226169174e+00
  +9.06431094256e+00
  +9.81167716955e+00
  +6.78704295607e+00
  +1.15319845392e+00
  -4.92398157598e+00
  -9.10818649546e+00
  -9.79084087682e+00
  -6.70950512053e+00
  -1.04876771530e+00
  +5.01515787231e+00
  +9.15105654093e+00
  +9.76892371434e+00
  +6.63122658241e+00
  +9.44221196904e-01
  -5.10578051523e+00
  -9.19291634627e+00
  -9.74592810166e+00
  -6.55221598333e+00
  -8.39570440260e-01
  +5.19583950035e+00
  +9.23376129034e+00
  +9.72185657741e+00
  +6.47248204577e+00
  +7.34826998389e-01
  -5.28532488553e+00
  -9.27358686401e+00
  -9.69671179900e+00
  -6.39203357201e+00
  -6.30002434550e-01
  +5.37422679194e+00
  +9.31238867070e+00
  +9.67049654231e+00
  +6.31087944326e+00
  +5.25108320957e-01
  -5.46253540516e+00
  -9.35016242685e+00
  -9.64321370139e+00
  -6.22902861861e+00
  -4.20156237501e-01
  +5.55024097626e+00
  +9.38690396239e+00
  +9.61486628817e+00
  +6.14649013405e+00
  +3.15157770473e-01
  -5.63733382292e+00
  -9.42260922119e+00
  -9.58545743208e+00
  -6.06327310152e+00
  -2.10124511285e-01
  +5.72380433042e+00
  +9.45727426154e+00
  +9.55499037974e+00
  +5.97938670783e+00
  +1.05068055190e-01
  -5.80964295276e+00
  -9.49089525655e+00
  -9.52346849460e+00
  -5.89484021371e+00
  -2.15587355101e-13
</dep>
<dep Input.Vt time>
  +0.00000000000e+00
  +5.86933510315e+00
  +9.51353152724e+00
  +9.49089525720e+00
  +5.82661260104e+00
  -4.22453311239e-02
  -5.92866971157e+00
  -9.53559795097e+00
  -9.45727426219e+00
  -5.73666057735e+00
  +1.78688073030e-01
  +6.03811302255e+00
  +9.57610051294e+00
  +9.42260922211e+00
  +5.65455006930e+00
  -2.94246008610e-01
  -6.12992203399e+00
  -9.59670408259e+00
  -9.38690396303e+00
  -5.56331342366e+00
  +4.04402487981e-01
  +6.20424864335e+00
  +9.63445503730e+00
  +9.35016242801e+00
  +5.46253541017e+00
  -5.04234959923e-01
  -6.29460103389e+00
  -9.65356913213e+00
  -9.31238867035e+00
  -5.37423880134e+00
  +6.14247846240e-01
  +6.36770720843e+00
  +9.68855522189e+00
  +9.27358686503e+00
  +5.28532488594e+00
  -7.13988973961e-01
  -6.45649640943e+00
  -9.70616524841e+00
  -9.23376129000e+00
  -5.19583950033e+00
  +8.23829348925e-01
  +6.52819291098e+00
  +9.73837679650e+00
  +9.19291634544e+00
  +5.10578051741e+00
  -9.23425061053e-01
