<Qucs Dataset 0.0.17>
<indep time 300>
  +0.00000000000e+00
  +1.00334448161e-08
  +2.00668896321e-08
  +3.01003344482e-08
  +4.01337792642e-08
  +5.01672240803e-08
  +6.02006688963e-08
  +7.02341137124e-08
  +8.02675585284e-08
  +9.03010033445e-08
  +1.00334448161e-07
  +1.10367892977e-07
  +1.20401337793e-07
  +1.30434782609e-07
  +1.40468227425e-07
  +1.50501672241e-07
  +1.60535117057e-07
  +1.70568561873e-07
  +1.80602006689e-07
  +1.90635451505e-07
  +2.00668896321e-07
  +2.10702341137e-07
  +2.20735785953e-07
  +2.30769230769e-07
  +2.40802675585e-07
  +2.50836120401e-07
  +2.60869565217e-07
  +2.70903010033e-07
  +2.80936454849e-07
  +2.90969899666e-07
  +3.01003344482e-07
  +3.11036789298e-07
  +3.21070234114e-07
  +3.31103678930e-07
  +3.41137123746e-07
  +3.51170568562e-07
  +3.61204013378e-07
  +3.71237458194e-07
  +3.81270903010e-07
  +3.91304347826e-07
  +4.01337792642e-07
  +4.11371237458e-07
  +4.21404682274e-07
  +4.31438127090e-07
  +4.41471571906e-07
  +4.51505016722e-07
  +4.61538461538e-07
  +4.71571906355e-07
  +4.81605351171e-07
  +4.91638795987e-07
  +5.01672240803e-07
  +5.11705685619e-07
  +5.21739130435e-07
  +5.31772575251e-07
  +5.41806020067e-07
  +5.51839464883e-07
  +5.61872909699e-07
  +5.71906354515e-07
  +5.81939799331e-07
  +5.91973244147e-07
  +6.02006688963e-07
  +6.12040133779e-07
  +6.22073578595e-07
  +6.32107023411e-07
  +6.42140468227e-07
  +6.52173913043e-07
  +6.62207357860e-07
  +6.72240802676e-07
  +6.82274247492e-07
  +6.92307692308e-07
  +7.02341137124e-07
  +7.12374581940e-07
  +7.22408026756e-07
  +7.32441471572e-07
  +7.42474916388e-07
  +7.52508361204e-07
  +7.62541806020e-07
  +7.72575250836e-07
  +7.82608695652e-07
  +7.92642140468e-07
  +8.02675585284e-07
  +8.12709030100e-07
  +8.22742474916e-07
  +8.32775919732e-07
  +8.42809364548e-07
  +8.52842809365e-07
  +8.62876254181e-07
  +8.72909698997e-07
  +8.82943143813e-07
  +8.92976588629e-07
  +9.03010033445e-07
  +9.13043478261e-07
  +9.23076923077e-07
  +9.33110367893e-07
  +9.43143812709e-07
  +9.53177257525e-07
  +9.63210702341e-07
  +9.73244147157e-07
  +9.83277591973e-07
  +9.93311036789e-07
  +1.00334448161e-06
  +1.01337792642e-06
  +1.02341137124e-06
  +1.03344481605e-06
  +1.04347826087e-06
  +1.05351170569e-06
  +1.06354515050e-06
  +1.07357859532e-06
  +1.08361204013e-06
  +1.09364548495e-06
  +1.10367892977e-06
  +1.11371237458e-06
  +1.12374581940e-06
  +1.13377926421e-06
  +1.14381270903e-06
  +1.15384615385e-06
  +1.16387959866e-06
  +1.17391304348e-06
  +1.18394648829e-06
  +1.19397993311e-06
  +1.20401337793e-06
  +1.21404682274e-06
  +1.22408026756e-06
  +1.23411371237e-06
  +1.24414715719e-06
  +1.25418060201e-06
  +1.26421404682e-06
  +1.27424749164e-06
  +1.28428093645e-06
  +1.29431438127e-06
  +1.30434782609e-06
  +1.31438127090e-06
  +1.32441471572e-06
  +1.33444816054e-06
  +1.34448160535e-06
  +1.35451505017e-06
  +1.36454849498e-06
  +1.37458193980e-06
  +1.38461538462e-06
  +1.39464882943e-06
  +1.40468227425e-06
  +1.41471571906e-06
  +1.42474916388e-06
  +1.43478260870e-06
  +1.44481605351e-06
  +1.45484949833e-06
  +1.46488294314e-06
  +1.47491638796e-06
  +1.48494983278e-06
  +1.49498327759e-06
  +1.50501672241e-06
  +1.51505016722e-06
  +1.52508361204e-06
  +1.53511705686e-06
  +1.54515050167e-06
  +1.55518394649e-06
  +1.56521739130e-06
  +1.57525083612e-06
  +1.58528428094e-06
  +1.59531772575e-06
  +1.60535117057e-06
  +1.61538461538e-06
  +1.62541806020e-06
  +1.63545150502e-06
  +1.64548494983e-06
  +1.65551839465e-06
  +1.66555183946e-06
  +1.67558528428e-06
  +1.68561872910e-06
  +1.69565217391e-06
  +1.70568561873e-06
  +1.71571906355e-06
  +1.72575250836e-06
  +1.73578595318e-06
  +1.74581939799e-06
  +1.75585284281e-06
  +1.76588628763e-06
  +1.77591973244e-06
  +1.78595317726e-06
  +1.79598662207e-06
  +1.80602006689e-06
  +1.81605351171e-06
  +1.82608695652e-06
  +1.83612040134e-06
  +1.84615384615e-06
  +1.85618729097e-06
  +1.86622073579e-06
  +1.87625418060e-06
  +1.88628762542e-06
  +1.89632107023e-06
  +1.90635451505e-06
  +1.91638795987e-06
  +1.92642140468e-06
  +1.93645484950e-06
  +1.94648829431e-06
  +1.95652173913e-06
  +1.96655518395e-06
  +1.97658862876e-06
  +1.98662207358e-06
  +1.99665551839e-06
  +2.00668896321e-06
  +2.01672240803e-06
  +2.02675585284e-06
  +2.03678929766e-06
  +2.04682274247e-06
  +2.05685618729e-06
  +2.06688963211e-06
  +2.07692307692e-06
  +2.08695652174e-06
  +2.09698996656e-06
  +2.10702341137e-06
  +2.11705685619e-06
  +2.12709030100e-06
  +2.13712374582e-06
  +2.14715719064e-06
  +2.15719063545e-06
  +2.16722408027e-06
  +2.17725752508e-06
  +2.18729096990e-06
  +2.19732441472e-06
  +2.20735785953e-06
  +2.21739130435e-06
  +2.22742474916e-06
  +2.23745819398e-06
  +2.24749163880e-06
  +2.25752508361e-06
  +2.26755852843e-06
  +2.27759197324e-06
  +2.28762541806e-06
  +2.29765886288e-06
  +2.30769230769e-06
  +2.31772575251e-06
  +2.32775919732e-06
  +2.33779264214e-06
  +2.34782608696e-06
  +2.35785953177e-06
  +2.36789297659e-06
  +2.37792642140e-06
  +2.38795986622e-06
  +2.39799331104e-06
  +2.40802675585e-06
  +2.41806020067e-06
  +2.42809364548e-06
  +2.43812709030e-06
  +2.44816053512e-06
  +2.45819397993e-06
  +2.46822742475e-06
  +2.47826086957e-06
  +2.48829431438e-06
  +2.49832775920e-06
  +2.50836120401e-06
  +2.51839464883e-06
  +2.52842809365e-06
  +2.53846153846e-06
  +2.54849498328e-06
  +2.55852842809e-06
  +2.56856187291e-06
  +2.57859531773e-06
  +2.58862876254e-06
  +2.59866220736e-06
  +2.60869565217e-06
  +2.61872909699e-06
  +2.62876254181e-06
  +2.63879598662e-06
  +2.64882943144e-06
  +2.65886287625e-06
  +2.66889632107e-06
  +2.67892976589e-06
  +2.68896321070e-06
  +2.69899665552e-06
  +2.70903010033e-06
  +2.71906354515e-06
  +2.72909698997e-06
  +2.73913043478e-06
  +2.74916387960e-06
  +2.75919732441e-06
  +2.76923076923e-06
  +2.77926421405e-06
  +2.78929765886e-06
  +2.79933110368e-06
  +2.80936454849e-06
  +2.81939799331e-06
  +2.82943143813e-06
  +2.83946488294e-06
  +2.84949832776e-06
  +2.85953177258e-06
  +2.86956521739e-06
  +2.87959866221e-06
  +2.88963210702e-06
  +2.89966555184e-06
  +2.90969899666e-06
  +2.91973244147e-06
  +2.92976588629e-06
  +2.93979933110e-06
  +2.94983277592e-06
  +2.95986622074e-06
  +2.96989966555e-06
  +2.97993311037e-06
  +2.98996655518e-06
  +3.00000000000e-06
</indep>
<dep Vp.It time>
  -1.89367900940e-03
  -1.89367900940e-03
  -1.89367900940e-03
  -1.89367900940e-03
  -1.89367900940e-03
  -1.89367900940e-03
  -1.89367900940e-03
  -1.89367900940e-03
  -1.89367900940e-03
  -1.89367900940e-03
  -1.89367900940e-03
  -1.89367900940e-03
  -1.89367900940e-03
  -1.89367900940e-03
  -1.89367900940e-03
  -1.89367900940e-03
  -1.89367900940e-03
  -1.89367900940e-03
  -1.89367900940e-03
  -1.89367900940e-03
  -1.89367900940e-03
  -1.89367900940e-03
  -1.89367900941e-03
  -1.89367900941e-03
  -1.89367900941e-03
  -1.89367900940e-03
  -1.89367900940e-03
  -1.89367900939e-03
  -1.89367900939e-03
  -1.89367900940e-03
  -1.89367900941e-03
  -1.89367900943e-03
  -1.89367900944e-03
  -1.89367900943e-03
  -1.89367900940e-03
  -1.89367900935e-03
  -1.89367900930e-03
  -1.89367900928e-03
  -1.89367900933e-03
  -1.89367900947e-03
  -1.89367900966e-03
  -1.89367900981e-03
  -1.89367900979e-03
  -1.89367900947e-03
  -1.89367900888e-03
  -1.89367900821e-03
  -1.89367900789e-03
  -1.89367900839e-03
  -1.89367900996e-03
  -1.89367901229e-03
  -1.89367901433e-03
  -1.89367901443e-03
  -1.89367901109e-03
  -1.89367900412e-03
  -1.89367899572e-03
  -1.89367899069e-03
  -1.89367899503e-03
  -1.89367901259e-03
  -1.89367904083e-03
  -1.89367906789e-03
  -1.89367907403e-03
  -1.89367903958e-03
  -1.89367895874e-03
  -1.89367885386e-03
  -1.89367878045e-03
  -1.89367881288e-03
  -1.89367900628e-03
  -1.89367934398e-03
  -1.89367969637e-03
  -1.89367982830e-03
  -1.89367948570e-03
  -1.89367855894e-03
  -1.89367726546e-03
  -1.89367623848e-03
  -1.89367639062e-03
  -1.89367848218e-03
  -1.89368247857e-03
  -1.89368699050e-03
  -1.89368924862e-03
  -1.89368602147e-03
  -1.89367552896e-03
  -1.89365975144e-03
  -1.89364581735e-03
  -1.89364481539e-03
  -1.89366694998e-03
  -1.89371374775e-03
  -1.89377064879e-03
  -1.89380543563e-03
  -1.89377769985e-03
  -1.89366072477e-03
  -1.89347010885e-03
  -1.89328481677e-03
  -1.89323946380e-03
  -1.89346926147e-03
  -1.89401225861e-03
  -1.89471489745e-03
  -1.89521191610e-03
  -1.89502448082e-03
  -1.89377058109e-03
  -1.89147486876e-03
  -1.88895367245e-03
  -1.88799871143e-03
  -1.89059863126e-03
  -1.89702129175e-03
  -1.90486872170e-03
  -1.91059870888e-03
  -1.91093496490e-03
  -1.90212004211e-03
  -1.87663071814e-03
  -1.82589749117e-03
  -1.80015789019e-03
  -1.87870439279e-03
  -1.94836363882e-03
  -2.00777227137e-03
  -2.06700289396e-03
  -2.11082920602e-03
  -2.12638207009e-03
  -2.10653572735e-03
  -2.05124727654e-03
  -1.96729973616e-03
  -1.59004899819e-03
  -7.21016556319e-04
  -1.94519520948e-03
  -2.30137639363e-03
  -2.81909564220e-03
  -3.38854570847e-03
  -3.89058068530e-03
  -4.22056999833e-03
  -4.30854466826e-03
  -4.13340220578e-03
  -3.72579703788e-03
  -3.16193568018e-03
  -2.54795631100e-03
  -1.99860520416e-03
  +3.73354895385e-03
  +2.48077616859e-03
  -1.93182974642e-03
  -2.36263446631e-03
  -2.93869217215e-03
  -3.54114113307e-03
  -4.04446414161e-03
  -4.34395671666e-03
  -4.37636774376e-03
  -4.13165546876e-03
  -3.65442957719e-03
  -3.03456520196e-03
  -2.38902727042e-03
  -1.14064942028e-03
  +4.73356440440e-03
  +2.27192679074e-03
  -1.98707012604e-03
  -2.45856275593e-03
  -3.05761683697e-03
  -3.65819538357e-03
  -4.13535520804e-03
  -4.38986940944e-03
  -4.36747388832e-03
  -4.06902377128e-03
  -3.54970084762e-03
  -2.90755167785e-03
  -2.26367399883e-03
  +1.39094326098e-03
  +4.73601304029e-03
  +1.44105018267e-03
  -2.05779409983e-03
  -2.56343562493e-03
  -3.17424305173e-03
  -3.76198496081e-03
  -4.20521421149e-03
  -4.41113151461e-03
  -4.33523350008e-03
  -3.98896251954e-03
  -3.43685588894e-03
  -2.78325775074e-03
  -2.15126911827e-03
  +3.53215915370e-03
  +4.50736808522e-03
  +4.06744293716e-04
  -2.13768573209e-03
  -2.67233663119e-03
  -3.28921394050e-03
  -3.85927407033e-03
  -4.26417612172e-03
  -4.41952918353e-03
  -4.29090868041e-03
  -3.90014600427e-03
  -3.32040256402e-03
  -2.66121505251e-03
  -2.04632929884e-03
  +4.57912807123e-03
  +4.08934622690e-03
  -7.26212222602e-04
  -2.22425112470e-03
  -2.78349249508e-03
  -3.40130948374e-03
  -3.94913940972e-03
  -4.31327266419e-03
  -4.41746853022e-03
  -4.23735917434e-03
  -3.80482177990e-03
  -3.20118615140e-03
  -2.54057391779e-03
  -1.94588571271e-03
  +5.00104586764e-03
  +3.49624583010e-03
  -1.77342861735e-03
  -2.31741413581e-03
  -2.89716659653e-03
  -3.51168017604e-03
  -4.03325094454e-03
  -4.35363032060e-03
  -4.40538450299e-03
  -4.17468609331e-03
  -3.70342070498e-03
  -3.08049958010e-03
  -2.42292076668e-03
  -1.39138038752e-03
  +5.00747435205e-03
  +2.75499287467e-03
  -1.95597002842e-03
  -2.41546207538e-03
  -3.01132359533e-03
  -3.61835272213e-03
  -4.11017136481e-03
  -4.38460746891e-03
  -4.38350295214e-03
  -4.10350708056e-03
  -3.59619094159e-03
  -2.95729056162e-03
  -2.30738004418e-03
  +1.16693817848e-04
  +4.85329556082e-03
  +1.86916498271e-03
  -2.02604150213e-03
  -2.51904069652e-03
  -3.12668577213e-03
  -3.72145742164e-03
  -4.17969104736e-03
  -4.40603530694e-03
  -4.35187625726e-03
  -4.02436135792e-03
  -3.48436284540e-03
  -2.83390418726e-03
  -2.19555227725e-03
  +2.88653891673e-03
  +4.64170392686e-03
  +8.59974944640e-04
  -2.10345596529e-03
  -2.62678630339e-03
  -3.24211386868e-03
  -3.82048901650e-03
  -4.24150037076e-03
  -4.41777952468e-03
  -4.31072335183e-03
  -3.93780531808e-03
  -3.36898967749e-03
  -2.71144164920e-03
  -2.08882059296e-03
  +4.24028954736e-03
  +4.28781043947e-03
  -2.47365775604e-04
  -2.18759496064e-03
  -2.73717951948e-03
  -3.35517312185e-03
  -3.91279382335e-03
  -4.29418104854e-03
  -4.41957172255e-03
  -4.26049950889e-03
  -3.84501234306e-03
  -3.25088090313e-03
  -2.59042851692e-03
  -1.98747265134e-03
  +4.88928450065e-03
  +3.76360160371e-03
  -1.39657362143e-03
  -2.27792910988e-03
  -2.84967970201e-03
  -3.46625294096e-03
  -3.99902511311e-03
  -4.33785529241e-03
  -4.41163380865e-03
  -4.20202772783e-03
  -3.74669804596e-03
  -3.13111162430e-03
  -2.47203217473e-03
  -1.81043774778e-03
  +5.04052629214e-03
  +3.08575718116e-03
  -1.92479848057e-03
  -2.37355701823e-03
  -2.96315111645e-03
  -3.57391926007e-03
  -4.07877172066e-03
  -4.37282841708e-03
  -4.39390699335e-03
  -4.13426126142e-03
  -3.64148701611e-03
  -3.00853973658e-03
  -2.35494945548e-03
  -5.21053236591e-04
</dep>
<dep Vn.It time>
  -1.91261579950e-03
  -1.91261579950e-03
  -1.91261579950e-03
  -1.91261579950e-03
  -1.91261579950e-03
  -1.91261579950e-03
  -1.91261579950e-03
  -1.91261579950e-03
  -1.91261579950e-03
  -1.91261579950e-03
  -1.91261579950e-03
  -1.91261579950e-03
  -1.91261579950e-03
  -1.91261579950e-03
  -1.91261579950e-03
  -1.91261579950e-03
  -1.91261579950e-03
  -1.91261579950e-03
  -1.91261579950e-03
  -1.91261579950e-03
  -1.91261579950e-03
  -1.91261579950e-03
  -1.91261579950e-03
  -1.91261579950e-03
  -1.91261579950e-03
  -1.91261579950e-03
  -1.91261579949e-03
  -1.91261579949e-03
  -1.91261579949e-03
  -1.91261579949e-03
  -1.91261579950e-03
  -1.91261579951e-03
  -1.91261579951e-03
  -1.91261579951e-03
  -1.91261579950e-03
  -1.91261579948e-03
  -1.91261579946e-03
  -1.91261579945e-03
  -1.91261579947e-03
  -1.91261579952e-03
  -1.91261579960e-03
  -1.91261579966e-03
  -1.91261579965e-03
  -1.91261579952e-03
  -1.91261579929e-03
  -1.91261579902e-03
  -1.91261579889e-03
  -1.91261579909e-03
  -1.91261579972e-03
  -1.91261580065e-03
  -1.91261580147e-03
  -1.91261580151e-03
  -1.91261580017e-03
  -1.91261579738e-03
  -1.91261579403e-03
  -1.91261579202e-03
  -1.91261579375e-03
  -1.91261580077e-03
  -1.91261581206e-03
  -1.91261582288e-03
  -1.91261582533e-03
  -1.91261581156e-03
  -1.91261577925e-03
  -1.91261573732e-03
  -1.91261570797e-03
  -1.91261572093e-03
  -1.91261579825e-03
  -1.91261593325e-03
  -1.91261607412e-03
  -1.91261612686e-03
  -1.91261598990e-03
  -1.91261561942e-03
  -1.91261510236e-03
  -1.91261469183e-03
  -1.91261475265e-03
  -1.91261558874e-03
  -1.91261718636e-03
  -1.91261899021e-03
  -1.91261989305e-03
  -1.91261860278e-03
  -1.91261440821e-03
  -1.91260810233e-03
  -1.91260253469e-03
  -1.91260213438e-03
  -1.91261097919e-03
  -1.91262969063e-03
  -1.91265246265e-03
  -1.91266639581e-03
  -1.91265528612e-03
  -1.91260849129e-03
  -1.91253244462e-03
  -1.91245876728e-03
  -1.91244077037e-03
  -1.91253210713e-03
  -1.91274941253e-03
  -1.91303374092e-03
  -1.91323703402e-03
  -1.91316015506e-03
  -1.91265243555e-03
  -1.91175154657e-03
  -1.91080254696e-03
  -1.91045354145e-03
  -1.91141707373e-03
  -1.91399273477e-03
  -1.91758146924e-03
  -1.92056564925e-03
  -1.92075135005e-03
  -1.91626335980e-03
  -1.90668341613e-03
  -1.89510215156e-03
  -1.89093338508e-03
  -1.90732311493e-03
  -1.94926157142e-03
  -2.00777846657e-03
  -2.06700293406e-03
  -2.11082920698e-03
  -2.12638207034e-03
  -2.10653572873e-03
  -2.05124742983e-03
  -1.96749059717e-03
  -1.86917269506e-03
  -1.81602512437e-03
  -1.94637660733e-03
  -2.30137639363e-03
  -2.81909564220e-03
  -3.38854570847e-03
  -3.89058068533e-03
  -4.22056999833e-03
  -4.30854466826e-03
  -4.13340220578e-03
  -3.72579703788e-03
  -3.16193568018e-03
  -2.54795631100e-03
  -1.99861871157e-03
  -1.67734453591e-03
  -1.70224423086e-03
  -1.93498039436e-03
  -2.36263446631e-03
  -2.93869217215e-03
  -3.54114113308e-03
  -4.04446414161e-03
  -4.34395671666e-03
  -4.37636774376e-03
  -4.13165546876e-03
  -3.65442957719e-03
  -3.03456520196e-03
  -2.38902727042e-03
  -1.83932058824e-03
  -1.61913402502e-03
  -1.70947073846e-03
  -1.98710611390e-03
  -2.45856275593e-03
  -3.05761683697e-03
  -3.65819538357e-03
  -4.13535520804e-03
  -4.38986940943e-03
  -4.36747388832e-03
  -4.06902377128e-03
  -3.54970084762e-03
  -2.90755167785e-03
  -2.26367399883e-03
  -1.74808537244e-03
  -1.60914887624e-03
  -1.74513802919e-03
  -2.05779418764e-03
  -2.56343562493e-03
  -3.17424305173e-03
  -3.76198496081e-03
  -4.20521421149e-03
  -4.41113151461e-03
  -4.33523350008e-03
  -3.98896251954e-03
  -3.43685588894e-03
  -2.78325775074e-03
  -2.15126911830e-03
  -1.69037896602e-03
  -1.61575640954e-03
  -1.79021212844e-03
  -2.13768573218e-03
  -2.67233663119e-03
  -3.28921394051e-03
  -3.85927407033e-03
  -4.26417612172e-03
  -4.41952918353e-03
  -4.29090868041e-03
  -3.90014600427e-03
  -3.32040256402e-03
  -2.66121505251e-03
  -2.04632953180e-03
  -1.65141345007e-03
  -1.63221422334e-03
  -1.84046664040e-03
  -2.22425112470e-03
  -2.78349249508e-03
  -3.40130948373e-03
  -3.94913940972e-03
  -4.31327266418e-03
  -4.41746853022e-03
  -4.23735917434e-03
  -3.80482177990e-03
  -3.20118615140e-03
  -2.54057391779e-03
  -1.94697565805e-03
  -1.62581101438e-03
  -1.65688254978e-03
  -1.89549097237e-03
  -2.31741413581e-03
  -2.89716659653e-03
  -3.51168017604e-03
  -4.03325094454e-03
  -4.35363032060e-03
  -4.40538450299e-03
  -4.17468609331e-03
  -3.70342070498e-03
  -3.08049958010e-03
  -2.42292076668e-03
  -1.85483562717e-03
  -1.61126092514e-03
  -1.68840285053e-03
  -1.95646021226e-03
  -2.41546207538e-03
  -3.01132359533e-03
  -3.61835272213e-03
  -4.11017136481e-03
  -4.38460746891e-03
  -4.38350295214e-03
  -4.10350708056e-03
  -3.59619094159e-03
  -2.95729056162e-03
  -2.30738004418e-03
  -1.77346701905e-03
  -1.60638380513e-03
  -1.72653918159e-03
  -2.02604281144e-03
  -2.51904069652e-03
  -3.12668577213e-03
  -3.72145742164e-03
  -4.17969104736e-03
  -4.40603530694e-03
  -4.35187625726e-03
  -4.02436135792e-03
  -3.48436284540e-03
  -2.83390418726e-03
  -2.19555227725e-03
  -1.71025378718e-03
  -1.61088387706e-03
  -1.77037986022e-03
  -2.10345596716e-03
  -2.62678630339e-03
  -3.24211386866e-03
  -3.82048901649e-03
  -4.24150037076e-03
  -4.41777952468e-03
  -4.31072335183e-03
  -3.93780531808e-03
  -3.36898967749e-03
  -2.71144164920e-03
  -2.08882059922e-03
  -1.66551867707e-03
  -1.62419614480e-03
  -1.81904881751e-03
  -2.18759496065e-03
  -2.73717951948e-03
  -3.35517312185e-03
  -3.91279382335e-03
  -4.29418104854e-03
  -4.41957172255e-03
  -4.26049950889e-03
  -3.84501234306e-03
  -3.25088090313e-03
  -2.59042851692e-03
  -1.98750742025e-03
  -1.63497455507e-03
  -1.64566454333e-03
  -1.87201734548e-03
  -2.27792910988e-03
  -2.84967970201e-03
  -3.46625294096e-03
  -3.99902511311e-03
  -4.33785529241e-03
  -4.41163380865e-03
  -4.20202772783e-03
  -3.74669804596e-03
  -3.13111162429e-03
  -2.47203217473e-03
  -1.89251282283e-03
  -1.61612663862e-03
  -1.67427409336e-03
  -1.92977447278e-03
  -2.37355701823e-03
  -2.96315111645e-03
  -3.57391926007e-03
  -4.07877172066e-03
  -4.37282841708e-03
  -4.39390699334e-03
  -4.13426126142e-03
  -3.64148701611e-03
  -3.00853973658e-03
  -2.35494945548e-03
  -1.80553721847e-03
</dep>
<dep _net2.Vt time>
  -7.92245241108e-01
  -7.92245241108e-01
  -7.92245241108e-01
  -7.92245241108e-01
  -7.92245241108e-01
  -7.92245241108e-01
  -7.92245241108e-01
  -7.92245241108e-01
  -7.92245241108e-01
  -7.92245241108e-01
  -7.92245241108e-01
  -7.92245241108e-01
  -7.92245241107e-01
  -7.92245241107e-01
  -7.92245241107e-01
  -7.92245241107e-01
  -7.92245241108e-01
  -7.92245241108e-01
  -7.92245241108e-01
  -7.92245241108e-01
  -7.92245241108e-01
  -7.92245241107e-01
  -7.92245241106e-01
  -7.92245241105e-01
  -7.92245241106e-01
  -7.92245241108e-01
  -7.92245241112e-01
  -7.92245241115e-01
  -7.92245241116e-01
  -7.92245241111e-01
  -7.92245241101e-01
  -7.92245241087e-01
  -7.92245241078e-01
  -7.92245241082e-01
  -7.92245241108e-01
  -7.92245241152e-01
  -7.92245241197e-01
  -7.92245241214e-01
  -7.92245241168e-01
  -7.92245241046e-01
  -7.92245240878e-01
  -7.92245240746e-01
  -7.92245240770e-01
  -7.92245241047e-01
  -7.92245241569e-01
  -7.92245242154e-01
