<Qucs Dataset 0.0.20>
<indep Vx 101>
  +0.00000000000000000000e+00
  +5.99999999999999977796e-02
  +1.19999999999999995559e-01
  +1.79999999999999993339e-01
  +2.39999999999999991118e-01
  +2.99999999999999988898e-01
  +3.59999999999999986677e-01
  +4.19999999999999984457e-01
  +4.79999999999999982236e-01
  +5.40000000000000035527e-01
  +5.99999999999999977796e-01
  +6.59999999999999920064e-01
  +7.19999999999999973355e-01
  +7.80000000000000026645e-01
  +8.39999999999999968914e-01
  +8.99999999999999911182e-01
  +9.59999999999999964473e-01
  +1.02000000000000001776e+00
  +1.08000000000000007105e+00
  +1.13999999999999990230e+00
  +1.19999999999999995559e+00
  +1.26000000000000000888e+00
  +1.31999999999999984013e+00
  +1.37999999999999989342e+00
  +1.43999999999999994671e+00
  +1.50000000000000000000e+00
  +1.56000000000000005329e+00
  +1.61999999999999988454e+00
  +1.67999999999999993783e+00
  +1.73999999999999999112e+00
  +1.79999999999999982236e+00
  +1.85999999999999987566e+00
  +1.91999999999999992895e+00
  +1.97999999999999998224e+00
  +2.04000000000000003553e+00
  +2.10000000000000008882e+00
  +2.16000000000000014211e+00
  +2.21999999999999975131e+00
  +2.27999999999999980460e+00
  +2.33999999999999985789e+00
  +2.39999999999999991118e+00
  +2.45999999999999996447e+00
  +2.52000000000000001776e+00
  +2.58000000000000007105e+00
  +2.63999999999999968026e+00
  +2.69999999999999973355e+00
  +2.75999999999999978684e+00
  +2.81999999999999984013e+00
  +2.87999999999999989342e+00
  +2.93999999999999994671e+00
  +3.00000000000000000000e+00
  +3.06000000000000005329e+00
  +3.12000000000000010658e+00
  +3.17999999999999971578e+00
  +3.23999999999999976907e+00
  +3.29999999999999982236e+00
  +3.35999999999999987566e+00
  +3.41999999999999992895e+00
  +3.47999999999999998224e+00
  +3.54000000000000003553e+00
  +3.59999999999999964473e+00
  +3.65999999999999969802e+00
  +3.71999999999999975131e+00
  +3.77999999999999980460e+00
  +3.83999999999999985789e+00
  +3.89999999999999991118e+00
  +3.95999999999999996447e+00
  +4.01999999999999957367e+00
  +4.08000000000000007105e+00
  +4.13999999999999968026e+00
  +4.20000000000000017764e+00
  +4.25999999999999978684e+00
  +4.32000000000000028422e+00
  +4.37999999999999989342e+00
  +4.43999999999999950262e+00
  +4.50000000000000000000e+00
  +4.55999999999999960920e+00
  +4.62000000000000010658e+00
  +4.67999999999999971578e+00
  +4.74000000000000021316e+00
  +4.79999999999999982236e+00
  +4.85999999999999943157e+00
  +4.91999999999999992895e+00
  +4.97999999999999953815e+00
  +5.04000000000000003553e+00
  +5.09999999999999964473e+00
  +5.16000000000000014211e+00
  +5.21999999999999975131e+00
  +5.27999999999999936051e+00
  +5.33999999999999985789e+00
  +5.39999999999999946709e+00
  +5.45999999999999996447e+00
  +5.51999999999999957367e+00
  +5.58000000000000007105e+00
  +5.63999999999999968026e+00
  +5.70000000000000017764e+00
  +5.75999999999999978684e+00
  +5.81999999999999939604e+00
  +5.87999999999999989342e+00
  +5.93999999999999950262e+00
  +6.00000000000000000000e+00
</indep>
<dep Rout Vx>
  +2.25116928048315858177e+04
  +2.26658073263208643766e+04
  +2.29783152126420063723e+04
  +2.32995614912413802813e+04
  +2.36299178940903730108e+04
  +2.39697775422281556530e+04
  +2.43195565066773560829e+04
  +2.46796955080859188456e+04
  +2.50506617696956818691e+04
  +2.54329510400227954960e+04
  +2.58270898036663056700e+04
  +2.62336377009806055867e+04
  +2.66531901800045816344e+04
  +2.70863814070792759594e+04
  +2.75338874660830661014e+04
  +2.79964298802378325490e+04
  +2.84747794950825264095e+04
  +2.89697607665780487878e+04
  +2.94822565045373703470e+04
  +3.00132131288054588367e+04
  +3.05636465040461116587e+04
  +3.11346484288422216196e+04
  +3.17273938663460794487e+04
  +3.23431490172824414913e+04
  +3.29832803520628585829e+04
  +3.36492647376506793080e+04
  +3.43427008171925408533e+04
  +3.50653218270476936596e+04
  +3.58190100676172733074e+04
  +3.66058132824343920220e+04
  +3.74279632457330735633e+04
  +3.82878969139326945879e+04
  +3.91882805634194664890e+04
  +4.01320374184350730502e+04
  +4.11223793724517454393e+04
  +4.21628435286593594356e+04
  +4.32573344360403425526e+04
  +4.44101730845859565306e+04
  +4.56261539564232516568e+04
  +4.69106117220642918255e+04
  +4.82694995397040183889e+04
  +4.97094813834196684184e+04
  +5.12380414237474324182e+04
  +5.28636142526187177282e+04
  +5.45957407402638054918e+04
  +5.64452556113737809937e+04
  +5.84245145385646101204e+04
  +6.05476708226624905365e+04
  +6.28310147735349455616e+04
  +6.52933930258989421418e+04
  +6.79567306619941664394e+04
  +7.08466868145803891821e+04
  +7.39934853536877053557e+04
  +7.74329777787234779680e+04
  +8.12080177902452996932e+04
  +8.53702597210319072474e+04
  +8.99825416852894704789e+04
  +9.51220881309021788184e+04
  +1.00884880778624137747e+05
  +1.07391727982302254532e+05
  +1.14796856717312708497e+05
  +1.23300343200911156600e+05
  +1.33166547215071856044e+05
  +1.44752235781230236171e+05
  +1.58550922193325939588e+05
  +1.75265518620244110934e+05
  +1.95932983113614376634e+05
  +2.22150450096621585544e+05
  +2.56514957622760324739e+05
  +3.03558123761595459655e+05
  +3.71984001911634113640e+05
  +4.81015813532718224451e+05
  +6.83900160624790587462e+05
  +1.21406726212614099495e+06
  +6.61458456983476132154e+06
  +1.26003361557344238281e+12
  +2.52005417689128808594e+12
  +2.52005274243013769531e+12
  +2.52005632858913769531e+12
  +2.52005489413125341797e+12
  +2.52005274243338476562e+12
  +2.52005345966193750000e+12
  +2.52005345966193750000e+12
  +2.52005561135243847656e+12
  +2.52005561135243847656e+12
  +2.52005489412145507812e+12
  +2.52005489412145507812e+12
  +2.52005489412143652344e+12
  +2.52005489412145507812e+12
  +2.52005345966193750000e+12
  +2.52005417689373779297e+12
  +2.52005632858423876953e+12
  +2.52005345966193750000e+12
  +2.52005345966193750000e+12
  +2.52005489412145507812e+12
  +2.52005489412145507812e+12
  +2.52005561135241992188e+12
  +2.52005274243340380859e+12
  +2.52005489413125390625e+12
  +2.52005632858913769531e+12
  +2.52005274243015625000e+12
</dep>
<dep Ix Vx>
  +9.78442027836701846743e-32
  +2.66528157256669996779e-06
  +5.29456314505191604955e-06
  +7.88784471745399060180e-06
  +1.04451262897712388760e-05
  +1.29664078620019380071e-05
  +1.54516894341443278608e-05
  +1.79009710061966228914e-05
  +2.03142525781569867316e-05
  +2.26915341500235796259e-05
  +2.50328157217945008323e-05
  +2.73380972934678123393e-05
  +2.96073788650415863001e-05
  +3.18406604365138067763e-05
  +3.40379420078824375005e-05
  +3.61992235791454015480e-05
  +3.83245051503006389348e-05
  +4.04137867213459744801e-05
  +4.24670682922792939898e-05
  +4.44843498630983477443e-05
  +4.64656314338009605630e-05
  +4.84109130043848556214e-05
  +5.03201945748476815561e-05
  +5.21934761451871954236e-05
  +5.40307577154009984269e-05
  +5.58320392854867392023e-05
  +5.75973208554419715188e-05
  +5.93266024252642898027e-05
  +6.10198839949512071654e-05
  +6.26771655645002841520e-05
  +6.42984471339090135449e-05
  +6.58837287031748339164e-05
  +6.74330102722952516017e-05
  +6.89462918412676645154e-05
  +7.04235734100895518876e-05
  +7.18648549787582709755e-05
  +7.32701365472712739038e-05
  +7.46394181156259585875e-05
  +7.59726996838196822837e-05
  +7.72699812518499377749e-05
  +7.85312628197140552132e-05
  +7.97565443874094460661e-05
  +8.09458259549335353532e-05
  +8.20991075222837209894e-05
  +8.32163890894575093097e-05
  +8.42976706564523117814e-05
  +8.53429522232656211870e-05
  +8.63522337898949438615e-05
  +8.73255153563378403499e-05
  +8.82627969225919525127e-05
  +8.91640784886547595797e-05
  +9.00293600545240118313e-05
  +9.08586416201974595482e-05
  +9.16519231856727445906e-05
  +9.24092047509477934218e-05
  +9.31304863160204376375e-05
  +9.38157678808886579111e-05
  +9.44650494455504213635e-05
  +9.50783310100038848512e-05
  +9.56556125742471781252e-05
  +9.61968941382785664622e-05
  +9.67021757020963829013e-05
  +9.71714572656990960070e-05
  +9.76047388290851743436e-05
  +9.80020203922532626584e-05
  +9.83633019552020870140e-05
  +9.86885835179304954454e-05
  +9.89778650804373630930e-05
  +9.92311466427218768051e-05
  +9.94484282047830472472e-05
  +9.96297097666202645556e-05
  +9.97749913282327968939e-05
  +9.98842728896202783438e-05
  +9.99575544507822752243e-05
  +9.99948360117185300376e-05
  +9.99999996142400993278e-05
  +9.99999996380490977204e-05
  +9.99999996618581232181e-05
  +9.99999996856671487157e-05
  +9.99999997094761064508e-05
  +9.99999997332851590535e-05
  +9.99999997570941574461e-05
  +9.99999997809031964963e-05
  +9.99999998047121948890e-05
  +9.99999998285211932816e-05
  +9.99999998523301916742e-05
  +9.99999998761392036193e-05
  +9.99999998999482020120e-05
  +9.99999999237572139571e-05
  +9.99999999475662123497e-05
  +9.99999999713752513999e-05
  +9.99999999951842362400e-05
  +1.00000000018993234633e-04
  +1.00000000042802273683e-04
  +1.00000000066611272075e-04
  +1.00000000090420284021e-04
  +1.00000000114229282413e-04
  +1.00000000138038280806e-04
  +1.00000000161847333409e-04
  +1.00000000185656291144e-04
  +1.00000000209465316641e-04
</dep>
<dep V1.I Vx>
  +9.99999999999999912396e-05
  +9.99999999999999912396e-05
  +9.99999999999999912396e-05
  +9.99999999999999912396e-05
  +9.99999999999999912396e-05
  +9.99999999999999912396e-05
  +9.99999999999999912396e-05
  +9.99999999999999912396e-05
  +9.99999999999999912396e-05
  +9.99999999999999912396e-05
  +9.99999999999999912396e-05
  +9.99999999999999912396e-05
  +9.99999999999999912396e-05
  +9.99999999999999912396e-05
  +9.99999999999999912396e-05
  +9.99999999999999912396e-05
  +9.99999999999999912396e-05
  +9.99999999999999912396e-05
  +9.99999999999999912396e-05
  +9.99999999999999912396e-05
  +9.99999999999999912396e-05
  +9.99999999999999912396e-05
  +9.99999999999999912396e-05
  +9.99999999999999912396e-05
  +9.99999999999999912396e-05
  +9.99999999999999912396e-05
  +9.99999999999999912396e-05
  +9.99999999999999912396e-05
  +9.99999999999999912396e-05
  +9.99999999999999912396e-05
  +9.99999999999999912396e-05
  +9.99999999999999912396e-05
  +9.99999999999999912396e-05
  +9.99999999999999912396e-05
  +9.99999999999999912396e-05
  +9.99999999999999912396e-05
  +9.99999999999999912396e-05
  +9.99999999999999912396e-05
  +9.99999999999999912396e-05
  +9.99999999999999912396e-05
  +9.99999999999999912396e-05
  +9.99999999999999912396e-05
  +9.99999999999999912396e-05
  +9.99999999999999912396e-05
  +9.99999999999999912396e-05
  +9.99999999999999912396e-05
  +9.99999999999999912396e-05
  +9.99999999999999912396e-05
  +9.99999999999999912396e-05
  +9.99999999999999912396e-05
  +9.99999999999999912396e-05
  +9.99999999999999912396e-05
  +9.99999999999999912396e-05
  +9.99999999999999912396e-05
  +9.99999999999999912396e-05
  +9.99999999999999912396e-05
  +9.99999999999999912396e-05
  +9.99999999999999912396e-05
  +9.99999999999999912396e-05
  +9.99999999999999912396e-05
  +9.99999999999999912396e-05
  +9.99999999999999912396e-05
  +9.99999999999999912396e-05
  +9.99999999999999912396e-05
  +9.99999999999999912396e-05
  +9.99999999999999912396e-05
  +9.99999999999999912396e-05
  +9.99999999999999912396e-05
  +9.99999999999999912396e-05
  +9.99999999999999912396e-05
  +9.99999999999999912396e-05
  +9.99999999999999912396e-05
  +9.99999999999999912396e-05
  +9.99999999999999912396e-05
  +9.99999999999999912396e-05
  +9.99999999999999912396e-05
  +9.99999999999999912396e-05
  +9.99999999999999912396e-05
  +9.99999999999999912396e-05
  +9.99999999999999912396e-05
  +9.99999999999999912396e-05
  +9.99999999999999912396e-05
  +9.99999999999999912396e-05
  +9.99999999999999912396e-05
  +9.99999999999999912396e-05
  +9.99999999999999912396e-05
  +9.99999999999999912396e-05
  +9.99999999999999912396e-05
  +9.99999999999999912396e-05
  +9.99999999999999912396e-05
  +9.99999999999999912396e-05
  +9.99999999999999912396e-05
  +9.99999999999999912396e-05
  +9.99999999999999912396e-05
  +9.99999999999999912396e-05
  +9.99999999999999912396e-05
  +9.99999999999999912396e-05
  +9.99999999999999912396e-05
  +9.99999999999999912396e-05
  +9.99999999999999912396e-05
  +9.99999999999999912396e-05
</dep>
<dep V3.I Vx>
  +9.99999973087906210856e-05
  +9.99999973087906210856e-05
  +9.99999973087906210856e-05
  +9.99999973087906210856e-05
  +9.99999973087906210856e-05
  +9.99999973087906210856e-05
  +9.99999973087906210856e-05
  +9.99999973087906210856e-05
  +9.99999973087906210856e-05
  +9.99999973087906210856e-05
  +9.99999973087906210856e-05
  +9.99999973087906210856e-05
  +9.99999973087906210856e-05
  +9.99999973087906210856e-05
  +9.99999973087906210856e-05
  +9.99999973087906210856e-05
  +9.99999973087906210856e-05
  +9.99999973087906210856e-05
  +9.99999973087906210856e-05
  +9.99999973087906210856e-05
  +9.99999973087906210856e-05
  +9.99999973087906210856e-05
  +9.99999973087906210856e-05
  +9.99999973087906210856e-05
  +9.99999973087906210856e-05
  +9.99999973087906210856e-05
  +9.99999973087906210856e-05
  +9.99999973087906210856e-05
  +9.99999973087906210856e-05
  +9.99999973087906210856e-05
  +9.99999973087906210856e-05
  +9.99999973087906210856e-05
  +9.99999973087906210856e-05
  +9.99999973087906210856e-05
  +9.99999973087906210856e-05
  +9.99999973087906210856e-05
  +9.99999973087906210856e-05
  +9.99999973087906210856e-05
  +9.99999973087906210856e-05
  +9.99999973087906210856e-05
  +9.99999973087906210856e-05
  +9.99999973087906210856e-05
  +9.99999973087906210856e-05
  +9.99999973087906210856e-05
  +9.99999973087906210856e-05
  +9.99999973087906210856e-05
  +9.99999973087906210856e-05
  +9.99999973087906210856e-05
  +9.99999973087906210856e-05
  +9.99999973087906210856e-05
  +9.99999973087906210856e-05
  +9.99999973087906210856e-05
  +9.99999973087906210856e-05
  +9.99999973087906210856e-05
  +9.99999973087906210856e-05
  +9.99999973087906210856e-05
  +9.99999973087906210856e-05
  +9.99999973087906210856e-05
  +9.99999973087906210856e-05
  +9.99999973087906210856e-05
  +9.99999973087906210856e-05
  +9.99999973087906210856e-05
  +9.99999973087906210856e-05
  +9.99999973087906210856e-05
  +9.99999973087906210856e-05
  +9.99999973087906210856e-05
  +9.99999973087906210856e-05
  +9.99999973087906210856e-05
  +9.99999973087906210856e-05
  +9.99999973087906210856e-05
  +9.99999973087906210856e-05
  +9.99999973087906210856e-05
  +9.99999973087906210856e-05
  +9.99999973087906210856e-05
  +9.99999973087906210856e-05
  +9.99999973087906210856e-05
  +9.99999973087906210856e-05
  +9.99999973087906210856e-05
  +9.99999973087906210856e-05
  +9.99999973087906210856e-05
  +9.99999973087906210856e-05
  +9.99999973087906210856e-05
  +9.99999973087906210856e-05
  +9.99999973087906210856e-05
  +9.99999973087906210856e-05
  +9.99999973087906210856e-05
  +9.99999973087906210856e-05
  +9.99999973087906210856e-05
  +9.99999973087906210856e-05
  +9.99999973087906210856e-05
  +9.99999973087906210856e-05
  +9.99999973087906210856e-05
  +9.99999973087906210856e-05
  +9.99999973087906210856e-05
  +9.99999973087906210856e-05
  +9.99999973087906210856e-05
  +9.99999973087906210856e-05
  +9.99999973087906210856e-05
  +9.99999973087906210856e-05
  +9.99999973087906210856e-05
  +9.99999973087906210856e-05
</dep>
<dep V2.I Vx>
  -9.78442027836701846743e-32
  -2.66528157256669996779e-06
  -5.29456314505191604955e-06
  -7.88784471745399060180e-06
  -1.04451262897712388760e-05
  -1.29664078620019380071e-05
  -1.54516894341443278608e-05
  -1.79009710061966228914e-05
  -2.03142525781569867316e-05
  -2.26915341500235796259e-05
  -2.50328157217945008323e-05
  -2.73380972934678123393e-05
  -2.96073788650415863001e-05
  -3.18406604365138067763e-05
  -3.40379420078824375005e-05
  -3.61992235791454015480e-05
  -3.83245051503006389348e-05
  -4.04137867213459744801e-05
  -4.24670682922792939898e-05
  -4.44843498630983477443e-05
  -4.64656314338009605630e-05
  -4.84109130043848556214e-05
  -5.03201945748476815561e-05
  -5.21934761451871954236e-05
  -5.40307577154009984269e-05
  -5.58320392854867392023e-05
  -5.75973208554419715188e-05
  -5.93266024252642898027e-05
  -6.10198839949512071654e-05
  -6.26771655645002841520e-05
  -6.42984471339090135449e-05
  -6.58837287031748339164e-05
  -6.74330102722952516017e-05
  -6.89462918412676645154e-05
  -7.04235734100895518876e-05
  -7.18648549787582709755e-05
  -7.32701365472712739038e-05
  -7.46394181156259585875e-05
  -7.59726996838196822837e-05
  -7.72699812518499377749e-05
  -7.85312628197140552132e-05
  -7.97565443874094460661e-05
  -8.09458259549335353532e-05
  -8.20991075222837209894e-05
  -8.32163890894575093097e-05
  -8.42976706564523117814e-05
  -8.53429522232656211870e-05
  -8.63522337898949438615e-05
  -8.73255153563378403499e-05
  -8.82627969225919525127e-05
  -8.91640784886547595797e-05
  -9.00293600545240118313e-05
  -9.08586416201974595482e-05
  -9.16519231856727445906e-05
  -9.24092047509477934218e-05
  -9.31304863160204376375e-05
  -9.38157678808886579111e-05
  -9.44650494455504213635e-05
  -9.50783310100038848512e-05
  -9.56556125742471781252e-05
  -9.61968941382785664622e-05
  -9.67021757020963829013e-05
  -9.71714572656990960070e-05
  -9.76047388290851743436e-05
  -9.80020203922532626584e-05
  -9.83633019552020870140e-05
  -9.86885835179304954454e-05
  -9.89778650804373630930e-05
  -9.92311466427218768051e-05
  -9.94484282047830472472e-05
  -9.96297097666202645556e-05
  -9.97749913282327968939e-05
  -9.98842728896202783438e-05
  -9.99575544507822752243e-05
  -9.99948360117185300376e-05
  -9.99999996142400993278e-05
  -9.99999996380490977204e-05
  -9.99999996618581232181e-05
  -9.99999996856671487157e-05
  -9.99999997094761064508e-05
  -9.99999997332851590535e-05
  -9.99999997570941574461e-05
  -9.99999997809031964963e-05
  -9.99999998047121948890e-05
  -9.99999998285211932816e-05
  -9.99999998523301916742e-05
  -9.99999998761392036193e-05
  -9.99999998999482020120e-05
  -9.99999999237572139571e-05
  -9.99999999475662123497e-05
  -9.99999999713752513999e-05
  -9.99999999951842362400e-05
  -1.00000000018993234633e-04
  -1.00000000042802273683e-04
  -1.00000000066611272075e-04
  -1.00000000090420284021e-04
  -1.00000000114229282413e-04
  -1.00000000138038280806e-04
  -1.00000000161847333409e-04
  -1.00000000185656291144e-04
  -1.00000000209465316641e-04
</dep>
<dep _net6.V Vx>
  +5.47213589482230844396e+00
  +5.47213589482230755578e+00
  +5.47213589482230755578e+00
  +5.47213589482230755578e+00
  +5.47213589482230755578e+00
  +5.47213589482230844396e+00
  +5.47213589482230844396e+00
  +5.47213589482230844396e+00
  +5.47213589482230844396e+00
  +5.47213589482230844396e+00
  +5.47213589482230844396e+00
  +5.47213589482230844396e+00
  +5.47213589482230844396e+00
  +5.47213589482230844396e+00
  +5.47213589482230844396e+00
  +5.47213589482230844396e+00
  +5.47213589482230844396e+00
  +5.47213589482230844396e+00
  +5.47213589482230844396e+00
  +5.47213589482230844396e+00
  +5.47213589482230844396e+00
  +5.47213589482230844396e+00
  +5.47213589482230844396e+00
  +5.47213589482230844396e+00
  +5.47213589482230844396e+00
  +5.47213589482230844396e+00
  +5.47213589482230844396e+00
  +5.47213589482230844396e+00
  +5.47213589482230844396e+00
  +5.47213589482230844396e+00
  +5.47213589482230844396e+00
  +5.47213589482230844396e+00
  +5.47213589482230844396e+00
  +5.47213589482230844396e+00
  +5.47213589482230844396e+00
  +5.47213589482230844396e+00
  +5.47213589482230844396e+00
  +5.47213589482230844396e+00
  +5.47213589482230844396e+00
  +5.47213589482230844396e+00
  +5.47213589482230844396e+00
  +5.47213589482230844396e+00
  +5.47213589482230844396e+00
  +5.47213589482230844396e+00
  +5.47213589482230844396e+00
  +5.47213589482230844396e+00
  +5.47213589482230844396e+00
  +5.47213589482230844396e+00
  +5.47213589482230844396e+00
  +5.47213589482230844396e+00
  +5.47213589482230844396e+00
  +5.47213589482230844396e+00
  +5.47213589482230844396e+00
  +5.47213589482230844396e+00
  +5.47213589482230844396e+00
