<Qucs Dataset 0.0.17>
<indep time 400>
  +0.00000000000e+00
  +1.00250626566e-06
  +2.00501253133e-06
  +3.00751879699e-06
  +4.01002506266e-06
  +5.01253132832e-06
  +6.01503759398e-06
  +7.01754385965e-06
  +8.02005012531e-06
  +9.02255639098e-06
  +1.00250626566e-05
  +1.10275689223e-05
  +1.20300751880e-05
  +1.30325814536e-05
  +1.40350877193e-05
  +1.50375939850e-05
  +1.60401002506e-05
  +1.70426065163e-05
  +1.80451127820e-05
  +1.90476190476e-05
  +2.00501253133e-05
  +2.10526315789e-05
  +2.20551378446e-05
  +2.30576441103e-05
  +2.40601503759e-05
  +2.50626566416e-05
  +2.60651629073e-05
  +2.70676691729e-05
  +2.80701754386e-05
  +2.90726817043e-05
  +3.00751879699e-05
  +3.10776942356e-05
  +3.20802005013e-05
  +3.30827067669e-05
  +3.40852130326e-05
  +3.50877192982e-05
  +3.60902255639e-05
  +3.70927318296e-05
  +3.80952380952e-05
  +3.90977443609e-05
  +4.01002506266e-05
  +4.11027568922e-05
  +4.21052631579e-05
  +4.31077694236e-05
  +4.41102756892e-05
  +4.51127819549e-05
  +4.61152882206e-05
  +4.71177944862e-05
  +4.81203007519e-05
  +4.91228070175e-05
  +5.01253132832e-05
  +5.11278195489e-05
  +5.21303258145e-05
  +5.31328320802e-05
  +5.41353383459e-05
  +5.51378446115e-05
  +5.61403508772e-05
  +5.71428571429e-05
  +5.81453634085e-05
  +5.91478696742e-05
  +6.01503759398e-05
  +6.11528822055e-05
  +6.21553884712e-05
  +6.31578947368e-05
  +6.41604010025e-05
  +6.51629072682e-05
  +6.61654135338e-05
  +6.71679197995e-05
  +6.81704260652e-05
  +6.91729323308e-05
  +7.01754385965e-05
  +7.11779448622e-05
  +7.21804511278e-05
  +7.31829573935e-05
  +7.41854636591e-05
  +7.51879699248e-05
  +7.61904761905e-05
  +7.71929824561e-05
  +7.81954887218e-05
  +7.91979949875e-05
  +8.02005012531e-05
  +8.12030075188e-05
  +8.22055137845e-05
  +8.32080200501e-05
  +8.42105263158e-05
  +8.52130325815e-05
  +8.62155388471e-05
  +8.72180451128e-05
  +8.82205513784e-05
  +8.92230576441e-05
  +9.02255639098e-05
  +9.12280701754e-05
  +9.22305764411e-05
  +9.32330827068e-05
  +9.42355889724e-05
  +9.52380952381e-05
  +9.62406015038e-05
  +9.72431077694e-05
  +9.82456140351e-05
  +9.92481203008e-05
  +1.00250626566e-04
  +1.01253132832e-04
  +1.02255639098e-04
  +1.03258145363e-04
  +1.04260651629e-04
  +1.05263157895e-04
  +1.06265664160e-04
  +1.07268170426e-04
  +1.08270676692e-04
  +1.09273182957e-04
  +1.10275689223e-04
  +1.11278195489e-04
  +1.12280701754e-04
  +1.13283208020e-04
  +1.14285714286e-04
  +1.15288220551e-04
  +1.16290726817e-04
  +1.17293233083e-04
  +1.18295739348e-04
  +1.19298245614e-04
  +1.20300751880e-04
  +1.21303258145e-04
  +1.22305764411e-04
  +1.23308270677e-04
  +1.24310776942e-04
  +1.25313283208e-04
  +1.26315789474e-04
  +1.27318295739e-04
  +1.28320802005e-04
  +1.29323308271e-04
  +1.30325814536e-04
  +1.31328320802e-04
  +1.32330827068e-04
  +1.33333333333e-04
  +1.34335839599e-04
  +1.35338345865e-04
  +1.36340852130e-04
  +1.37343358396e-04
  +1.38345864662e-04
  +1.39348370927e-04
  +1.40350877193e-04
  +1.41353383459e-04
  +1.42355889724e-04
  +1.43358395990e-04
  +1.44360902256e-04
  +1.45363408521e-04
  +1.46365914787e-04
  +1.47368421053e-04
  +1.48370927318e-04
  +1.49373433584e-04
  +1.50375939850e-04
  +1.51378446115e-04
  +1.52380952381e-04
  +1.53383458647e-04
  +1.54385964912e-04
  +1.55388471178e-04
  +1.56390977444e-04
  +1.57393483709e-04
  +1.58395989975e-04
  +1.59398496241e-04
  +1.60401002506e-04
  +1.61403508772e-04
  +1.62406015038e-04
  +1.63408521303e-04
  +1.64411027569e-04
  +1.65413533835e-04
  +1.66416040100e-04
  +1.67418546366e-04
  +1.68421052632e-04
  +1.69423558897e-04
  +1.70426065163e-04
  +1.71428571429e-04
  +1.72431077694e-04
  +1.73433583960e-04
  +1.74436090226e-04
  +1.75438596491e-04
  +1.76441102757e-04
  +1.77443609023e-04
  +1.78446115288e-04
  +1.79448621554e-04
  +1.80451127820e-04
  +1.81453634085e-04
  +1.82456140351e-04
  +1.83458646617e-04
  +1.84461152882e-04
  +1.85463659148e-04
  +1.86466165414e-04
  +1.87468671679e-04
  +1.88471177945e-04
  +1.89473684211e-04
  +1.90476190476e-04
  +1.91478696742e-04
  +1.92481203008e-04
  +1.93483709273e-04
  +1.94486215539e-04
  +1.95488721805e-04
  +1.96491228070e-04
  +1.97493734336e-04
  +1.98496240602e-04
  +1.99498746867e-04
  +2.00501253133e-04
  +2.01503759398e-04
  +2.02506265664e-04
  +2.03508771930e-04
  +2.04511278195e-04
  +2.05513784461e-04
  +2.06516290727e-04
  +2.07518796992e-04
  +2.08521303258e-04
  +2.09523809524e-04
  +2.10526315789e-04
  +2.11528822055e-04
  +2.12531328321e-04
  +2.13533834586e-04
  +2.14536340852e-04
  +2.15538847118e-04
  +2.16541353383e-04
  +2.17543859649e-04
  +2.18546365915e-04
  +2.19548872180e-04
  +2.20551378446e-04
  +2.21553884712e-04
  +2.22556390977e-04
  +2.23558897243e-04
  +2.24561403509e-04
  +2.25563909774e-04
  +2.26566416040e-04
  +2.27568922306e-04
  +2.28571428571e-04
  +2.29573934837e-04
  +2.30576441103e-04
  +2.31578947368e-04
  +2.32581453634e-04
  +2.33583959900e-04
  +2.34586466165e-04
  +2.35588972431e-04
  +2.36591478697e-04
  +2.37593984962e-04
  +2.38596491228e-04
  +2.39598997494e-04
  +2.40601503759e-04
  +2.41604010025e-04
  +2.42606516291e-04
  +2.43609022556e-04
  +2.44611528822e-04
  +2.45614035088e-04
  +2.46616541353e-04
  +2.47619047619e-04
  +2.48621553885e-04
  +2.49624060150e-04
  +2.50626566416e-04
  +2.51629072682e-04
  +2.52631578947e-04
  +2.53634085213e-04
  +2.54636591479e-04
  +2.55639097744e-04
  +2.56641604010e-04
  +2.57644110276e-04
  +2.58646616541e-04
  +2.59649122807e-04
  +2.60651629073e-04
  +2.61654135338e-04
  +2.62656641604e-04
  +2.63659147870e-04
  +2.64661654135e-04
  +2.65664160401e-04
  +2.66666666667e-04
  +2.67669172932e-04
  +2.68671679198e-04
  +2.69674185464e-04
  +2.70676691729e-04
  +2.71679197995e-04
  +2.72681704261e-04
  +2.73684210526e-04
  +2.74686716792e-04
  +2.75689223058e-04
  +2.76691729323e-04
  +2.77694235589e-04
  +2.78696741855e-04
  +2.79699248120e-04
  +2.80701754386e-04
  +2.81704260652e-04
  +2.82706766917e-04
  +2.83709273183e-04
  +2.84711779449e-04
  +2.85714285714e-04
  +2.86716791980e-04
  +2.87719298246e-04
  +2.88721804511e-04
  +2.89724310777e-04
  +2.90726817043e-04
  +2.91729323308e-04
  +2.92731829574e-04
  +2.93734335840e-04
  +2.94736842105e-04
  +2.95739348371e-04
  +2.96741854637e-04
  +2.97744360902e-04
  +2.98746867168e-04
  +2.99749373434e-04
  +3.00751879699e-04
  +3.01754385965e-04
  +3.02756892231e-04
  +3.03759398496e-04
  +3.04761904762e-04
  +3.05764411028e-04
  +3.06766917293e-04
  +3.07769423559e-04
  +3.08771929825e-04
  +3.09774436090e-04
  +3.10776942356e-04
  +3.11779448622e-04
  +3.12781954887e-04
  +3.13784461153e-04
  +3.14786967419e-04
  +3.15789473684e-04
  +3.16791979950e-04
  +3.17794486216e-04
  +3.18796992481e-04
  +3.19799498747e-04
  +3.20802005013e-04
  +3.21804511278e-04
  +3.22807017544e-04
  +3.23809523810e-04
  +3.24812030075e-04
  +3.25814536341e-04
  +3.26817042607e-04
  +3.27819548872e-04
  +3.28822055138e-04
  +3.29824561404e-04
  +3.30827067669e-04
  +3.31829573935e-04
  +3.32832080201e-04
  +3.33834586466e-04
  +3.34837092732e-04
  +3.35839598997e-04
  +3.36842105263e-04
  +3.37844611529e-04
  +3.38847117794e-04
  +3.39849624060e-04
  +3.40852130326e-04
  +3.41854636591e-04
  +3.42857142857e-04
  +3.43859649123e-04
  +3.44862155388e-04
  +3.45864661654e-04
  +3.46867167920e-04
  +3.47869674185e-04
  +3.48872180451e-04
  +3.49874686717e-04
  +3.50877192982e-04
  +3.51879699248e-04
  +3.52882205514e-04
  +3.53884711779e-04
  +3.54887218045e-04
  +3.55889724311e-04
  +3.56892230576e-04
  +3.57894736842e-04
  +3.58897243108e-04
  +3.59899749373e-04
  +3.60902255639e-04
  +3.61904761905e-04
  +3.62907268170e-04
  +3.63909774436e-04
  +3.64912280702e-04
  +3.65914786967e-04
  +3.66917293233e-04
  +3.67919799499e-04
  +3.68922305764e-04
  +3.69924812030e-04
  +3.70927318296e-04
  +3.71929824561e-04
  +3.72932330827e-04
  +3.73934837093e-04
  +3.74937343358e-04
  +3.75939849624e-04
  +3.76942355890e-04
  +3.77944862155e-04
  +3.78947368421e-04
  +3.79949874687e-04
  +3.80952380952e-04
  +3.81954887218e-04
  +3.82957393484e-04
  +3.83959899749e-04
  +3.84962406015e-04
  +3.85964912281e-04
  +3.86967418546e-04
  +3.87969924812e-04
  +3.88972431078e-04
  +3.89974937343e-04
  +3.90977443609e-04
  +3.91979949875e-04
  +3.92982456140e-04
  +3.93984962406e-04
  +3.94987468672e-04
  +3.95989974937e-04
  +3.96992481203e-04
  +3.97994987469e-04
  +3.98997493734e-04
  +4.00000000000e-04
</indep>
<dep V1.It time>
  -1.85754424305e-04
  -1.85754424132e-04
  -1.85754424132e-04
  -1.85754424132e-04
  -1.85754424132e-04
  -1.85754424132e-04
  -1.85754424132e-04
  -1.85754424132e-04
  -1.85754424132e-04
  -1.85754424131e-04
  -1.85754424132e-04
  -1.85754424132e-04
  -1.85754424132e-04
  -1.85754424132e-04
  -1.85754424132e-04
  -1.85754424132e-04
  -1.85754424132e-04
  -1.85754424132e-04
  -1.85754424132e-04
  -1.85754424132e-04
  -1.85754424132e-04
  -1.85754424132e-04
  -1.85754424132e-04
  -1.85754424132e-04
  -1.85754424132e-04
  -1.85754424132e-04
  -1.85754424132e-04
  -1.85754424132e-04
  -1.85754424132e-04
  -1.85754424132e-04
  -1.85754424132e-04
  -1.85754424132e-04
  -1.85754424131e-04
  -1.85754424132e-04
  -1.85754424132e-04
  -1.85754424131e-04
  -1.85754424132e-04
  -1.85754424132e-04
  -1.85754424131e-04
  -1.85754424132e-04
  -1.85754424132e-04
  -1.85754424132e-04
  -1.85754424132e-04
  -1.85754424132e-04
  -1.85754424132e-04
  -1.85754424132e-04
  -1.85754424132e-04
  -1.85754424132e-04
  -1.85754424132e-04
  -1.85754424132e-04
  -1.85754424132e-04
  -1.85754424132e-04
  -1.85754424132e-04
  -1.85754424132e-04
  -1.85754424132e-04
  -1.85754424132e-04
  -1.85754424132e-04
  -1.85754424131e-04
  -1.85754424132e-04
  -1.85754424132e-04
  -1.85754424132e-04
  -1.85754424132e-04
  -1.85754424132e-04
  -1.85754424132e-04
  -1.85754424132e-04
  -1.85754424132e-04
  -1.85754424131e-04
  -1.85754424132e-04
  -1.85754424132e-04
  -1.85754424132e-04
  -1.85754424132e-04
  -1.85754424132e-04
  -1.85754424132e-04
  -1.85754424132e-04
  -1.85754424132e-04
  -1.85754424132e-04
  -1.85754424132e-04
  -1.85754424132e-04
  -1.85754424132e-04
  -1.85754424132e-04
  -1.85754424132e-04
  -1.85754424131e-04
  -1.85754424132e-04
  -1.85754424132e-04
  -1.85754424132e-04
  -1.85754424132e-04
  -1.85754424132e-04
  -1.85754424132e-04
  -1.85754424132e-04
  -1.85754424132e-04
  -1.85754424132e-04
  -1.85754424132e-04
  -1.85754424132e-04
  -1.85754424132e-04
  -1.85754424132e-04
  -1.85754424131e-04
  -1.85754424131e-04
  -1.85754424132e-04
  -1.85754424131e-04
  -1.85754424132e-04
  -1.85754424132e-04
  -1.85754424132e-04
  -1.85754424132e-04
  -1.85754424132e-04
  -1.85754424132e-04
  -1.85754424132e-04
  -1.85754424132e-04
  -1.85754424131e-04
  -1.85754424131e-04
  -1.85754424130e-04
  -1.85754424130e-04
  -1.85754424130e-04
  -1.85754424131e-04
  -1.85754424131e-04
  -1.85754424132e-04
  -1.85754424133e-04
  -1.85754424133e-04
  -1.85754424134e-04
  -1.85754424134e-04
  -1.85754424134e-04
  -1.85754424133e-04
  -1.85754424132e-04
  -1.85754424130e-04
  -1.85754424129e-04
  -1.85754424128e-04
  -1.85754424127e-04
  -1.85754424128e-04
  -1.85754424129e-04
  -1.85754424132e-04
  -1.85754424134e-04
  -1.85754424137e-04
  -1.85754424139e-04
  -1.85754424140e-04
  -1.85754424139e-04
  -1.85754424136e-04
  -1.85754424133e-04
  -1.85754424128e-04
  -1.85754424123e-04
  -1.85754424118e-04
  -1.85754424116e-04
  -1.85754424118e-04
  -1.85754424121e-04
  -1.85754424128e-04
  -1.85754424137e-04
  -1.85754424147e-04
  -1.85754424155e-04
  -1.85754424160e-04
  -1.85754424160e-04
  -1.85754424153e-04
  -1.85754424141e-04
  -1.85754424124e-04
  -1.85754424106e-04
  -1.85754424090e-04
  -1.85754424079e-04
  -1.85754424078e-04
  -1.85754424089e-04
  -1.85754424110e-04
  -1.85754424141e-04
  -1.85754424175e-04
  -1.85754424207e-04
  -1.85754424228e-04
  -1.85754424233e-04
  -1.85754424216e-04
  -1.85754424179e-04
  -1.85754424125e-04
  -1.85754424061e-04
  -1.85754424000e-04
  -1.85754423955e-04
  -1.85754423941e-04
  -1.85754423964e-04
  -1.85754424028e-04
  -1.85754424127e-04
  -1.85754424246e-04
  -1.85754424362e-04
  -1.85754424452e-04
  -1.85754424490e-04
  -1.85754424459e-04
  -1.85754424351e-04
  -1.85754424175e-04
  -1.85754423955e-04
  -1.85754423732e-04
  -1.85754423551e-04
  -1.85754423461e-04
  -1.85754423497e-04
  -1.85754423677e-04
  -1.85754423990e-04
  -1.85754424393e-04
  -1.85754424817e-04
  -1.85754425175e-04
  -1.85754425379e-04
  -1.85754425352e-04
  -1.85754425058e-04
  -1.85754424508e-04
  -1.85754423771e-04
  -1.85754422970e-04
  -1.85754422264e-04
  -1.85754421824e-04
  -1.85754421796e-04
  -1.85754422266e-04
  -1.85754423227e-04
  -1.85754424568e-04
  -1.85754426073e-04
  -1.85754427450e-04
  -1.85754428379e-04
  -1.85754428572e-04
  -1.85754427847e-04
  -1.85754426182e-04
  -1.85754423756e-04
  -1.85754420944e-04
  -1.85754418276e-04
  -1.85754416354e-04
  -1.85754415736e-04
  -1.85754416806e-04
  -1.85754419659e-04
  -1.85754424023e-04
  -1.85754429251e-04
  -1.85754434384e-04
  -1.85754438299e-04
  -1.85754439919e-04
  -1.85754438453e-04
  -1.85754433624e-04
  -1.85754425821e-04
  -1.85754416152e-04
  -1.85754406339e-04
  -1.85754398466e-04
  -1.85754394600e-04
  -1.85754396344e-04
  -1.85754404405e-04
  -1.85754418262e-04
  -1.85754436052e-04
  -1.85754454702e-04
  -1.85754470365e-04
  -1.85754479095e-04
  -1.85754477676e-04
  -1.85754464461e-04
  -1.85754440024e-04
  -1.85754407462e-04
  -1.85754372220e-04
  -1.85754341366e-04
  -1.85754322382e-04
  -1.85754321638e-04
  -1.85754342805e-04
  -1.85754385552e-04
  -1.85754444836e-04
  -1.85754511089e-04
  -1.85754571392e-04
  -1.85754611617e-04
  -1.85754619235e-04
  -1.85754586326e-04
  -1.85754512178e-04
  -1.85754404819e-04
  -1.85754280974e-04
  -1.85754164116e-04
  -1.85754080721e-04
  -1.85754055156e-04
  -1.85754104047e-04
  -1.85754231231e-04
  -1.85754424465e-04
  -1.85754654929e-04
  -1.85754880201e-04
  -1.85755050745e-04
  -1.85755119236e-04
  -1.85755051235e-04
  -1.85754835156e-04
  -1.85754489152e-04
  -1.85754062845e-04
  -1.85753632566e-04
  -1.85753289980e-04
  -1.85753125395e-04
  -1.85753208296e-04
  -1.85753568634e-04
  -1.85754182824e-04
  -1.85754968230e-04
  -1.85755789077e-04
  -1.85756475083e-04
  -1.85756851613e-04
  -1.85756777189e-04
  -1.85756181249e-04
  -1.85755093334e-04
  -1.85753655201e-04
  -1.85752110229e-04
  -1.85750769155e-04
  -1.85749956377e-04
  -1.85749945149e-04
  -1.85750892298e-04
  -1.85752783800e-04
  -1.85755402785e-04
  -1.85758331428e-04
  -1.85760996519e-04
  -1.85762762421e-04
  -1.85763063204e-04
  -1.85761549718e-04
  -1.85758214112e-04
  -1.85753452143e-04
  -1.85748037186e-04
  -1.85743005464e-04
  -1.85739477848e-04
  -1.85738456075e-04
  -1.85740625047e-04
  -1.85746176880e-04
  -1.85754665938e-04
  -1.85764921995e-04
  -1.85775083883e-04
  -1.85782834019e-04
  -1.85785871686e-04
  -1.85782551408e-04
  -1.85772486658e-04
  -1.85756868348e-04
  -1.85738329877e-04
  -1.85720387613e-04
  -1.85706696919e-04
  -1.85700438020e-04
  -1.85703988832e-04
  -1.85718743256e-04
  -1.85744729911e-04
  -1.85779794641e-04
  -1.85818622630e-04
  -1.85852565566e-04
  -1.85871331764e-04
  -1.85866492379e-04
  -1.85835272794e-04
  -1.85782617578e-04
  -1.85720122790e-04
  -1.85661730435e-04
  -1.85618431026e-04
  -1.85596008947e-04
  -1.85597412932e-04
  -1.85627012947e-04
  -1.85692979231e-04
  -1.85803575585e-04
  -1.85952988273e-04
  -1.86106011479e-04
  -1.86206931783e-04
  -1.86209799314e-04
  -1.86101321467e-04
  -1.85909415108e-04
  -1.85701227474e-04
  -1.85550560211e-04
  -1.85476043336e-04
  -1.85449297869e-04
  -1.85448559671e-04
  -1.85475149165e-04
  -1.85565347882e-04
  -1.85819919186e-04
  -1.86312085023e-04
  -1.86850236037e-04
  -1.87179921818e-04
  -1.87181769602e-04
  -1.86846837592e-04
  -1.86266808651e-04
  -1.85694782538e-04
  -1.85450999603e-04
  -1.85407753174e-04
  -1.85401314960e-04
  -1.85401376217e-04
  -1.85408262354e-04
  -1.85457702896e-04
  -1.85818306502e-04
  -1.86892481189e-04
  -1.87989841703e-04
  -1.88607890948e-04
  -1.88597321923e-04
  -1.87959329085e-04
  -1.86837118022e-04
  -1.85706205333e-04
  -1.85412733643e-04
  -1.85398089900e-04
  -1.85397269811e-04
  -1.85397272495e-04
  -1.85398124067e-04
  -1.85413655831e-04
  -1.85789152344e-04
  -1.87512097594e-04
  -1.89186290973e-04
  -1.90124240427e-04
  -1.90132265564e-04
  -1.89209114490e-04
  -1.87542597785e-04
  -1.85745959231e-04
  -1.85401859395e-04
  -1.85397140615e-04
  -1.85397046935e-04
  -1.85397046233e-04
  -1.85397124464e-04
  -1.85400836438e-04
  -1.85730073358e-04
  -1.88089253064e-04
  -1.90351927390e-04
  -1.91642161840e-04
  -1.91703331637e-04
  -1.90523584899e-04
  -1.88337045353e-04
  -1.85824861577e-04
  -1.85398690240e-04
  -1.85397046102e-04
  -1.85397035073e-04
  -1.85397034914e-04
  -1.85397041338e-04
  -1.85397796469e-04
  -1.85652787159e-04
</dep>
<dep Output.Vt time>
  +1.00000000000e+01
  +1.00000000000e+01
  +1.00000000000e+01
  +1.00000000000e+01
  +1.00000000000e+01
  +1.00000000000e+01
  +1.00000000000e+01
  +1.00000000000e+01
  +1.00000000000e+01
  +1.00000000000e+01
  +1.00000000000e+01
  +1.00000000000e+01
  +1.00000000000e+01
  +1.00000000000e+01
  +1.00000000000e+01
  +1.00000000000e+01
  +1.00000000000e+01
  +1.00000000000e+01
  +1.00000000000e+01
  +1.00000000000e+01
  +1.00000000000e+01
  +1.00000000000e+01
  +1.00000000000e+01
  +1.00000000000e+01
  +1.00000000000e+01
  +1.00000000000e+01
  +1.00000000000e+01
  +1.00000000000e+01
  +1.00000000000e+01
  +1.00000000000e+01
  +1.00000000000e+01
  +1.00000000000e+01
  +1.00000000000e+01
  +1.00000000000e+01
  +1.00000000000e+01
  +1.00000000000e+01
  +1.00000000000e+01
  +1.00000000000e+01
  +1.00000000000e+01
  +1.00000000000e+01
  +1.00000000000e+01
  +1.00000000000e+01
  +1.00000000000e+01
  +1.00000000000e+01
  +1.00000000000e+01
  +1.00000000000e+01
  +1.00000000000e+01
  +1.00000000000e+01
  +1.00000000000e+01
  +1.00000000000e+01
  +1.00000000000e+01
  +1.00000000000e+01
  +1.00000000000e+01
  +1.00000000000e+01
  +1.00000000000e+01
  +1.00000000000e+01
  +1.00000000000e+01
  +1.00000000000e+01
  +1.00000000000e+01
  +1.00000000000e+01
  +1.00000000000e+01
  +1.00000000000e+01
  +1.00000000000e+01
  +1.00000000000e+01
  +1.00000000000e+01
  +1.00000000000e+01
  +1.00000000000e+01
  +1.00000000000e+01
  +1.00000000000e+01
  +1.00000000000e+01
  +1.00000000000e+01
  +1.00000000000e+01
  +1.00000000000e+01
  +1.00000000000e+01
  +1.00000000000e+01
  +1.00000000000e+01
  +1.00000000000e+01
  +1.00000000000e+01
  +1.00000000000e+01
  +1.00000000000e+01
  +9.99999999999e+00
  +9.99999999999e+00
  +9.99999999999e+00
  +9.99999999999e+00
  +9.99999999999e+00
  +1.00000000000e+01
  +1.00000000000e+01
  +1.00000000000e+01
  +1.00000000000e+01
  +1.00000000000e+01
  +1.00000000000e+01
  +1.00000000000e+01
  +1.00000000000e+01
  +9.99999999999e+00
  +9.99999999998e+00
  +9.99999999997e+00
  +9.99999999997e+00
  +9.99999999997e+00
  +9.99999999998e+00
  +9.99999999999e+00
  +1.00000000000e+01
  +1.00000000000e+01
  +1.00000000001e+01
  +1.00000000001e+01
  +1.00000000001e+01
  +1.00000000000e+01
  +1.00000000000e+01
  +9.99999999998e+00
  +9.99999999994e+00
  +9.99999999990e+00
  +9.99999999988e+00
  +9.99999999988e+00
  +9.99999999990e+00
  +9.99999999995e+00
  +1.00000000000e+01
  +1.00000000001e+01
  +1.00000000002e+01
  +1.00000000002e+01
  +1.00000000002e+01
  +1.00000000002e+01
  +1.00000000001e+01
  +9.99999999999e+00
  +9.99999999984e+00
  +9.99999999970e+00
  +9.99999999960e+00
  +9.99999999956e+00
  +9.99999999962e+00
  +9.99999999976e+00
  +9.99999999998e+00
  +1.00000000003e+01
  +1.00000000005e+01
  +1.00000000007e+01
  +1.00000000008e+01
  +1.00000000007e+01
  +1.00000000005e+01
  +1.00000000001e+01
  +9.99999999961e+00
  +9.99999999910e+00
  +9.99999999869e+00
  +9.99999999847e+00
  +9.99999999855e+00
  +9.99999999895e+00
  +9.99999999966e+00
  +1.00000000006e+01
  +1.00000000015e+01
  +1.00000000024e+01
  +1.00000000028e+01
