<Qucs Dataset 0.0.17>
<indep Vds 50>
  +0.00000000000e+00
  -6.12244897959e-02
  -1.22448979592e-01
  -1.83673469388e-01
  -2.44897959184e-01
  -3.06122448980e-01
  -3.67346938776e-01
  -4.28571428571e-01
  -4.89795918367e-01
  -5.51020408163e-01
  -6.12244897959e-01
  -6.73469387755e-01
  -7.34693877551e-01
  -7.95918367347e-01
  -8.57142857143e-01
  -9.18367346939e-01
  -9.79591836735e-01
  -1.04081632653e+00
  -1.10204081633e+00
  -1.16326530612e+00
  -1.22448979592e+00
  -1.28571428571e+00
  -1.34693877551e+00
  -1.40816326531e+00
  -1.46938775510e+00
  -1.53061224490e+00
  -1.59183673469e+00
  -1.65306122449e+00
  -1.71428571429e+00
  -1.77551020408e+00
  -1.83673469388e+00
  -1.89795918367e+00
  -1.95918367347e+00
  -2.02040816327e+00
  -2.08163265306e+00
  -2.14285714286e+00
  -2.20408163265e+00
  -2.26530612245e+00
  -2.32653061224e+00
  -2.38775510204e+00
  -2.44897959184e+00
  -2.51020408163e+00
  -2.57142857143e+00
  -2.63265306122e+00
  -2.69387755102e+00
  -2.75510204082e+00
  -2.81632653061e+00
  -2.87755102041e+00
  -2.93877551020e+00
  -3.00000000000e+00
</indep>
<indep Vgs 10>
  -1.00000000000e+00
  -1.22222222222e+00
  -1.44444444444e+00
  -1.66666666667e+00
  -1.88888888889e+00
  -2.11111111111e+00
  -2.33333333333e+00
  -2.55555555556e+00
  -2.77777777778e+00
  -3.00000000000e+00
</indep>
<dep V2.I Vds Vgs>
  +0.00000000000e+00
  +6.85447017090e-06
  +1.25016198477e-05
  +1.69534013277e-05
  +2.02309217151e-05
  +2.23856657526e-05
  +2.35654902308e-05
  +2.40971529942e-05
  +2.43449777504e-05
  +2.44980800679e-05
  +2.46180384938e-05
  +2.47237963280e-05
  +2.48220771532e-05
  +2.49157243284e-05
  +2.50061445696e-05
  +2.50941310889e-05
  +2.51801801256e-05
  +2.52646286043e-05
  +2.53477196424e-05
  +2.54296377059e-05
  +2.55105274822e-05
  +2.55905065527e-05
  +2.56696734505e-05
  +2.57481135400e-05
  +2.58259058486e-05
  +2.59031271655e-05
  +2.59798590201e-05
  +2.60561931414e-05
  +2.61322381144e-05
  +2.62081257798e-05
  +2.62840178212e-05
  +2.63601110873e-05
  +2.64366432066e-05
  +2.65138974028e-05
  +2.65922054801e-05
  +2.66719505121e-05
  +2.67535680498e-05
  +2.68375468385e-05
  +2.69244280335e-05
  +2.70148045051e-05
  +2.71093173642e-05
  +2.72086549943e-05
  +2.73135486444e-05
  +2.74247684355e-05
  +2.75431204792e-05
  +2.76694421918e-05
  +2.78045986111e-05
  +2.79494768604e-05
  +2.81049827397e-05
  +2.82720375671e-05
  +0.00000000000e+00
  +1.08796855553e-05
  +2.05346566930e-05
  +2.89722621670e-05
  +3.62006789631e-05
  +4.22298885813e-05
  +4.70741040660e-05
  +5.07583234093e-05
  +5.33366685480e-05
  +5.49370203976e-05
  +5.58143797434e-05
  +5.62900233930e-05
  +5.65909605003e-05
  +5.68198675956e-05
  +5.70157522446e-05
  +5.71939253700e-05
  +5.73611261871e-05
  +5.75207266826e-05
  +5.76746246286e-05
  +5.78239995342e-05
  +5.79696460572e-05
  +5.81121340288e-05
  +5.82518926073e-05
  +5.83892577874e-05
  +5.85245010863e-05
  +5.86578487530e-05
  +5.87894966097e-05
  +5.89196224375e-05
  +5.90483978617e-05
  +5.91760017613e-05
  +5.93026333102e-05
  +5.94285263135e-05
  +5.95539634037e-05
  +5.96792907492e-05
  +5.98049305495e-05
  +5.99313940703e-05
  +6.00592907686e-05
  +6.01893370458e-05
  +6.03223625718e-05
  +6.04593119840e-05
  +6.06012477108e-05
  +6.07493479432e-05
  +6.09049043343e-05
  +6.10693159745e-05
  +6.12440851303e-05
  +6.14308087689e-05
  +6.16311691342e-05
  +6.18469269512e-05
  +6.20799100197e-05
  +6.23320058531e-05
  +0.00000000000e+00
  +1.45545136793e-05
  +2.78992692955e-05
  +4.00406069554e-05
  +5.09850262026e-05
  +6.07393249057e-05
  +6.93108631194e-05
  +7.67080947362e-05
  +8.29417079051e-05
  +8.80272354620e-05
  +9.19913603168e-05
  +9.48872099813e-05
  +9.68264364506e-05
  +9.80162627845e-05
  +9.87314030553e-05
  +9.92025293429e-05
  +9.95590924578e-05
  +9.98593961324e-05
  +1.00128715787e-04
  +1.00378728291e-04
  +1.00615390840e-04
  +1.00842071608e-04
  +1.01060858346e-04
  +1.01273150950e-04
  +1.01479948383e-04
  +1.01681999123e-04
  +1.01879887487e-04
  +1.02074084012e-04
  +1.02264978734e-04
  +1.02452908390e-04
  +1.02638175519e-04
  +1.02821070649e-04
  +1.03001892636e-04
  +1.03180971835e-04
  +1.03358694277e-04
  +1.03535525694e-04
  +1.03712036540e-04
  +1.03888924782e-04
  +1.04067037685e-04
  +1.04247388747e-04
  +1.04431172663e-04
  +1.04619776316e-04
  +1.04814784188e-04
  +1.05017982537e-04
  +1.05231355829e-04
  +1.05457082645e-04
  +1.05697529778e-04
  +1.05955237619e-04
  +1.06232910958e-04
  +1.06533403913e-04
  +0.00000000000e+00
  +1.79130945142e-05
  +3.46423792064e-05
  +5.01936438345e-05
  +6.45727105701e-05
  +7.77854684618e-05
  +8.98379292680e-05
  +1.00736322567e-04
  +1.10487262800e-04
  +1.19098057846e-04
  +1.26577306109e-04
  +1.32936116894e-04
  +1.38190726705e-04
  +1.42368313905e-04
  +1.45519731953e-04
  +1.47743616065e-04
  +1.49213491100e-04
  +1.50164536037e-04
  +1.50816566688e-04
  +1.51313078114e-04
  +1.51728162803e-04
  +1.52097036891e-04
  +1.52436824524e-04
  +1.52756477515e-04
  +1.53061101814e-04
  +1.53353866687e-04
  +1.53636890076e-04
  +1.53911678198e-04
  +1.54179356027e-04
  +1.54440798246e-04
  +1.54696707308e-04
  +1.54947664927e-04
  +1.55194169766e-04
  +1.55436669032e-04
  +1.55675587348e-04
  +1.55911359220e-04
  +1.56144461985e-04
  +1.56375450996e-04
  +1.56604996179e-04
  +1.56833919521e-04
  +1.57063228952e-04
  +1.57294151107e-04
  +1.57528159740e-04
  +1.57766996286e-04
  +1.58012689684e-04
  +1.58267563433e-04
  +1.58534242269e-04
  +1.58815650821e-04
  +1.59115005035e-04
  +1.59435803678e-04
  +0.00000000000e+00
  +2.09844906637e-05
  +4.08154950262e-05
  +5.94983743150e-05
  +7.70384869846e-05
  +9.34412004801e-05
  +1.08711908306e-04
  +1.22856056442e-04
  +1.35879184124e-04
  +1.47786989473e-04
  +1.58585439308e-04
  +1.68280957817e-04
  +1.76880765956e-04
  +1.84393518025e-04
  +1.90830547672e-04
  +1.96208406002e-04
  +2.00554137730e-04
  +2.03915972697e-04
  +2.06382074891e-04
  +2.08101141618e-04
  +2.09276311805e-04
  +2.10111189101e-04
  +2.10754101355e-04
  +2.11290540149e-04
  +2.11764642033e-04
  +2.12198994192e-04
  +2.12605732275e-04
  +2.12991862993e-04
  +2.13361750923e-04
  +2.13718311528e-04
  +2.14063612604e-04
  +2.14399194775e-04
  +2.14726252513e-04
  +2.15045743027e-04
  +2.15358457973e-04
  +2.15665072226e-04
  +2.15966189438e-04
  +2.16262379511e-04
  +2.16554222426e-04
  +2.16842351440e-04
  +2.17127502342e-04
  +2.17410562105e-04
  +2.17692620797e-04
  +2.17975019499e-04
  +2.18259395430e-04
  +2.18547721532e-04
  +2.18842336935e-04
  +2.19145973660e-04
  +2.19461770584e-04
  +2.19793280980e-04
  +0.00000000000e+00
  +2.37963221074e-05
  +4.64711403287e-05
  +6.80294420286e-05
  +8.84762002827e-05
  +1.07816378970e-04
  +1.26054939243e-04
  +1.43196849153e-04
  +1.59247097284e-04
  +1.74210712560e-04
  +1.88092794703e-04
  +2.00898560354e-04
  +2.12633417241e-04
  +2.23303085322e-04
  +2.32913801515e-04
  +2.41472680599e-04
  +2.48988371215e-04
  +2.55472297366e-04
  +2.60941076107e-04
  +2.65421283549e-04
  +2.68958524952e-04
  +2.71632412372e-04
  +2.73572672790e-04
  +2.74956631736e-04
  +2.75970564573e-04
  +2.76761714101e-04
  +2.77422847033e-04
  +2.78005483765e-04
  +2.78537322511e-04
  +2.79033678817e-04
  +2.79503525344e-04
  +2.79952483305e-04
  +2.80384312136e-04
  +2.80801674491e-04
  +2.81206550304e-04
  +2.81600472358e-04
  +2.81984666091e-04
  +2.82360142447e-04
  +2.82727763821e-04
  +2.83088294954e-04
  +2.83442458496e-04
  +2.83790983890e-04
  +2.84134665204e-04
  +2.84474424300e-04
  +2.84811373098e-04
  +2.85146880189e-04
  +2.85482634111e-04
  +2.85820703257e-04
  +2.86163586176e-04
  +2.86514257697e-04
  +0.00000000000e+00
  +2.63737473737e-05
  +5.16583361884e-05
  +7.58584156772e-05
  +9.89786171403e-05
  +1.21023556451e-04
  +1.41997837044e-04
  +1.61906054012e-04
  +1.80752799911e-04
  +1.98542671976e-04
  +2.15280283360e-04
  +2.30970278225e-04
  +2.45617354218e-04
  +2.59226296067e-04
  +2.71802027164e-04
  +2.83349689307e-04
  +2.93874774275e-04
  +3.03383339570e-04
  +3.11882382849e-04
  +3.19380504655e-04
  +3.25889126078e-04
  +3.31424772179e-04
  +3.36013371770e-04
  +3.39698034072e-04
  +3.42551267739e-04
  +3.44687863261e-04
  +3.46264204175e-04
  +3.47449952890e-04
  +3.48387782742e-04
  +3.49174341124e-04
  +3.49866850885e-04
  +3.50497535493e-04
  +3.51084740043e-04
  +3.51639385755e-04
  +3.52168365843e-04
  +3.52676301244e-04
  +3.53166464531e-04
  +3.53641286983e-04
  +3.54102647248e-04
  +3.54552045440e-04
  +3.54990716864e-04
  +3.55419712474e-04
  +3.55839965160e-04
  +3.56252348612e-04
  +3.56657745282e-04
  +3.57057111796e-04
  +3.57451556851e-04
  +3.57842421049e-04
  +3.58231356358e-04
  +3.58620407733e-04
  +0.00000000000e+00
  +2.87393042906e-05
  +5.64214839286e-05
  +8.30508785823e-05
  +1.08631809330e-04
  +1.33168580002e-04
  +1.56665478809e-04
  +1.79126780245e-04
  +2.00556748001e-04
  +2.20959638070e-04
  +2.40339703825e-04
  +2.58701201606e-04
  +2.76048399865e-04
  +2.92385590791e-04
  +3.07717107272e-04
  +3.22047347350e-04
  +3.35380811578e-04
  +3.47722157057e-04
  +3.59076284876e-04
  +3.69448476678e-04
  +3.78844620194e-04
  +3.87271589739e-04
  +3.94737909229e-04
  +4.01254932513e-04
  +4.06838988805e-04
  +4.11515270165e-04
  +4.15324559376e-04
  +4.18333370031e-04
  +4.20644437823e-04
  +4.22396964672e-04
  +4.23745410162e-04
  +4.24826011956e-04
  +4.25736718141e-04
  +4.26538851907e-04
  +4.27268465295e-04
  +4.27946679339e-04
  +4.28586283452e-04
  +4.29195420058e-04
  +4.29779567678e-04
  +4.30342608317e-04
  +4.30887424187e-04
  +4.31416240718e-04
  +4.31930832862e-04
  +4.32432660405e-04
  +4.32922963268e-04
  +4.33402839177e-04
  +4.33873314889e-04
  +4.34335422383e-04
  +4.34790281772e-04
  +4.35239187639e-04
  +0.00000000000e+00
  +3.09130640903e-05
  +6.08003589825e-05
  +8.96659396897e-05
  +1.17513843243e-04
  +1.44348089372e-04
  +1.70172681408e-04
  +1.94991607519e-04
  +2.18808842090e-04
  +2.41628347342e-04
  +2.63454076016e-04
  +2.84289973635e-04
  +3.04139982891e-04
  +3.23008048302e-04
  +3.40898123421e-04
  +3.57814179656e-04
  +3.73760219838e-04
  +3.88740296206e-04
  +4.02758536952e-04
  +4.15819185684e-04
  +4.27926659948e-04
  +4.39085641796e-04
  +4.49301220504e-04
  +4.58579123729e-04
  +4.66926101169e-04
  +4.74350578333e-04
  +4.80863797218e-04
  +4.86481824997e-04
  +4.91229076066e-04
  +4.95144181995e-04
  +4.98288524404e-04
  +5.00754906522e-04
  +5.02668261034e-04
  +5.04169429260e-04
  +5.05387364602e-04
  +5.06419457867e-04
  +5.07329729103e-04
  +5.08157333770e-04
  +5.08925858132e-04
  +5.09649832665e-04
  +5.10338598819e-04
  +5.10998468124e-04
  +5.11633921322e-04
  +5.12248283975e-04
  +5.12844121608e-04
  +5.13423479250e-04
  +5.13988037361e-04
  +5.14539221400e-04
  +5.15078291110e-04
  +5.15606422864e-04
  +0.00000000000e+00
  +3.29128727022e-05
  +6.48304517647e-05
  +9.57565300640e-05
  +1.25694883430e-04
  +1.54649271132e-04
  +1.82623436483e-04
  +2.09621107546e-04
  +2.35645997887e-04
  +2.60701807589e-04
  +2.84792224657e-04
  +3.07920926227e-04
  +3.30091580723e-04
  +3.51307850187e-04
  +3.71573393630e-04
  +3.90891870606e-04
  +4.09266947688e-04
  +4.26702304938e-04
  +4.43201646169e-04
  +4.58768713260e-04
  +4.73407305477e-04
  +4.87121308044e-04
  +4.99914733023e-04
  +5.11791781411e-04
  +5.22756936738e-04
  +5.32815112327e-04
  +5.41971884771e-04
  +5.50233879073e-04
  +5.57609408582e-04
  +5.64109570886e-04
  +5.69750128529e-04
  +5.74554706677e-04
  +5.78559952195e-04
  +5.81822796800e-04
  +5.84427717906e-04
  +5.86487652673e-04
  +5.88131360207e-04
  +5.89480272379e-04
  +5.90629949102e-04
  +5.91645935993e-04
  +5.92569800264e-04
  +5.93427254716e-04
  +5.94234417738e-04
  +5.95001756734e-04
  +5.95736381200e-04
  +5.96443347800e-04
  +5.97126411311e-04
  +5.97788467390e-04
  +5.98431822972e-04
  +5.99058372203e-04
</dep>
<dep Ids.I Vds Vgs>
  +0.00000000000e+00
  -6.85447017090e-06
  -1.25016198477e-05
  -1.69534013277e-05
  -2.02309217151e-05
  -2.23856657526e-05
  -2.35654902308e-05
  -2.40971529942e-05
  -2.43449777504e-05
  -2.44980800679e-05
  -2.46180384938e-05
  -2.47237963280e-05
  -2.48220771532e-05
  -2.49157243284e-05
  -2.50061445696e-05
  -2.50941310889e-05
  -2.51801801256e-05
  -2.52646286043e-05
  -2.53477196424e-05
  -2.54296377059e-05
  -2.55105274822e-05
  -2.55905065527e-05
  -2.56696734505e-05
  -2.57481135400e-05
  -2.58259058486e-05
  -2.59031271655e-05
  -2.59798590201e-05
  -2.60561931414e-05
  -2.61322381144e-05
  -2.62081257798e-05
  -2.62840178212e-05
  -2.63601110873e-05
  -2.64366432066e-05
  -2.65138974028e-05
  -2.65922054801e-05
  -2.66719505121e-05
  -2.67535680498e-05
  -2.68375468385e-05
  -2.69244280335e-05
  -2.70148045051e-05
  -2.71093173642e-05
  -2.72086549943e-05
  -2.73135486444e-05
  -2.74247684355e-05
  -2.75431204792e-05
  -2.76694421918e-05
  -2.78045986111e-05
  -2.79494768604e-05
  -2.81049827397e-05
  -2.82720375671e-05
  +0.00000000000e+00
  -1.08796855553e-05
  -2.05346566930e-05
  -2.89722621670e-05
  -3.62006789631e-05
  -4.22298885813e-05
  -4.70741040660e-05
  -5.07583234093e-05
  -5.33366685480e-05
  -5.49370203976e-05
  -5.58143797434e-05
  -5.62900233930e-05
  -5.65909605003e-05
  -5.68198675956e-05
  -5.70157522446e-05
  -5.71939253700e-05
  -5.73611261871e-05
  -5.75207266826e-05
  -5.76746246286e-05
  -5.78239995342e-05
  -5.79696460572e-05
  -5.81121340288e-05
  -5.82518926073e-05
  -5.83892577874e-05
  -5.85245010863e-05
  -5.86578487530e-05
  -5.87894966097e-05
  -5.89196224375e-05
  -5.90483978617e-05
  -5.91760017613e-05
  -5.93026333102e-05
  -5.94285263135e-05
  -5.95539634037e-05
  -5.96792907492e-05
  -5.98049305495e-05
  -5.99313940703e-05
  -6.00592907686e-05
  -6.01893370458e-05
  -6.03223625718e-05
  -6.04593119840e-05
  -6.06012477108e-05
  -6.07493479432e-05
  -6.09049043343e-05
  -6.10693159745e-05
  -6.12440851303e-05
  -6.14308087689e-05
  -6.16311691342e-05
  -6.18469269512e-05
  -6.20799100197e-05
  -6.23320058531e-05
  +0.00000000000e+00
  -1.45545136793e-05
  -2.78992692955e-05
  -4.00406069554e-05
  -5.09850262026e-05
  -6.07393249057e-05
  -6.93108631194e-05
  -7.67080947362e-05
  -8.29417079051e-05
  -8.80272354620e-05
  -9.19913603168e-05
  -9.48872099813e-05
  -9.68264364506e-05
  -9.80162627845e-05
  -9.87314030553e-05
  -9.92025293429e-05
  -9.95590924578e-05
  -9.98593961324e-05
  -1.00128715787e-04
  -1.00378728291e-04
  -1.00615390840e-04
  -1.00842071608e-04
  -1.01060858346e-04
  -1.01273150950e-04
  -1.01479948383e-04
  -1.01681999123e-04
  -1.01879887487e-04
  -1.02074084012e-04
  -1.02264978734e-04
  -1.02452908390e-04
  -1.02638175519e-04
  -1.02821070649e-04
  -1.03001892636e-04
  -1.03180971835e-04
  -1.03358694277e-04
  -1.03535525694e-04
  -1.03712036540e-04
  -1.03888924782e-04
  -1.04067037685e-04
  -1.04247388747e-04
  -1.04431172663e-04
  -1.04619776316e-04
  -1.04814784188e-04
  -1.05017982537e-04
  -1.05231355829e-04
  -1.05457082645e-04
  -1.05697529778e-04
  -1.05955237619e-04
  -1.06232910958e-04
  -1.06533403913e-04
  +0.00000000000e+00
  -1.79130945142e-05
  -3.46423792064e-05
  -5.01936438345e-05
  -6.45727105701e-05
  -7.77854684618e-05
  -8.98379292680e-05
  -1.00736322567e-04
  -1.10487262800e-04
  -1.19098057846e-04
  -1.26577306109e-04
  -1.32936116894e-04
  -1.38190726705e-04
  -1.42368313905e-04
  -1.45519731953e-04
  -1.47743616065e-04
  -1.49213491100e-04
  -1.50164536037e-04
  -1.50816566688e-04
  -1.51313078114e-04
  -1.51728162803e-04
  -1.52097036891e-04
  -1.52436824524e-04
  -1.52756477515e-04
  -1.53061101814e-04
  -1.53353866687e-04
  -1.53636890076e-04
  -1.53911678198e-04
  -1.54179356027e-04
  -1.54440798246e-04
  -1.54696707308e-04
  -1.54947664927e-04
  -1.55194169766e-04
  -1.55436669032e-04
  -1.55675587348e-04
  -1.55911359220e-04
  -1.56144461985e-04
  -1.56375450996e-04
  -1.56604996179e-04
  -1.56833919521e-04
  -1.57063228952e-04
  -1.57294151107e-04
  -1.57528159740e-04
  -1.57766996286e-04
  -1.58012689684e-04
  -1.58267563433e-04
  -1.58534242269e-04
  -1.58815650821e-04
  -1.59115005035e-04
  -1.59435803678e-04
  +0.00000000000e+00
  -2.09844906637e-05
  -4.08154950262e-05
  -5.94983743150e-05
  -7.70384869846e-05
  -9.34412004801e-05
  -1.08711908306e-04
  -1.22856056442e-04
  -1.35879184124e-04
  -1.47786989473e-04
  -1.58585439308e-04
  -1.68280957817e-04
  -1.76880765956e-04
  -1.84393518025e-04
  -1.90830547672e-04
  -1.96208406002e-04
  -2.00554137730e-04
  -2.03915972697e-04
  -2.06382074891e-04
  -2.08101141618e-04
  -2.09276311805e-04
  -2.10111189101e-04
  -2.10754101355e-04
  -2.11290540149e-04
  -2.11764642033e-04
  -2.12198994192e-04
  -2.12605732275e-04
  -2.12991862993e-04
  -2.13361750923e-04
  -2.13718311528e-04
  -2.14063612604e-04
  -2.14399194775e-04
  -2.14726252513e-04
  -2.15045743027e-04
  -2.15358457973e-04
  -2.15665072226e-04
  -2.15966189438e-04
  -2.16262379511e-04
  -2.16554222426e-04
  -2.16842351440e-04
  -2.17127502342e-04
  -2.17410562105e-04
  -2.17692620797e-04
  -2.17975019499e-04
  -2.18259395430e-04
  -2.18547721532e-04
  -2.18842336935e-04
  -2.19145973660e-04
  -2.19461770584e-04
  -2.19793280980e-04
  +0.00000000000e+00
  -2.37963221074e-05
  -4.64711403287e-05
  -6.80294420286e-05
  -8.84762002827e-05
  -1.07816378970e-04
  -1.26054939243e-04
  -1.43196849153e-04
  -1.59247097284e-04
  -1.74210712560e-04
  -1.88092794703e-04
  -2.00898560354e-04
  -2.12633417241e-04
  -2.23303085322e-04
  -2.32913801515e-04
  -2.41472680599e-04
  -2.48988371215e-04
  -2.55472297366e-04
  -2.60941076107e-04
  -2.65421283549e-04
  -2.68958524952e-04
  -2.71632412372e-04
  -2.73572672790e-04
  -2.74956631736e-04
  -2.75970564573e-04
  -2.76761714101e-04
  -2.77422847033e-04
  -2.78005483765e-04
  -2.78537322511e-04
  -2.79033678817e-04
  -2.79503525344e-04
  -2.79952483305e-04
  -2.80384312136e-04
  -2.80801674491e-04
  -2.81206550304e-04
  -2.81600472358e-04
  -2.81984666091e-04
  -2.82360142447e-04
  -2.82727763821e-04
  -2.83088294954e-04
  -2.83442458496e-04
  -2.83790983890e-04
  -2.84134665204e-04
  -2.84474424300e-04
  -2.84811373098e-04
  -2.85146880189e-04
  -2.85482634111e-04
  -2.85820703257e-04
  -2.86163586176e-04
  -2.86514257697e-04
  +0.00000000000e+00
  -2.63737473737e-05
  -5.16583361884e-05
  -7.58584156772e-05
  -9.89786171403e-05
  -1.21023556451e-04
  -1.41997837044e-04
  -1.61906054012e-04
  -1.80752799911e-04
  -1.98542671976e-04
  -2.15280283360e-04
  -2.30970278225e-04
  -2.45617354218e-04
  -2.59226296067e-04
  -2.71802027164e-04
  -2.83349689307e-04
  -2.93874774275e-04
  -3.03383339570e-04
  -3.11882382849e-04
  -3.19380504655e-04
  -3.25889126078e-04
  -3.31424772179e-04
  -3.36013371770e-04
  -3.39698034072e-04
  -3.42551267739e-04
  -3.44687863261e-04
  -3.46264204175e-04
  -3.47449952890e-04
  -3.48387782742e-04
  -3.49174341124e-04
  -3.49866850885e-04
  -3.50497535493e-04
  -3.51084740043e-04
  -3.51639385755e-04
  -3.52168365843e-04
  -3.52676301244e-04
  -3.53166464531e-04
  -3.53641286983e-04
  -3.54102647248e-04
  -3.54552045440e-04
  -3.54990716864e-04
  -3.55419712474e-04
  -3.55839965160e-04
  -3.56252348612e-04
  -3.56657745282e-04
  -3.57057111796e-04
  -3.57451556851e-04
  -3.57842421049e-04
  -3.58231356358e-04
  -3.58620407733e-04
  +0.00000000000e+00
  -2.87393042906e-05
  -5.64214839286e-05
  -8.30508785823e-05
  -1.08631809330e-04
  -1.33168580002e-04
  -1.56665478809e-04
  -1.79126780245e-04
  -2.00556748001e-04
  -2.20959638070e-04
  -2.40339703825e-04
  -2.58701201606e-04
  -2.76048399865e-04
  -2.92385590791e-04
  -3.07717107272e-04
  -3.22047347350e-04
  -3.35380811578e-04
  -3.47722157057e-04
  -3.59076284876e-04
  -3.69448476678e-04
  -3.78844620194e-04
  -3.87271589739e-04
  -3.94737909229e-04
  -4.01254932513e-04
  -4.06838988805e-04
  -4.11515270165e-04
  -4.15324559376e-04
  -4.18333370031e-04
  -4.20644437823e-04
  -4.22396964672e-04
  -4.23745410162e-04
  -4.24826011956e-04
  -4.25736718141e-04
  -4.26538851907e-04
  -4.27268465295e-04
  -4.27946679339e-04
