<Qucs Dataset 0.0.10>
<indep dtime 25>
  +0.00000000000e+00
  +5.00000000000e-09
  +1.00000000000e-08
  +1.50000000000e-08
  +2.00000000000e-08
  +2.50000000000e-08
  +3.00000000000e-08
  +3.50000000000e-08
  +4.00000000000e-08
  +4.50000000000e-08
  +5.00000000000e-08
  +5.50000000000e-08
  +6.00000000000e-08
  +6.50000000000e-08
  +7.00000000000e-08
  +7.50000000000e-08
  +8.00000000000e-08
  +8.50000000000e-08
  +9.00000000000e-08
  +9.50000000000e-08
  +1.00000000000e-07
  +1.05000000000e-07
  +1.10000000000e-07
  +1.15000000000e-07
  +1.20000000000e-07
</indep>
<dep sub1.arch_sub_jkff.sub1.arch_sub_dff_sr.i0.X dtime>
  0
  0
  1
  1
  1
  1
  1
  1
  1
  1
  1
  1
  1
  1
  1
  1
  1
  1
  1
  1
  0
  0
  1
  1
  1
</dep>
<dep sub1.arch_sub_jkff.sub1.arch_sub_dff_sr.i1.X dtime>
  1
  1
  1
  0
  1
  0
  1
  0
  1
  0
  1
  0
  1
  0
  1
  0
  1
  0
  1
  0
  1
  1
  1
  0
  1
</dep>
<dep sub1.arch_sub_jkff.sub1.arch_sub_dff_sr.i2.X dtime>
  1
  0
  1
  0
  1
  0
  1
  0
  1
  0
  1
  0
  1
  0
  1
  0
  1
  0
  1
  0
  1
  0
  1
  0
  1
</dep>
<dep sub1.arch_sub_jkff.sub1.arch_sub_dff_sr.i3.X dtime>
  1
  1
  0
  1
  0
  0
  0
  1
  0
  0
  0
  1
  0
  0
  0
  1
  0
  0
  0
  1
  1
  1
  0
  1
  0
</dep>
<dep sub1.arch_sub_jkff.sub1.arch_sub_dff_sr.q.X dtime>
  0
  0
  0
  1
  1
  0
  0
  1
  1
  0
  0
  1
  1
  0
  0
  1
  1
  0
  0
  1
  1
  0
  0
  1
  1
</dep>
<dep sub1.arch_sub_jkff.sub1.arch_sub_dff_sr.qb.X dtime>
  1
  1
  1
  0
  0
  0
  0
  0
  0
  0
  0
  0
  0
  0
  0
  0
  0
  0
  0
  0
  0
  1
  1
  0
  0
</dep>
<dep sub1.arch_sub_jkff.sub1._outnetq.X dtime>
  0
  0
  0
  1
  1
  0
  0
  1
  1
  0
  0
  1
  1
  0
  0
  1
  1
  0
  0
  1
  1
  0
  0
  1
  1
</dep>
<dep sub1.arch_sub_jkff.sub1._outnetqb.X dtime>
  1
  1
  1
  0
  0
  0
  0
  0
  0
  0
  0
  0
  0
  0
  0
  0
  0
  0
  0
  0
  0
  1
  1
  0
  0
</dep>
<dep sub1.arch_sub_jkff.sub1.clock.X dtime>
  0
  1
  0
  1
  0
  1
  0
  1
  0
  1
  0
  1
  0
  1
  0
  1
  0
  1
  0
  1
  0
  1
  0
  1
  0
</dep>
<dep sub1.arch_sub_jkff.sub1.din.X dtime>
  0
  0
  0
  1
  1
  0
  0
  1
  1
  0
  0
  1
  1
  0
  0
  1
  1
  1
  1
  0
  0
  0
  0
  1
  1
</dep>
<dep sub1.arch_sub_jkff.sub1.reset.X dtime>
  0
  0
  1
  1
  1
  1
  1
  1
  1
  1
  1
  1
  1
  1
  1
  1
  1
  1
  1
  1
  1
  1
  1
  1
  1
</dep>
<dep sub1.arch_sub_jkff.sub1.set.X dtime>
  1
  1
  1
  1
  1
  1
  1
  1
  1
  1
  1
  1
  1
  1
  1
  1
  1
  1
  1
  1
  1
  1
  1
  1
  1
</dep>
<dep sub1.arch_sub_jkff._net0.X dtime>
  1
  1
  1
  0
  0
  1
  1
  0
  0
  1
  1
  0
  0
  1
  1
  0
  0
  1
  1
  0
  0
  1
  1
  0
  0
</dep>
<dep sub1.arch_sub_jkff._net2.X dtime>
  0
  0
  0
  0
  0
  1
  1
  0
  0
  1
  1
  1
  1
  1
  1
  0
  0
  1
  1
  0
  0
  1
  1
  1
  1
</dep>
<dep sub1.arch_sub_jkff._net3.X dtime>
  0
  0
  0
  1
  1
  0
  0
  1
  1
  0
  0
  1
  1
  0
  0
  1
  1
  0
  0
  1
  1
  0
  0
  1
  1
</dep>
<dep sub1.arch_sub_jkff._net4.X dtime>
  0
  0
  0
  1
  1
  0
  0
  1
  1
  0
  0
  1
  1
  0
  0
  1
  1
  0
  0
  0
  0
  0
  0
  1
  1
</dep>
<dep sub1.arch_sub_jkff._net5.X dtime>
  0
  1
  0
  1
  0
  0
  0
  1
  0
  0
  0
  1
  0
  0
  0
  1
  0
  0
  0
  0
  0
  0
  0
  1
  0
</dep>
<dep sub1.arch_sub_jkff._net7.X dtime>
  1
  1
  1
  0
  0
  0
  0
  0
  0
  0
  0
  0
  0
  0
  0
  0
  0
  0
  0
  0
  0
  1
  1
  0
  0
</dep>
<dep sub1._net1.X dtime>
  0
  0
  0
  1
  1
  0
  0
  1
  1
  0
  0
  1
  1
  0
  0
  1
  1
  0
  0
  1
  1
  0
  0
  1
  1
</dep>
<dep sub1._net10.X dtime>
  0
  0
  1
  1
  1
  1
  1
  1
  1
  1
  1
  1
  1
  1
  1
  1
  1
  1
  1
  1
  1
  1
  1
  1
  1
</dep>
<dep sub1._net6.X dtime>
  0
  0
  0
  1
  1
  0
  0
  1
  1
  0
  0
  1
  1
  0
  0
  1
  1
  0
  0
  0
  0
  0
  0
  1
  1
</dep>
<dep sub1._net8.X dtime>
  0
  1
  0
  1
  0
  1
  0
  1
  0
  0
  0
  1
  0
  1
  0
  1
  0
  1
  0
  1
  0
  1
  0
  1
  0
</dep>
<dep sub1._net9.X dtime>
  1
  1
  1
  0
  0
  1
  1
  0
  0
  1
  1
  0
  0
  1
  1
  0
  0
  1
  1
  0
  0
  1
  1
  0
  0
</dep>
<dep sub1._outnet_net3.X dtime>
  0
  0
  0
  1
  1
  0
  0
  1
  1
  0
  0
  1
  1
  0
  0
  1
  1
  0
  0
  1
  1
  0
  0
  1
  1
</dep>
<dep sub1._outnet_net7.X dtime>
  1
  1
  1
  0
  0
  0
  0
  0
  0
  0
  0
  0
  0
  0
  0
  0
  0
  0
  0
  0
  0
  1
  1
  0
  0
</dep>
<dep sub2.arch_sub_jkff.sub1.arch_sub_dff_sr.i0.X dtime>
  0
  0
  1
  1
  1
  1
  1
  1
  1
  1
  1
  1
  1
  1
  1
  1
  1
  1
  1
  1
  0
  0
  1
  1
  1
</dep>
<dep sub2.arch_sub_jkff.sub1.arch_sub_dff_sr.i1.X dtime>
  1
  1
  1
  0
  1
  0
  1
  0
  1
  0
  1
  0
  1
  0
  1
  0
  1
  0
  1
  0
  1
  1
  1
  0
  1
</dep>
<dep sub2.arch_sub_jkff.sub1.arch_sub_dff_sr.i2.X dtime>
  1
  0
  1
  0
  1
  0
  1
  0
  1
  0
  1
  0
  1
  0
  1
  0
  1
  0
  1
  0
  1
  0
  1
  0
  1
</dep>
<dep sub2.arch_sub_jkff.sub1.arch_sub_dff_sr.i3.X dtime>
  1
  1
  0
  1
  0
  0
  0
  1
  0
  0
  0
  1
  0
  0
  0
  1
  0
  0
  0
  1
  1
  1
  0
  1
  0
</dep>
<dep sub2.arch_sub_jkff.sub1.arch_sub_dff_sr.q.X dtime>
  0
  0
  0
  1
  1
  0
  0
  1
  1
  0
  0
  1
  1
  0
  0
  1
  1
  0
  0
  1
  1
  0
  0
  1
  1
</dep>
<dep sub2.arch_sub_jkff.sub1.arch_sub_dff_sr.qb.X dtime>
  1
  1
  1
  0
  0
  0
  0
  0
  0
  0
  0
  0
  0
  0
  0
  0
  0
  0
  0
  0
  0
  1
  1
  0
  0
</dep>
<dep sub2.arch_sub_jkff.sub1._outnetq.X dtime>
  0
  0
  0
  1
  1
  0
  0
  1
  1
  0
  0
  1
  1
  0
  0
  1
  1
  0
  0
  1
  1
  0
  0
  1
  1
</dep>
<dep sub2.arch_sub_jkff.sub1._outnetqb.X dtime>
  1
  1
  1
  0
  0
  0
  0
  0
  0
  0
  0
  0
  0
  0
  0
  0
  0
  0
  0
  0
  0
  1
  1
  0
  0
</dep>
<dep sub2.arch_sub_jkff.sub1.clock.X dtime>
  0
  1
  0
  1
  0
  1
  0
  1
  0
  1
  0
  1
  0
  1
  0
  1
  0
  1
  0
  1
  0
  1
  0
  1
  0
</dep>
<dep sub2.arch_sub_jkff.sub1.din.X dtime>
  0
  0
  0
  1
  1
  0
  0
  1
  1
  0
  0
  1
  1
  0
  0
  1
  1
  1
  1
  0
  0
  0
  0
  1
  1
</dep>
<dep sub2.arch_sub_jkff.sub1.reset.X dtime>
  0
  0
  1
  1
  1
  1
  1
  1
  1
  1
  1
  1
  1
  1
  1
  1
  1
  1
  1
  1
  1
  1
  1
  1
  1
</dep>
<dep sub2.arch_sub_jkff.sub1.set.X dtime>
  1
  1
  1
  1
  1
  1
  1
  1
  1
  1
  1
  1
  1
  1
  1
  1
  1
  1
  1
  1
  1
  1
  1
  1
  1
</dep>
<dep sub2.arch_sub_jkff._net0.X dtime>
  1
  1
  1
  0
  0
  1
  1
  0
  0
  1
  1
  0
  0
  1
  1
  0
  0
  1
  1
  0
  0
  1
  1
  0
  0
</dep>
<dep sub2.arch_sub_jkff._net2.X dtime>
  0
  0
  0
  0
  0
  1
  1
  0
  0
  1
  1
  1
  1
  1
  1
  0
  0
  1
  1
  0
  0
  1
  1
  1
  1
</dep>
<dep sub2.arch_sub_jkff._net3.X dtime>
  0
  0
  0
  1
  1
  0
  0
  1
  1
  0
  0
  1
  1
  0
  0
  1
  1
  0
  0
  1
  1
  0
  0
  1
  1
</dep>
<dep sub2.arch_sub_jkff._net4.X dtime>
  0
  0
  0
  1
  1
  0
  0
  1
  1
  0
  0
  1
  1
  0
  0
  1
  1
  0
  0
  0
  0
  0
  0
  1
  1
</dep>
<dep sub2.arch_sub_jkff._net5.X dtime>
  0
  1
  0
  1
  0
  0
  0
  1
  0
  0
  0
  1
  0
  0
  0
  1
  0
  0
  0
  0
  0
  0
  0
  1
  0
</dep>
<dep sub2.arch_sub_jkff._net7.X dtime>
  1
  1
  1
  0
  0
  0
  0
  0
  0
  0
  0
  0
  0
  0
  0
  0
  0
  0
  0
  0
  0
  1
  1
  0
  0
</dep>
<dep sub2._net1.X dtime>
  0
  0
  0
  1
  1
  0
  0
  1
  1
  0
  0
  1
  1
  0
  0
  1
  1
  0
  0
  1
  1
  0
  0
  1
  1
</dep>
<dep sub2._net10.X dtime>
  0
  0
  1
  1
  1
  1
  1
  1
  1
  1
  1
  1
  1
  1
  1
  1
  1
  1
  1
  1
  1
  1
  1
  1
  1
</dep>
<dep sub2._net6.X dtime>
  0
  0
  0
  1
  1
  0
  0
  1
  1
  0
  0
  1
  1
  0
  0
  1
  1
  0
  0
  0
  0
  0
  0
  1
  1
</dep>
<dep sub2._net8.X dtime>
  0
  1
  0
  1
  0
  1
  0
  1
  0
  0
  0
  1
  0
  1
  0
  1
  0
  1
  0
  1
  0
  1
  0
  1
  0
</dep>
<dep sub2._net9.X dtime>
  1
  1
  1
  0
  0
  1
  1
  0
  0
  1
  1
  0
  0
  1
  1
  0
  0
  1
  1
  0
  0
  1
  1
  0
  0
</dep>
<dep sub2._outnet_net3.X dtime>
  0
  0
  0
  1
  1
  0
  0
  1
  1
  0
  0
  1
  1
  0
  0
  1
  1
  0
  0
  1
  1
  0
  0
  1
  1
</dep>
<dep sub2._outnet_net7.X dtime>
  1
  1
  1
  0
  0
  0
  0
  0
  0
  0
  0
  0
  0
  0
  0
  0
  0
  0
  0
  0
  0
  1
  1
  0
  0
</dep>
<dep sub3.arch_sub_jkff.sub1.arch_sub_dff_sr.i0.X dtime>
  0
  0
  1
  1
  1
  1
  1
  1
  1
  1
  1
  1
  1
  1
  1
  1
  1
  1
  1
  1
  0
  0
  1
  1
  1
</dep>
<dep sub3.arch_sub_jkff.sub1.arch_sub_dff_sr.i1.X dtime>
  1
  1
  1
  0
  1
  0
  1
  0
  1
  0
  1
  0
  1
  0
  1
  0
  1
  0
  1
  0
  1
  1
  1
  0
  1
</dep>
<dep sub3.arch_sub_jkff.sub1.arch_sub_dff_sr.i2.X dtime>
  1
  0
  1
  0
  1
  0
  1
  0
  1
  0
  1
  0
  1
  0
  1
  0
  1
  0
  1
  0
  1
  0
  1
  0
  1
</dep>
<dep sub3.arch_sub_jkff.sub1.arch_sub_dff_sr.i3.X dtime>
  1
  1
  0
  1
  0
  0
  0
  1
  0
  0
  0
  1
  0
  0
  0
  1
  0
  0
  0
  1
  1
  1
  0
  1
  0
</dep>
<dep sub3.arch_sub_jkff.sub1.arch_sub_dff_sr.q.X dtime>
  0
  0
  0
  1
  1
  0
  0
  1
  1
  0
  0
  1
  1
  0
  0
  1
  1
  0
  0
  1
  1
  0
  0
  1
  1
</dep>
<dep sub3.arch_sub_jkff.sub1.arch_sub_dff_sr.qb.X dtime>
  1
  1
  1
  0
  0
  0
  0
  0
  0
  0
  0
  0
  0
  0
  0
  0
  0
  0
  0
  0
  0
  1
  1
  0
  0
</dep>
<dep sub3.arch_sub_jkff.sub1._outnetq.X dtime>
  0
  0
  0
  1
  1
  0
  0
  1
  1
  0
  0
  1
  1
  0
  0
  1
  1
  0
  0
  1
  1
  0
  0
  1
  1
</dep>
<dep sub3.arch_sub_jkff.sub1._outnetqb.X dtime>
  1
  1
  1
  0
  0
  0
  0
  0
  0
  0
  0
  0
  0
  0
  0
  0
  0
  0
  0
  0
  0
  1
  1
  0
  0
</dep>
<dep sub3.arch_sub_jkff.sub1.clock.X dtime>
  0
  1
  0
  1
  0
  1
  0
  1
  0
  1
  0
  1
  0
  1
  0
  1
  0
  1
  0
  1
  0
  1
  0
  1
  0
</dep>
<dep sub3.arch_sub_jkff.sub1.din.X dtime>
  0
  0
  0
  1
  1
  0
  0
  1
  1
  0
  0
  1
  1
  0
  0
  1
  1
  1
  1
  0
  0
  0
  0
  1
  1
</dep>
<dep sub3.arch_sub_jkff.sub1.reset.X dtime>
  0
  0
  1
  1
  1
  1
  1
  1
  1
  1
  1
  1
  1
  1
  1
  1
  1
  1
  1
  1
  1
  1
  1
  1
  1
</dep>
<dep sub3.arch_sub_jkff.sub1.set.X dtime>
  1
  1
  1
  1
  1
  1
  1
  1
  1
  1
  1
  1
  1
  1
  1
  1
  1
  1
  1
  1
  1
  1
  1
  1
  1
</dep>
<dep sub3.arch_sub_jkff._net0.X dtime>
  1
  1
  1
  0
  0
  1
  1
  0
  0
  1
  1
  0
  0
  1
  1
  0
  0
  1
  1
  0
  0
  1
  1
  0
  0
</dep>
<dep sub3.arch_sub_jkff._net2.X dtime>
  0
  0
  0
  0
  0
  1
  1
  0
  0
  1
  1
  1
  1
  1
  1
  0
  0
  1
  1
  0
  0
  1
  1
  1
  1
</dep>
<dep sub3.arch_sub_jkff._net3.X dtime>
  0
  0
  0
  1
  1
  0
  0
  1
  1
  0
  0
  1
  1
  0
  0
  1
  1
  0
  0
  1
  1
  0
  0
  1
  1
</dep>
<dep sub3.arch_sub_jkff._net4.X dtime>
  0
  0
  0
  1
  1
  0
  0
  1
  1
  0
  0
  1
  1
  0
  0
  1
  1
  0
  0
  0
  0
  0
  0
  1
  1
</dep>
<dep sub3.arch_sub_jkff._net5.X dtime>
  0
  1
  0
  1
  0
  0
  0
  1
  0
  0
  0
  1
  0
  0
  0
  1
  0
  0
  0
  0
  0
  0
  0
  1
  0
</dep>
<dep sub3.arch_sub_jkff._net7.X dtime>
  1
  1
  1
  0
  0
  0
  0
  0
  0
  0
  0
  0
  0
  0
  0
  0
  0
  0
  0
  0
  0
  1
  1
  0
  0
</dep>
<dep sub3._net1.X dtime>
  0
  0
  0
  1
  1
  0
  0
  1
  1
  0
  0
  1
  1
  0
  0
  1
  1
  0
  0
  1
  1
  0
  0
  1
  1
</dep>
<dep sub3._net10.X dtime>
  0
  0
  1
  1
  1
  1
  1
  1
  1
  1
  1
  1
  1
  1
  1
  1
  1
  1
  1
  1
  1
  1
  1
  1
  1
</dep>
<dep sub3._net6.X dtime>
  0
  0
  0
  1
  1
  0
  0
  1
  1
  0
  0
  1
  1
  0
  0
  1
  1
  0
  0
  0
  0
  0
  0
  1
  1
</dep>
<dep sub3._net8.X dtime>
  0
  1
  0
  1
  0
  1
  0
  1
  0
  0
  0
  1
  0
  1
  0
  1
  0
  1
  0
  1
  0
  1
  0
  1
  0
</dep>
<dep sub3._net9.X dtime>
  1
  1
  1
  0
  0
  1
  1
  0
  0
  1
  1
  0
  0
  1
  1
  0
  0
  1
  1
  0
  0
  1
  1
  0
  0
</dep>
<dep sub3._outnet_net3.X dtime>
  0
  0
  0
  1
  1
  0
  0
  1
  1
  0
  0
  1
  1
  0
  0
  1
  1
  0
  0
  1
  1
  0
  0
  1
  1
</dep>
<dep sub3._outnet_net7.X dtime>
  1
  1
  1
  0
  0
  0
  0
  0
  0
  0
  0
  0
  0
  0
  0
  0
  0
  0
  0
  0
  0
  1
  1
  0
  0
</dep>
<dep sub4.arch_sub_jkff.sub1.arch_sub_dff_sr.i0.X dtime>
  0
  0
  1
  1
  1
  1
  1
  1
  1
  1
  1
  1
  1
  1
  1
  1
  1
  1
  1
  1
  0
  0
  1
  1
  1
</dep>
<dep sub4.arch_sub_jkff.sub1.arch_sub_dff_sr.i1.X dtime>
  1
  1
  1
  0
  1
  0
  1
  0
  1
  0
  1
  0
  1
  0
  1
  0
  1
  0
  1
  0
  1
  1
  1
  0
  1
</dep>
<dep sub4.arch_sub_jkff.sub1.arch_sub_dff_sr.i2.X dtime>
  1
  0
  1
  0
  1
  0
  1
  0
  1
  0
  1
  0
  1
  0
  1
  0
  1
  0
  1
  0
  1
  0
  1
  0
  1
</dep>
<dep sub4.arch_sub_jkff.sub1.arch_sub_dff_sr.i3.X dtime>
  1
  1
  0
  1
  0
  0
  0
  1
  0
  0
  0
  1
  0
  0
  0
  1
  0
  0
  0
  1
  1
  1
  0
  1
  0
</dep>
<dep sub4.arch_sub_jkff.sub1.arch_sub_dff_sr.q.X dtime>
  0
  0
  0
  1
  1
  0
  0
  1
  1
  0
  0
  1
  1
  0
  0
  1
  1
  0
  0
  1
  1
  0
  0
  1
  1
</dep>
<dep sub4.arch_sub_jkff.sub1.arch_sub_dff_sr.qb.X dtime>
  1
  1
  1
  0
  0
  0
  0
  0
  0
  0
  0
  0
  0
  0
  0
  0
  0
  0
  0
  0
  0
  1
  1
  0
  0
</dep>
<dep sub4.arch_sub_jkff.sub1._outnetq.X dtime>
  0
  0
  0
  1
  1
  0
  0
  1
  1
  0
  0
  1
  1
  0
  0
  1
  1
  0
  0
  1
  1
  0
  0
  1
  1
</dep>
<dep sub4.arch_sub_jkff.sub1._outnetqb.X dtime>
  1
  1
  1
  0
  0
  0
  0
  0
  0
  0
  0
  0
  0
  0
  0
  0
  0
  0
  0
  0
  0
  1
  1
  0
  0
</dep>
<dep sub4.arch_sub_jkff.sub1.clock.X dtime>
  0
  1
  0
  1
  0
  1
  0
  1
  0
  1
  0
  1
  0
  1
  0
  1
  0
  1
  0
  1
  0
  1
  0
  1
  0
</dep>
<dep sub4.arch_sub_jkff.sub1.din.X dtime>
  0
  0
  0
  1
  1
  0
  0
  1
  1
  0
  0
  1
  1
  0
  0
  1
  1
  1
  1
  0
  0
  0
  0
  1
  1
</dep>
<dep sub4.arch_sub_jkff.sub1.reset.X dtime>
  0
  0
  1
  1
  1
  1
  1
  1
  1
  1
  1
  1
  1
  1
  1
  1
  1
  1
  1
  1
  1
  1
  1
  1
  1
</dep>
<dep sub4.arch_sub_jkff.sub1.set.X dtime>
  1
  1
  1
  1
  1
  1
  1
  1
  1
  1
  1
  1
  1
  1
  1
  1
  1
  1
  1
  1
  1
  1
  1
  1
  1
</dep>
<dep sub4.arch_sub_jkff._net0.X dtime>
  1
  1
  1
  0
  0
  1
  1
  0
  0
  1
  1
  0
  0
  1
  1
  0
  0
  1
  1
  0
  0
  1
  1
  0
  0
</dep>
<dep sub4.arch_sub_jkff._net2.X dtime>
  0
  0
  0
  0
  0
  1
  1
  0
  0
  1
  1
  1
  1
  1
  1
  0
  0
  1
  1
  0
  0
  1
  1
  1
  1
</dep>
<dep sub4.arch_sub_jkff._net3.X dtime>
  0
  0
  0
  1
  1
  0
  0
  1
  1
  0
  0
  1
  1
  0
  0
  1
  1
  0
  0
  1
  1
  0
  0
  1
  1
</dep>
<dep sub4.arch_sub_jkff._net4.X dtime>
  0
  0
  0
  1
  1
  0
  0
  1
  1
  0
  0
  1
  1
  0
  0
  1
  1
  0
  0
  0
  0
  0
  0
  1
  1
</dep>
<dep sub4.arch_sub_jkff._net5.X dtime>
  0
  1
  0
  1
  0
  0
  0
  1
  0
  0
  0
  1
  0
  0
  0
  1
  0
  0
  0
  0
  0
  0
  0
  1
  0
</dep>
<dep sub4.arch_sub_jkff._net7.X dtime>
  1
  1
  1
  0
  0
  0
  0
  0
  0
  0
  0
  0
  0
  0
  0
  0
  0
  0
  0
  0
  0
  1
  1
  0
  0
</dep>
<dep sub4._net1.X dtime>
  0
  0
  0
  1
  1
  0
  0
  1
  1
  0
  0
  1
  1
  0
  0
  1
  1
  0
  0
  1
  1
  0
  0
  1
  1
</dep>
<dep sub4._net10.X dtime>
  0
  0
  1
  1
  1
  1
  1
  1
  1
  1
  1
  1
  1
  1
  1
  1
  1
  1
  1
  1
  1
  1
  1
  1
  1
</dep>
<dep sub4._net6.X dtime>
  0
  0
  0
  1
  1
  0
  0
  1
  1
  0
  0
  1
  1
  0
  0
  1
  1
  0
  0
  0
  0
  0
  0
  1
  1
</dep>
<dep sub4._net8.X dtime>
  0
  1
  0
  1
  0
  1
  0
  1
  0
  0
  0
  1
  0
  1
  0
  1
  0
  1
  0
  1
  0
  1
  0
  1
  0
</dep>
<dep sub4._net9.X dtime>
  1
  1
  1
  0
  0
  1
  1
  0
  0
  1
  1
  0
  0
  1
  1
  0
  0
  1
  1
  0
  0
  1
  1
  0
  0
</dep>
<dep sub4._outnet_net3.X dtime>
  0
  0
  0
  1
  1
  0
  0
  1
  1
  0
  0
  1
  1
  0
  0
  1
  1
  0
  0
  1
  1
  0
  0
  1
  1
</dep>
<dep sub4._outnet_net7.X dtime>
  1
  1
  1
  0
  0
  0
  0
  0
  0
  0
  0
  0
  0
  0
  0
  0
  0
  0
  0
  0
  0
  1
  1
  0
  0
</dep>
<dep sub5.arch_sub_logic_one.gnd.X dtime>
  0
  0
  0
  0
  0
  0
  0
  0
  0
  0
  0
  0
  0
  0
  0
  0
  0
  0
  0
  0
  0
  0
  0
  0
  0
</dep>
<dep sub5.arch_sub_logic_one.l1.X dtime>
  1
  1
  1
  1
  1
  1
  1
  1
  1
  1
  1
  1
  1
  1
  1
  1
  1
  1
  1
  1
  1
  1
  1
  1
  1
</dep>
<dep sub5._outnetl1.X dtime>
  1
  1
  1
  1
  1
  1
  1
  1
  1
  1
  1
  1
  1
  1
  1
  1
  1
  1
  1
  1
  1
  1
  1
  1
  1
</dep>
<dep _net0.X dtime>
  1
  1
  1
  0
  0
  1
  1
  0
  0
  1
  1
  0
  0
  1
  1
  0
  0
  1
  1
  0
  0
  1
  1
  0
  0
</dep>
<dep _net1.X dtime>
  0
  0
  0
  1
  1
  0
  0
  1
  1
  0
  0
  1
  1
  0
  0
  1
  1
  0
  0
  1
  1
  0
  0
  1
  1
</dep>
<dep _net2.X dtime>
  0
  0
  0
  0
  0
  1
  1
  0
  0
  1
  1
  1
  1
  1
  1
  0
  0
  1
  1
  0
  0
  1
  1
  1
  1
</dep>
<dep _net3.X dtime>
  0
  0
  0
  1
  1
  0
  0
  1
  1
  0
  0
  1
  1
  0
  0
  1
  1
  0
  0
  1
  1
  0
  0
  1
  1
</dep>
<dep _net4.X dtime>
  0
  0
  0
  1
  1
  0
  0
  1
  1
  0
  0
  1
  1
  0
  0
  1
  1
  0
  0
  0
  0
  0
  0
  1
  1
</dep>
<dep _net5.X dtime>
  0
  1
  0
  1
  0
  0
  0
  1
  0
  0
  0
  1
  0
  0
  0
  1
  0
  0
  0
  0
  0
  0
  0
  1
  0
</dep>
<dep _net6.X dtime>
  0
  0
  0
  1
  1
  0
  0
  1
  1
  0
  0
  1
  1
  0
  0
  1
  1
  0
  0
  0
  0
  0
  0
  1
  1
</dep>
<dep _net7.X dtime>
  1
  1
  1
  0
  0
  0
  0
  0
  0
  0
  0
  0
  0
  0
  0
  0
  0
  0
  0
  0
  0
  1
  1
  0
  0
</dep>
<dep _net8.X dtime>
  0
  1
  0
  1
  0
  1
  0
  1
  0
  0
  0
  1
  0
  1
  0
  1
  0
  1
  0
  1
  0
  1
  0
  1
  0
</dep>
<dep _net9.X dtime>
  1
  1
  1
  0
  0
  1
  1
  0
  0
  1
  1
  0
  0
  1
  1
  0
  0
  1
  1
  0
  0
  1
  1
  0
  0
</dep>
<dep clear.X dtime>
  1
  1
  0
  0
  0
  0
  0
  0
  0
  0
  0
  0
  0
  0
  0
  0
  0
  0
  0
  0
  0
  0
  0
  0
  0
</dep>
<dep clock.X dtime>
  0
  1
  0
  1
  0
  1
  0
  1
  0
  1
  0
  1
  0
  1
  0
  1
  0
  1
  0
  1
  0
  1
  0
  1
  0
</dep>
<dep count.X dtime>
  0
  1
  1
  1
  1
  1
  1
  1
  1
  1
  1
  1
  1
  1
  1
  1
  1
  1
  1
  1
  1
  1
  1
  1
  1
</dep>
<dep q0.X dtime>
  0
  0
  0
  1
  1
  0
  0
  1
  1
  0
  0
  1
  1
  0
  0
  1
  1
  0
  0
  1
  1
  0
  0
  1
  1
</dep>
<dep q1.X dtime>
  0
  0
  0
  0
  0
  1
  1
  1
  1
  0
  0
  0
  0
  1
  1
  1
  1
  0
  0
  0
  0
  0
  0
  0
  0
</dep>
<dep q2.X dtime>
  0
  0
  0
  0
  0
  0
  0
  0
  0
  1
  1
  1
  1
  1
  1
  1
  1
  0
  0
  0
  0
  0
  0
  0
  0
</dep>
<dep q3.X dtime>
  0
  0
  0
  0
  0
  0
  0
  0
  0
  0
  0
  0
  0
  0
  0
  0
  0
  1
  1
  1
  1
  0
  0
  0
  0
</dep>
