<Qucs Dataset 0.0.20>
<indep Vx 101>
  +0.00000000000000000000e+00
  +5.99999999999999977796e-02
  +1.19999999999999995559e-01
  +1.79999999999999993339e-01
  +2.39999999999999991118e-01
  +2.99999999999999988898e-01
  +3.59999999999999986677e-01
  +4.19999999999999984457e-01
  +4.79999999999999982236e-01
  +5.40000000000000035527e-01
  +5.99999999999999977796e-01
  +6.59999999999999920064e-01
  +7.19999999999999973355e-01
  +7.80000000000000026645e-01
  +8.39999999999999968914e-01
  +8.99999999999999911182e-01
  +9.59999999999999964473e-01
  +1.02000000000000001776e+00
  +1.08000000000000007105e+00
  +1.13999999999999990230e+00
  +1.19999999999999995559e+00
  +1.26000000000000000888e+00
  +1.31999999999999984013e+00
  +1.37999999999999989342e+00
  +1.43999999999999994671e+00
  +1.50000000000000000000e+00
  +1.56000000000000005329e+00
  +1.61999999999999988454e+00
  +1.67999999999999993783e+00
  +1.73999999999999999112e+00
  +1.79999999999999982236e+00
  +1.85999999999999987566e+00
  +1.91999999999999992895e+00
  +1.97999999999999998224e+00
  +2.04000000000000003553e+00
  +2.10000000000000008882e+00
  +2.16000000000000014211e+00
  +2.21999999999999975131e+00
  +2.27999999999999980460e+00
  +2.33999999999999985789e+00
  +2.39999999999999991118e+00
  +2.45999999999999996447e+00
  +2.52000000000000001776e+00
  +2.58000000000000007105e+00
  +2.63999999999999968026e+00
  +2.69999999999999973355e+00
  +2.75999999999999978684e+00
  +2.81999999999999984013e+00
  +2.87999999999999989342e+00
  +2.93999999999999994671e+00
  +3.00000000000000000000e+00
  +3.06000000000000005329e+00
  +3.12000000000000010658e+00
  +3.17999999999999971578e+00
  +3.23999999999999976907e+00
  +3.29999999999999982236e+00
  +3.35999999999999987566e+00
  +3.41999999999999992895e+00
  +3.47999999999999998224e+00
  +3.54000000000000003553e+00
  +3.59999999999999964473e+00
  +3.65999999999999969802e+00
  +3.71999999999999975131e+00
  +3.77999999999999980460e+00
  +3.83999999999999985789e+00
  +3.89999999999999991118e+00
  +3.95999999999999996447e+00
  +4.01999999999999957367e+00
  +4.08000000000000007105e+00
  +4.13999999999999968026e+00
  +4.20000000000000017764e+00
  +4.25999999999999978684e+00
  +4.32000000000000028422e+00
  +4.37999999999999989342e+00
  +4.43999999999999950262e+00
  +4.50000000000000000000e+00
  +4.55999999999999960920e+00
  +4.62000000000000010658e+00
  +4.67999999999999971578e+00
  +4.74000000000000021316e+00
  +4.79999999999999982236e+00
  +4.85999999999999943157e+00
  +4.91999999999999992895e+00
  +4.97999999999999953815e+00
  +5.04000000000000003553e+00
  +5.09999999999999964473e+00
  +5.16000000000000014211e+00
  +5.21999999999999975131e+00
  +5.27999999999999936051e+00
  +5.33999999999999985789e+00
  +5.39999999999999946709e+00
  +5.45999999999999996447e+00
  +5.51999999999999957367e+00
  +5.58000000000000007105e+00
  +5.63999999999999968026e+00
  +5.70000000000000017764e+00
  +5.75999999999999978684e+00
  +5.81999999999999939604e+00
  +5.87999999999999989342e+00
  +5.93999999999999950262e+00
  +6.00000000000000000000e+00
</indep>
<dep Rout Vx>
  +2.27910160856710463122e+04
  +2.29474214027970228926e+04
  +2.32645451730490240152e+04
  +2.35904747586176890763e+04
  +2.39255792925846544676e+04
  +2.42702487104984720645e+04
  +2.46248952303242331254e+04
  +2.49899549601649850956e+04
  +2.53658896467873273650e+04
  +2.57531885795170528581e+04
  +2.61523706658233422786e+04
  +2.65639866968850255944e+04
  +2.69886218237009816221e+04
  +2.74268982668850767368e+04
  +2.78794782862304818991e+04
  +2.83470674395048263250e+04
  +2.88304181638261725311e+04
  +2.93303337174126536411e+04
  +2.98476725246504502138e+04
  +3.03833529733825598669e+04
  +3.09383587201613700017e+04
  +3.15137445672477915650e+04
  +3.21106429844209269504e+04
  +3.27302713595030145370e+04
  +3.33739400742425932549e+04
  +3.40430615170903620310e+04
  +3.47391601619556604419e+04
  +3.54638838627173390705e+04
  +3.62190165378457459155e+04
  +3.70064924485916126287e+04
  +3.78284123088916458073e+04
  +3.86870615067819962860e+04
  +3.95849307668945984915e+04
  +4.05247396436939161504e+04
  +4.15094633079344857833e+04
  +4.25423631770012652851e+04
  +4.36270220476004178636e+04
  +4.47673845214496977860e+04
  +4.59678036770371400053e+04
  +4.72330951419400225859e+04
  +4.85685999704847199610e+04
  +4.99802580445880739717e+04
  +5.14746941095406800741e+04
  +5.30593190548661514185e+04
  +5.47424496852466545533e+04
  +5.65334510403585300082e+04
  +5.84429063735553718288e+04
  +6.04828212667337502353e+04
  +6.26668701522771007149e+04
  +6.50106958851153030992e+04
  +6.75322761741536669433e+04
  +7.02523749496327363886e+04
  +7.31951025532610510709e+04
  +7.63886166383865638636e+04
  +7.98660068153142638039e+04
  +8.36664218107910273829e+04
  +8.78365204302839410957e+04
  +9.24323603322463168297e+04
  +9.75218869560024759267e+04
  +1.03188257636352529516e+05
  +1.09534347447012507473e+05
  +1.16688958152528328355e+05
  +1.24815532510643737623e+05
  +1.34124639742474944796e+05
  +1.44892286841025750618e+05
  +1.57487499990902317222e+05
  +1.72415167097074503545e+05
  +1.90385018686703842832e+05
  +2.12427517004655499477e+05
  +2.40098775228684011381e+05
  +2.75866442461309081409e+05
  +3.23896531159861886408e+05
  +3.91834085981628799345e+05
  +4.95456879614693112671e+05
  +6.73760757825491251424e+05
  +1.05999616532891290262e+06
  +2.75633676930226571858e+06
  +5.49868360357305541992e+11
  +1.10387218134946240234e+12
  +1.11233506993832666016e+12
  +1.12117848429768041992e+12
  +1.13042020383113378906e+12
  +1.14007434896829541016e+12
  +1.15017417278877416992e+12
  +1.16074217865583789062e+12
  +1.17179876089612524414e+12
  +1.18338071457937353516e+12
  +1.19551592883478344727e+12
  +1.20823219964777099609e+12
  +1.22156934298378466797e+12
  +1.23556260586979492188e+12
  +1.25024799899267993164e+12
  +1.26567170586951049805e+12
  +1.28187696746394531250e+12
  +1.29891773409648486328e+12
  +1.31683899678509130859e+12
  +1.33569575656192700195e+12
  +1.35555487352921093750e+12
  +1.37647419951082861328e+12
  +1.39852726568339086914e+12
  +1.40984748403541333008e+12
</dep>
<dep Ix Vx>
  +5.96014799165623996725e-42
  +2.63261628066344255660e-06
  +5.22958866655224943775e-06
  +7.79092590302872020473e-06
  +1.03166370222592974079e-05
  +1.28067313549871700479e-05
  +1.52612185428853216096e-05
  +1.76801085515233407123e-05
  +2.00634116839840093670e-05
  +2.24111385951669992789e-05
  +2.47233003068210368137e-05
  +2.69999082233464715336e-05
  +2.92409741484161802053e-05
  +3.14465103024623925890e-05
  +3.36165293410835779682e-05
  +3.57510443744264597241e-05
  +3.78500689876052319200e-05
  +3.99136172622200925122e-05
  +4.19417037990473451012e-05
  +4.39343437419727011030e-05
  +4.58915528032481081708e-05
  +4.78133472901586309748e-05
  +4.96997441331889191129e-05
  +5.15507609157890900656e-05
  +5.33664159058456894738e-05
  +5.51467280889710685242e-05
  +5.68917172037337881552e-05
  +5.86014037789610623633e-05
  +6.02758091732579002857e-05
  +6.19149556168918418966e-05
  +6.35188662562117520088e-05
  +6.50875652007786308128e-05
  +6.66210775733984948178e-05
  +6.81194295632678531536e-05
  +6.95826484824572932819e-05
  +7.10107628259727034856e-05
  +7.24038023356632446650e-05
  +7.37617980682588720263e-05
  +7.50847824678461332314e-05
  +7.63727894431232110384e-05
  +7.76258544497945450263e-05
  +7.88440145785059703660e-05
  +8.00273086487495686212e-05
  +8.11757773092102922043e-05
  +8.22894631450651572362e-05
  +8.33684107927933689287e-05
  +8.44126670631064300598e-05
  +8.54222810726619811127e-05
  +8.63973043852893460726e-05
  +8.73377911635178313422e-05
  +8.82437983312790426380e-05
  +8.91153857487336043897e-05
  +8.99526164002634951973e-05
  +9.07555565967755944676e-05
  +9.15242761935706046440e-05
  +9.22588488251547465769e-05
  +9.29593521585138051399e-05
  +9.36258681665128538558e-05
  +9.42584834232615225141e-05
  +9.48572894234682949515e-05
  +9.54223829280133767914e-05
  +9.59538663382074249195e-05
  +9.64518481014553041939e-05
  +9.69164431513293175803e-05
  +9.73477733853853028452e-05
  +9.77459681843962280203e-05
  +9.81111649770851577393e-05
  +9.84435098548766535217e-05
  +9.87431582416743074473e-05
  +9.90102756242288464762e-05
  +9.92450383492581386267e-05
  +9.94476344941822769461e-05
  +9.96182648190679134173e-05
  +9.97571438082455857468e-05
  +9.98645008109821669812e-05
  +9.99405812916388558735e-05
  +9.99856482009023897701e-05
  +9.99999977372841112331e-05
  +9.99999977918428315134e-05
  +9.99999978459938782243e-05
  +9.99999978997256232975e-05
  +9.99999979530258559061e-05
  +9.99999980058826904838e-05
  +9.99999980582841194914e-05
  +9.99999981102168207948e-05
  +9.99999981616684886993e-05
  +9.99999982126258688334e-05
  +9.99999982630754222224e-05
  +9.99999983130036505493e-05
  +9.99999983623969606293e-05
  +9.99999984112410138888e-05
  +9.99999984595219731974e-05
  +9.99999985072254457714e-05
  +9.99999985543369846169e-05
  +9.99999986008421020822e-05
  +9.99999986467257684147e-05
  +9.99999986919738483287e-05
  +9.99999987365712985190e-05
  +9.99999987805034822562e-05
  +9.99999988237558576788e-05
  +9.99999988663136525320e-05
</dep>
<dep V1.I Vx>
  +9.99999999999999912396e-05
  +9.99999999999999912396e-05
  +9.99999999999999912396e-05
  +9.99999999999999912396e-05
  +9.99999999999999912396e-05
  +9.99999999999999912396e-05
  +9.99999999999999912396e-05
  +9.99999999999999912396e-05
  +9.99999999999999912396e-05
  +9.99999999999999912396e-05
  +9.99999999999999912396e-05
  +9.99999999999999912396e-05
  +9.99999999999999912396e-05
  +9.99999999999999912396e-05
  +9.99999999999999912396e-05
  +9.99999999999999912396e-05
  +9.99999999999999912396e-05
  +9.99999999999999912396e-05
  +9.99999999999999912396e-05
  +9.99999999999999912396e-05
  +9.99999999999999912396e-05
  +9.99999999999999912396e-05
  +9.99999999999999912396e-05
  +9.99999999999999912396e-05
  +9.99999999999999912396e-05
  +9.99999999999999912396e-05
  +9.99999999999999912396e-05
  +9.99999999999999912396e-05
  +9.99999999999999912396e-05
  +9.99999999999999912396e-05
  +9.99999999999999912396e-05
  +9.99999999999999912396e-05
  +9.99999999999999912396e-05
  +9.99999999999999912396e-05
  +9.99999999999999912396e-05
  +9.99999999999999912396e-05
  +9.99999999999999912396e-05
  +9.99999999999999912396e-05
  +9.99999999999999912396e-05
  +9.99999999999999912396e-05
  +9.99999999999999912396e-05
  +9.99999999999999912396e-05
  +9.99999999999999912396e-05
  +9.99999999999999912396e-05
  +9.99999999999999912396e-05
  +9.99999999999999912396e-05
  +9.99999999999999912396e-05
  +9.99999999999999912396e-05
  +9.99999999999999912396e-05
  +9.99999999999999912396e-05
  +9.99999999999999912396e-05
  +9.99999999999999912396e-05
  +9.99999999999999912396e-05
  +9.99999999999999912396e-05
  +9.99999999999999912396e-05
  +9.99999999999999912396e-05
  +9.99999999999999912396e-05
  +9.99999999999999912396e-05
  +9.99999999999999912396e-05
  +9.99999999999999912396e-05
  +9.99999999999999912396e-05
  +9.99999999999999912396e-05
  +9.99999999999999912396e-05
  +9.99999999999999912396e-05
  +9.99999999999999912396e-05
  +9.99999999999999912396e-05
  +9.99999999999999912396e-05
  +9.99999999999999912396e-05
  +9.99999999999999912396e-05
  +9.99999999999999912396e-05
  +9.99999999999999912396e-05
  +9.99999999999999912396e-05
  +9.99999999999999912396e-05
  +9.99999999999999912396e-05
  +9.99999999999999912396e-05
  +9.99999999999999912396e-05
  +9.99999999999999912396e-05
  +9.99999999999999912396e-05
  +9.99999999999999912396e-05
  +9.99999999999999912396e-05
  +9.99999999999999912396e-05
  +9.99999999999999912396e-05
  +9.99999999999999912396e-05
  +9.99999999999999912396e-05
  +9.99999999999999912396e-05
  +9.99999999999999912396e-05
  +9.99999999999999912396e-05
  +9.99999999999999912396e-05
  +9.99999999999999912396e-05
  +9.99999999999999912396e-05
  +9.99999999999999912396e-05
  +9.99999999999999912396e-05
  +9.99999999999999912396e-05
  +9.99999999999999912396e-05
  +9.99999999999999912396e-05
  +9.99999999999999912396e-05
  +9.99999999999999912396e-05
  +9.99999999999999912396e-05
  +9.99999999999999912396e-05
  +9.99999999999999912396e-05
  +9.99999999999999912396e-05
</dep>
<dep V2.I Vx>
  -5.96014799165623996725e-42
  -2.63261628066344255660e-06
  -5.22958866655224943775e-06
  -7.79092590302872020473e-06
  -1.03166370222592974079e-05
  -1.28067313549871700479e-05
  -1.52612185428853216096e-05
  -1.76801085515233407123e-05
  -2.00634116839840093670e-05
  -2.24111385951669992789e-05
  -2.47233003068210368137e-05
  -2.69999082233464715336e-05
  -2.92409741484161802053e-05
  -3.14465103024623925890e-05
  -3.36165293410835779682e-05
  -3.57510443744264597241e-05
  -3.78500689876052319200e-05
  -3.99136172622200925122e-05
  -4.19417037990473451012e-05
  -4.39343437419727011030e-05
  -4.58915528032481081708e-05
  -4.78133472901586309748e-05
  -4.96997441331889191129e-05
  -5.15507609157890900656e-05
  -5.33664159058456894738e-05
  -5.51467280889710685242e-05
  -5.68917172037337881552e-05
  -5.86014037789610623633e-05
  -6.02758091732579002857e-05
  -6.19149556168918418966e-05
  -6.35188662562117520088e-05
  -6.50875652007786308128e-05
  -6.66210775733984948178e-05
  -6.81194295632678531536e-05
  -6.95826484824572932819e-05
  -7.10107628259727034856e-05
  -7.24038023356632446650e-05
  -7.37617980682588720263e-05
  -7.50847824678461332314e-05
  -7.63727894431232110384e-05
  -7.76258544497945450263e-05
  -7.88440145785059703660e-05
  -8.00273086487495686212e-05
  -8.11757773092102922043e-05
  -8.22894631450651572362e-05
  -8.33684107927933689287e-05
  -8.44126670631064300598e-05
  -8.54222810726619811127e-05
  -8.63973043852893460726e-05
  -8.73377911635178313422e-05
  -8.82437983312790426380e-05
  -8.91153857487336043897e-05
  -8.99526164002634951973e-05
  -9.07555565967755944676e-05
  -9.15242761935706046440e-05
  -9.22588488251547465769e-05
  -9.29593521585138051399e-05
  -9.36258681665128538558e-05
  -9.42584834232615225141e-05
  -9.48572894234682949515e-05
  -9.54223829280133767914e-05
  -9.59538663382074249195e-05
  -9.64518481014553041939e-05
  -9.69164431513293175803e-05
  -9.73477733853853028452e-05
  -9.77459681843962280203e-05
  -9.81111649770851577393e-05
  -9.84435098548766535217e-05
  -9.87431582416743074473e-05
  -9.90102756242288464762e-05
  -9.92450383492581386267e-05
  -9.94476344941822769461e-05
  -9.96182648190679134173e-05
  -9.97571438082455857468e-05
  -9.98645008109821669812e-05
  -9.99405812916388558735e-05
  -9.99856482009023897701e-05
  -9.99999977372841112331e-05
  -9.99999977918428315134e-05
  -9.99999978459938782243e-05
  -9.99999978997256232975e-05
  -9.99999979530258559061e-05
  -9.99999980058826904838e-05
  -9.99999980582841194914e-05
  -9.99999981102168207948e-05
  -9.99999981616684886993e-05
  -9.99999982126258688334e-05
  -9.99999982630754222224e-05
  -9.99999983130036505493e-05
  -9.99999983623969606293e-05
  -9.99999984112410138888e-05
  -9.99999984595219731974e-05
  -9.99999985072254457714e-05
  -9.99999985543369846169e-05
  -9.99999986008421020822e-05
  -9.99999986467257684147e-05
  -9.99999986919738483287e-05
  -9.99999987365712985190e-05
  -9.99999987805034822562e-05
  -9.99999988237558576788e-05
  -9.99999988663136525320e-05
</dep>
<dep V3.I Vx>
  +9.99999950450147708251e-05
  +9.99999950450148385878e-05
  +9.99999950450147843777e-05
  +9.99999950450146895100e-05
  +9.99999950450146081948e-05
  +9.99999950450144320119e-05
  +9.99999950450147708251e-05
  +9.99999950450150283231e-05
  +9.99999950450149741130e-05
  +9.99999950450145404322e-05
  +9.99999950450147708251e-05
  +9.99999950450147572726e-05
  +9.99999950450150283231e-05
  +9.99999950450147843777e-05
  +9.99999950450149063504e-05
  +9.99999950450146217473e-05
  +9.99999950450149199029e-05
  +9.99999950450149334555e-05
  +9.99999950450148114827e-05
  +9.99999950450150825332e-05
  +9.99999950450147572726e-05
  +9.99999950450147572726e-05
  +9.99999950450149199029e-05
  +9.99999950450149470080e-05
  +9.99999950450148385878e-05
  +9.99999950450146081948e-05
  +9.99999950450150012181e-05
  +9.99999950450145946423e-05
  +9.99999950450146352999e-05
  +9.99999950450150147706e-05
  +9.99999950450147030625e-05
  +9.99999950450149199029e-05
  +9.99999950450150418757e-05
  +9.99999950450145675372e-05
  +9.99999950450148927979e-05
  +9.99999950450148385878e-05
  +9.99999950450145404322e-05
  +9.99999950450147979302e-05
  +9.99999950450146624049e-05
  +9.99999950450146624049e-05
  +9.99999950450145675372e-05
  +9.99999950450147437201e-05
  +9.99999950450148656928e-05
  +9.99999950450148521403e-05
  +9.99999950450149334555e-05
  +9.99999950450147843777e-05
  +9.99999950450148927979e-05
  +9.99999950450149063504e-05
  +9.99999950450148385878e-05
  +9.99999950450149605605e-05
  +9.99999950450147843777e-05
  +9.99999950450146895100e-05
  +9.99999950450147708251e-05
  +9.99999950450147708251e-05
  +9.99999950450148656928e-05
  +9.99999950450147708251e-05
  +9.99999950450147437201e-05
  +9.99999950450148250352e-05
  +9.99999950450148385878e-05
  +9.99999950450149334555e-05
  +9.99999950450149605605e-05
  +9.99999950450146895100e-05
  +9.99999950450148250352e-05
  +9.99999950450147166150e-05
  +9.99999950450147301675e-05
  +9.99999950450148656928e-05
  +9.99999950450147301675e-05
  +9.99999950450148385878e-05
  +9.99999950450146217473e-05
  +9.99999950450148114827e-05
  +9.99999950450147030625e-05
  +9.99999950450148250352e-05
  +9.99999950450147979302e-05
  +9.99999950450146081948e-05
  +9.99999950450148385878e-05
  +9.99999950450148656928e-05
  +9.99999950450149063504e-05
  +9.99999950450148250352e-05
  +9.99999950450146895100e-05
  +9.99999950450147708251e-05
  +9.99999950450149063504e-05
  +9.99999950450148385878e-05
  +9.99999950450147979302e-05
  +9.99999950450149334555e-05
  +9.99999950450146895100e-05
  +9.99999950450148114827e-05
  +9.99999950450148792453e-05
  +9.99999950450148250352e-05
  +9.99999950450147572726e-05
  +9.99999950450147979302e-05
  +9.99999950450147166150e-05
  +9.99999950450146352999e-05
  +9.99999950450147437201e-05
  +9.99999950450147437201e-05
  +9.99999950450148385878e-05
  +9.99999950450147708251e-05
  +9.99999950450148114827e-05
  +9.99999950450147030625e-05
  +9.99999950450146895100e-05
  +9.99999950450148114827e-05
  +9.99999950450148385878e-05
</dep>
<dep _net2.V Vx>
  +4.16227755570811730479e+00
  +4.16227755570811908115e+00
  +4.16227755570811730479e+00
  +4.16227755570811641661e+00
  +4.16227755570811375208e+00
  +4.16227755570811197572e+00
  +4.16227755570811641661e+00
  +4.16227755570812085750e+00
  +4.16227755570812085750e+00
  +4.16227755570811286390e+00
  +4.16227755570811730479e+00
  +4.16227755570811730479e+00
  +4.16227755570812174568e+00
  +4.16227755570811730479e+00
  +4.16227755570811908115e+00
  +4.16227755570811552843e+00
  +4.16227755570811908115e+00
  +4.16227755570811996932e+00
  +4.16227755570811819297e+00
  +4.16227755570812263386e+00
  +4.16227755570811730479e+00
  +4.16227755570811730479e+00
  +4.16227755570811908115e+00
  +4.16227755570811996932e+00
  +4.16227755570811908115e+00
  +4.16227755570811552843e+00
  +4.16227755570812085750e+00
  +4.16227755570811464025e+00
  +4.16227755570811552843e+00
  +4.16227755570812174568e+00
  +4.16227755570811641661e+00
  +4.16227755570811908115e+00
  +4.16227755570812174568e+00
  +4.16227755570811375208e+00
  +4.16227755570811908115e+00
  +4.16227755570811908115e+00
  +4.16227755570811375208e+00
  +4.16227755570811730479e+00
  +4.16227755570811552843e+00
  +4.16227755570811552843e+00
  +4.16227755570811464025e+00
  +4.16227755570811730479e+00
  +4.16227755570811908115e+00
  +4.16227755570811908115e+00
  +4.16227755570811996932e+00
  +4.16227755570811730479e+00
  +4.16227755570811908115e+00
  +4.16227755570811996932e+00
  +4.16227755570811908115e+00
  +4.16227755570811996932e+00
  +4.16227755570811730479e+00
  +4.16227755570811641661e+00
  +4.16227755570811730479e+00
  +4.16227755570811730479e+00
  +4.16227755570811908115e+00
