<Qucs Dataset 0.0.18>
<indep acfrequency 200>
  +1.00000000000e+00
  +1.08436596869e+00
  +1.17584955405e+00
  +1.27505124071e+00
  +1.38262217376e+00
  +1.49926843279e+00
  +1.62575566644e+00
  +1.76291411810e+00
  +1.91164407539e+00
  +2.07292177960e+00
  +2.24780583355e+00
  +2.43744415012e+00
  +2.64308148697e+00
  +2.86606761695e+00
  +3.10786618778e+00
  +3.37006432927e+00
  +3.65438307096e+00
  +3.96268863870e+00
  +4.29700470432e+00
  +4.65952566866e+00
  +5.05263106534e+00
  +5.47890117959e+00
  +5.94113398497e+00
  +6.44236350872e+00
  +6.98587974679e+00
  +7.57525025877e+00
  +8.21434358492e+00
  +8.90735463861e+00
  +9.65883224116e+00
  +1.04737089796e+01
  +1.13573335834e+01
  +1.23155060329e+01
  +1.33545156293e+01
  +1.44811822767e+01
  +1.57029012473e+01
  +1.70276917223e+01
  +1.84642494290e+01
  +2.00220037182e+01
  +2.17111794569e+01
  +2.35428641432e+01
  +2.55290806824e+01
  +2.76828663039e+01
  +3.00183581358e+01
  +3.25508859984e+01
  +3.52970730273e+01
  +3.82749447852e+01
  +4.15040475785e+01
  +4.50055767570e+01
  +4.88025158365e+01
  +5.29197873596e+01
  +5.73844164830e+01
  +6.22257083673e+01
  +6.74754405311e+01
  +7.31680714343e+01
  +7.93409666580e+01
  +8.60346441668e+01
  +9.32930402628e+01
  +1.01163797977e+02
  +1.09698579789e+02
  +1.18953406737e+02
  +1.28989026125e+02
  +1.39871310265e+02
  +1.51671688847e+02
  +1.64467617799e+02
  +1.78343087693e+02
  +1.93389175046e+02
  +2.09704640132e+02
  +2.27396575236e+02
  +2.46581107582e+02
  +2.67384161584e+02
  +2.89942285388e+02
  +3.14403547159e+02
  +3.40928506975e+02
  +3.69691270720e+02
  +4.00880632890e+02
  +4.34701315813e+02
  +4.71375313412e+02
  +5.11143348344e+02
  +5.54266452066e+02
  +6.01027678207e+02
  +6.51733960488e+02
  +7.06718127393e+02
  +7.66341086801e+02
  +8.30994194935e+02
  +9.01101825167e+02
  +9.77124153535e+02
  +1.05956017928e+03
  +1.14895100019e+03
  +1.24588336430e+03
  +1.35099352120e+03
  +1.46497139831e+03
  +1.58856512943e+03
  +1.72258596540e+03
  +1.86791359902e+03
  +2.02550193923e+03
  +2.19638537242e+03
  +2.38168555198e+03
  +2.58261876068e+03
  +2.80050389418e+03
  +3.03677111804e+03
  +3.29297125510e+03
  +3.57078596490e+03
  +3.87203878181e+03
  +4.19870708444e+03
  +4.55293507487e+03
  +4.93704785284e+03
  +5.35356667741e+03
  +5.80522551609e+03
  +6.29498899022e+03
  +6.82607183427e+03
  +7.40195999692e+03
  +8.02643352226e+03
  +8.70359136149e+03
  +9.43787827778e+03
  +1.02341140211e+04
  +1.10975249641e+04
  +1.20337784078e+04
  +1.30490197801e+04
  +1.41499129743e+04
  +1.53436840893e+04
  +1.66381688608e+04
  +1.80418640939e+04
  +1.95639834352e+04
  +2.12145178491e+04
  +2.30043011977e+04
  +2.49450813523e+04
  +2.70495973046e+04
  +2.93316627839e+04
  +3.18062569279e+04
  +3.44896226041e+04
  +3.73993730248e+04
  +4.05546073584e+04
  +4.39760360930e+04
  +4.76861169771e+04
  +5.17092024290e+04
  +5.60716993821e+04
  +6.08022426165e+04
  +6.59318827133e+04
  +7.14942898660e+04
  +7.75259748863e+04
  +8.40665288562e+04
  +9.11588829975e+04
  +9.88495904663e+04
  +1.07189131921e+05
  +1.16232246868e+05
  +1.26038292968e+05
  +1.36671635646e+05
  +1.48202070580e+05
  +1.60705281826e+05
  +1.74263338601e+05
  +1.88965233969e+05
  +2.04907468982e+05
  +2.22194686094e+05
  +2.40940356024e+05
  +2.61267522556e+05
  +2.83309610184e+05
  +3.07211299886e+05
  +3.33129478793e+05
  +3.61234269971e+05
  +3.91710149081e+05
  +4.24757155254e+05
  +4.60592204115e+05
  +4.99450511586e+05
  +5.41587137808e+05
  +5.87278661319e+05
  +6.36824994472e+05
  +6.90551352016e+05
  +7.48810385759e+05
  +8.11984499318e+05
  +8.80488358164e+05
  +9.54771611421e+05
  +1.03532184330e+06
  +1.12266777351e+06
  +1.21738272774e+06
  +1.32008840083e+06
  +1.43145893752e+06
  +1.55222535743e+06
  +1.68318035333e+06
  +1.82518349432e+06
  +1.97916686785e+06
  +2.14614119786e+06
  +2.32720247896e+06
  +2.52353917043e+06
  +2.73643999707e+06
  +2.96730240819e+06
  +3.21764175025e+06
  +3.48910121341e+06
  +3.78346261713e+06
  +4.10265810583e+06
  +4.44878283113e+06
  +4.82410870417e+06
  +5.23109930806e+06
  +5.67242606849e+06
  +6.15098578858e+06
  +6.66991966303e+06
  +7.23263389648e+06
  +7.84282206134e+06
  +8.50448934180e+06
  +9.22197882333e+06
  +1.00000000000e+07
</indep>
<dep Phase acfrequency>
  -4.03250020553e-04
  -4.37270599160e-04
  -4.74161356836e-04
  -5.14164439018e-04
  -5.57542419979e-04
  -6.04580026323e-04
  -6.55586005890e-04
  -7.10895154331e-04
  -7.70870512656e-04
  -8.35905750181e-04
  -9.06427748517e-04
  -9.82899403554e-04
  -1.06582266384e-03
  -1.15574182530e-03
  -1.25324710392e-03
  -1.35897850981e-03
  -1.47363004817e-03
  -1.59795427462e-03
  -1.73276723484e-03
  -1.87895382102e-03
  -2.03747358013e-03
  -2.20936701223e-03
  -2.39576240021e-03
  -2.59788321559e-03
  -2.81705614928e-03
  -3.05471981974e-03
  -3.31243421586e-03
  -3.59189093651e-03
  -3.89492429391e-03
  -4.22352335381e-03
  -4.57984499140e-03
  -4.96622804871e-03
  -5.38520868643e-03
  -5.83953703088e-03
  -6.33219522538e-03
  -6.86641700465e-03
  -7.44570892050e-03
  -8.07387335827e-03
  -8.75503349517e-03
  -9.49366036408e-03
  -1.02946022008e-02
  -1.11631162669e-02
  -1.21049033577e-02
  -1.31261452215e-02
  -1.42335451351e-02
  -1.54343719033e-02
  -1.67365075698e-02
  -1.81484991538e-02
  -1.96796147511e-02
  -2.13399043674e-02
  -2.31402658855e-02
  -2.50925165960e-02
  -2.72094707638e-02
  -2.95050237375e-02
  -3.19942431558e-02
  -3.46934678467e-02
  -3.76204150712e-02
  -4.07942968143e-02
  -4.42359458855e-02
  -4.79679526578e-02
  -5.20148133419e-02
  -5.64030907680e-02
  -6.11615887308e-02
  -6.63215410410e-02
  -7.19168165245e-02
  -7.79841413119e-02
  -8.45633398783e-02
  -9.16975964136e-02
  -9.94337382359e-02
  -1.07822543107e-01
  -1.16919072462e-01
  -1.26783032743e-01
  -1.37479167193e-01
  -1.49077680682e-01
  -1.61654700346e-01
  -1.75292775054e-01
  -1.90081416955e-01
  -2.06117688660e-01
  -2.23506839886e-01
  -2.42362997699e-01
  -2.62809914881e-01
  -2.84981781254e-01
  -3.09024103260e-01
  -3.35094657474e-01
  -3.63364524232e-01
  -3.94019208034e-01
  -4.27259851918e-01
  -4.63304553601e-01
  -5.02389791764e-01
  -5.44771971537e-01
  -5.90729098934e-01
  -6.40562594707e-01
  -6.94599258898e-01
  -7.53193398139e-01
  -8.16729128618e-01
  -8.85622868490e-01
  -9.60326034382e-01
  -1.04132795751e+00
  -1.12915903578e+00
  -1.22439413902e+00
  -1.32765628522e+00
  -1.43962060612e+00
  -1.56101862097e+00
  -1.69264283711e+00
  -1.83535169587e+00
  -1.99007488112e+00
  -2.15781900626e+00
  -2.33967369267e+00
  -2.53681804869e+00
  -2.75052755248e+00
  -2.98218133433e+00
  -3.23326984328e+00
  -3.50540286893e+00
  -3.80031787038e+00
  -4.11988854026e+00
  -4.46613350029e+00
  -4.84122498477e+00
  -5.24749731776e+00
  -5.68745492542e+00
  -6.16377954576e+00
  -6.67933619928e+00
  -7.23717736423e+00
  -7.84054465514e+00
  -8.49286713156e+00
  -9.19775516363e+00
  -9.95898855389e+00
  -1.07804973641e+01
  -1.16663336342e+01
  -1.26206319223e+01
  -1.36475563766e+01
  -1.47512319069e+01
  -1.59356570283e+01
  -1.72045961782e+01
  -1.85614498668e+01
  -2.00091020251e+01
  -2.15497454796e+01
  -2.31846886993e+01
  -2.49141498449e+01
  -2.67370476112e+01
  -2.86508021183e+01
  -3.06511626844e+01
  -3.27320820026e+01
  -3.48856571772e+01
  -3.71021564079e+01
  -3.93701452335e+01
  -4.16767180974e+01
  -4.40078302705e+01
  -4.63487133379e+01
  -4.86843466110e+01
  -5.09999491077e+01
  -5.32814538289e+01
  -5.55159285927e+01
  -5.76919151033e+01
  -5.97996686259e+01
  -6.18312924709e+01
  -6.37807723536e+01
  -6.56439240679e+01
  -6.74182730279e+01
  -6.91028861155e+01
  -7.06981755014e+01
  -7.22056915126e+01
  -7.36279180808e+01
  -7.49680805372e+01
  -7.62299720256e+01
  -7.74178018739e+01
  -7.85360669984e+01
  -7.95894458087e+01
  -8.05827130340e+01
  -8.15206733078e+01
  -8.24081110929e+01
  -8.32497545094e+01
  -8.40502507551e+01
  -8.48141510179e+01
  -8.55459030230e+01
  -8.62498496108e+01
  -8.69302319720e+01
  -8.75911963786e+01
  -8.82368034200e+01
  -8.88710388943e+01
  -8.94978256072e+01
  -9.01210353958e+01
  -9.07445007280e+01
  -9.13720252231e+01
  -9.20073924034e+01
  -9.26543719169e+01
  -9.33167223696e+01
  -9.39981897739e+01
  -9.47025004630e+01
  -9.54333471474e+01
  -9.61943666094e+01
  -9.69891073696e+01
  -9.78209855466e+01
  -9.86932271133e+01
  -9.96087948968e+01
  -1.00570299055e+02
  -1.01579890495e+02
  -1.02639137899e+02
  -1.03748890758e+02
  -1.04909133253e+02
  -1.06118836854e+02
</dep>
<dep Gain acfrequency>
  +2.96608322166e+01
  +2.96608322166e+01
  +2.96608322165e+01
  +2.96608322165e+01
  +2.96608322164e+01
  +2.96608322164e+01
  +2.96608322163e+01
  +2.96608322162e+01
  +2.96608322161e+01
  +2.96608322159e+01
  +2.96608322158e+01
  +2.96608322156e+01
  +2.96608322153e+01
  +2.96608322151e+01
  +2.96608322148e+01
  +2.96608322144e+01
  +2.96608322140e+01
  +2.96608322135e+01
  +2.96608322129e+01
  +2.96608322122e+01
  +2.96608322114e+01
  +2.96608322104e+01
  +2.96608322093e+01
  +2.96608322080e+01
  +2.96608322064e+01
  +2.96608322046e+01
  +2.96608322024e+01
  +2.96608321999e+01
  +2.96608321969e+01
  +2.96608321934e+01
  +2.96608321893e+01
  +2.96608321845e+01
  +2.96608321788e+01
  +2.96608321721e+01
  +2.96608321643e+01
  +2.96608321550e+01
  +2.96608321442e+01
  +2.96608321314e+01
  +2.96608321163e+01
  +2.96608320987e+01
  +2.96608320779e+01
  +2.96608320535e+01
  +2.96608320247e+01
  +2.96608319910e+01
  +2.96608319512e+01
  +2.96608319045e+01
  +2.96608318496e+01
  +2.96608317850e+01
  +2.96608317091e+01
  +2.96608316198e+01
  +2.96608315149e+01
  +2.96608313914e+01
  +2.96608312463e+01
  +2.96608310756e+01
  +2.96608308749e+01
  +2.96608306389e+01
  +2.96608303614e+01
  +2.96608300352e+01
  +2.96608296515e+01
  +2.96608292004e+01
  +2.96608286700e+01
  +2.96608280463e+01
  +2.96608273129e+01
  +2.96608264505e+01
  +2.96608254365e+01
  +2.96608242442e+01
  +2.96608228423e+01
  +2.96608211937e+01
  +2.96608192553e+01
  +2.96608169761e+01
  +2.96608142960e+01
  +2.96608111446e+01
  +2.96608074391e+01
  +2.96608030820e+01
  +2.96607979587e+01
  +2.96607919344e+01
  +2.96607848508e+01
  +2.96607765215e+01
  +2.96607667276e+01
  +2.96607552115e+01
  +2.96607416703e+01
  +2.96607257479e+01
  +2.96607070256e+01
  +2.96606850112e+01
  +2.96606591257e+01
  +2.96606286884e+01
  +2.96605928990e+01
  +2.96605508164e+01
  +2.96605013341e+01
  +2.96604431512e+01
  +2.96603747377e+01
  +2.96602942952e+01
  +2.96601997088e+01
  +2.96600884921e+01
  +2.96599577216e+01
  +2.96598039602e+01
  +2.96596231669e+01
  +2.96594105908e+01
  +2.96591606466e+01
  +2.96588667682e+01
  +2.96585212369e+01
  +2.96581149792e+01
  +2.96576373299e+01
  +2.96570757533e+01
  +2.96564155167e+01
  +2.96556393061e+01
  +2.96547267766e+01
  +2.96536540244e+01
  +2.96523929681e+01
  +2.96509106238e+01
  +2.96491682570e+01
  +2.96471203894e+01
  +2.96447136398e+01
  +2.96418853694e+01
  +2.96385621032e+01
  +2.96346576923e+01
  +2.96300711780e+01
  +2.96246843158e+01
  +2.96183587114e+01
  +2.96109325185e+01
  +2.96022166451e+01
  +2.95919904141e+01
  +2.95799966256e+01
  +2.95659359738e+01
  +2.95494607832e+01
  +2.95301680469e+01
  +2.95075917796e+01
  +2.94811947410e+01
  +2.94503596451e+01
  +2.94143800548e+01
  +2.93724512613e+01
  +2.93236615887e+01
  +2.92669847144e+01
  +2.92012737843e+01
  +2.91252582872e+01
  +2.90375448381e+01
  +2.89366231570e+01
  +2.88208785843e+01
  +2.86886123894e+01
  +2.85380708434e+01
  +2.83674835014e+01
  +2.81751103457e+01
  +2.79592964122e+01
  +2.77185313528e+01
  +2.74515102467e+01
  +2.71571910837e+01
  +2.68348439467e+01
  +2.64840871850e+01
  +2.61049068766e+01
  +2.56976575020e+01
  +2.52630437564e+01
  +2.48020854380e+01
  +2.43160690189e+01
  +2.38064905544e+01
  +2.32749949103e+01
  +2.27233159293e+01
  +2.21532212995e+01
  +2.15664647545e+01
  +2.09647470637e+01
  +2.03496862257e+01
  +1.97227964660e+01
  +1.90854750949e+01
  +1.84389959786e+01
  +1.77845082815e+01
  +1.71230391812e+01
  +1.64554993903e+01
  +1.57826905009e+01
  +1.51053133569e+01
  +1.44239768389e+01
  +1.37392066077e+01
  +1.30514534866e+01
  +1.23611012661e+01
  +1.16684737978e+01
  +1.09738413063e+01
  +1.02774258847e+01
  +9.57940617364e+00
  +8.87992123636e+00
  +8.17907365450e+00
  +7.47693187139e+00
  +6.77353181030e+00
  +6.06887779234e+00
  +5.36294277527e+00
  +4.65566793179e+00
  +3.94696158402e+00
  +3.23669751221e+00
  +2.52471266143e+00
  +1.81080428124e+00
  +1.09472655327e+00
  +3.76186791906e-01
  -3.45158652403e-01
  -1.06970859713e+00
  -1.79792106733e+00
  -2.53031679587e+00
  -3.26748168070e+00
  -4.01006754545e+00
  -4.75879038202e+00
  -5.51442508357e+00
  -6.27779552488e+00
  -7.04975874872e+00
  -7.83118201994e+00
</dep>
<dep V4.i acfrequency>
  +4.88646658552e-25-j2.41669677300e-27
  +5.74574955543e-25-j2.62123653959e-27
  +6.75613705238e-25-j2.84321212312e-27
  +7.94420074006e-25-j3.08414375638e-27
  +9.34118489737e-25-j3.34569372155e-27
  +1.09838280957e-24-j3.62968184187e-27
  +1.29153293679e-24-j3.93810360946e-27
  +1.51864842773e-24-j4.27315058817e-27
  +1.78570207646e-24-j4.63723606450e-27
  +2.09971699021e-24-j5.03302148105e-27
  +2.46895128648e-24-j5.46345242730e-27
  +2.90311526906e-24-j5.93179650820e-27
  +3.41362679431e-24-j6.44169139617e-27
  +4.01391154355e-24-j6.99720518488e-27
  +4.71975609815e-24-j7.60290057089e-27
  +5.54972310279e-24-j8.26392330197e-27
  +6.52563943488e-24-j8.98610432362e-27
  +7.67317021853e-24-j9.77608559044e-27
  +9.02249377840e-24-j1.06414768850e-26
  +1.06090952841e-23-j1.15910518774e-26
  +1.24746999563e-23-j1.26349842444e-26
  +1.46683703774e-23-j1.37851553369e-26
  +1.72477967624e-23-j1.50555230912e-26
  +2.02808141253e-23-j1.64625971567e-26
  +2.38471862365e-23-j1.80260361744e-26
  +2.80407032898e-23-j1.97693889230e-26
  +3.29716484423e-23-j2.17210381210e-26
  +3.87696980946e-23-j2.39153959959e-26
  +4.55873321841e-23-j2.63944070869e-26
  +5.36038441759e-23-j2.92094625234e-26
  +6.30300562101e-23-j3.24238153339e-26
  +7.41138634040e-23-j3.61156578888e-26
  +8.71467531186e-23-j4.03820179610e-26
  +1.02471470634e-22-j4.53437198247e-26
  +1.20491032830e-22-j5.11516768467e-26
  +1.41679326919e-22-j5.79949190511e-26
  +1.66593572959e-22-j6.61107618367e-26
  +1.95888977895e-22-j7.57978133228e-26
  +2.30335966505e-22-j8.74324578060e-26
  +2.70840442395e-22-j1.01489906944e-25
  +3.18467611885e-22-j1.18570979429e-25
  +3.74469997309e-22-j1.39436214401e-25
  +4.40320376429e-22-j1.65049332761e-25
  +5.17750514237e-22-j1.96632640586e-25
  +6.08796705707e-22-j2.35737566505e-25
  +7.15853327216e-22-j2.84334620732e-25
  +8.41735804930e-22-j3.44928009857e-25
  +9.89754656140e-22-j4.20701729796e-25
  +1.16380255070e-21-j5.15705786274e-25
  +1.36845668211e-21-j6.35093559911e-25
  +1.60909914050e-21-j7.85424430673e-25
  +1.89205845300e-21-j9.75049459215e-25
  +2.22477601385e-21-j1.21460322856e-24
  +2.61600178094e-21-j1.51763074776e-24
  +3.07602438537e-21-j1.90138671979e-24
  +3.61694170526e-21-j2.38785458956e-24
  +4.25297901943e-21-j3.00504574317e-24
  +5.00086310769e-21-j3.78865584614e-24
  +5.88026213561e-21-j4.78417682902e-24
  +6.91430289166e-21-j6.04958940057e-24
  +8.13017897873e-21-j7.65879610112e-24
  +9.55986595356e-21-j9.70599851685e-24
  +1.12409622200e-20-j1.23112780701e-23
  +1.32176777889e-20-j1.56277117343e-23
  +1.55419969049e-20-j1.98504447169e-23
  +1.82750451124e-20-j2.52282582111e-23
  +2.14886967088e-20-j3.20783187483e-23
  +2.52674648509e-20-j4.08049838837e-23
  +2.97107240159e-20-j5.19237800337e-23
  +3.49353232497e-20-j6.60919751959e-23
  +4.10786589135e-20-j8.41475597840e-23
  +4.83022877146e-20-j1.07158948963e-22
  +5.67961750082e-20-j1.36488354218e-22
  +6.67836900526e-20-j1.73872584812e-22
  +7.85274795271e-20-j2.21526071910e-22
  +9.23363736981e-20-j2.82272227228e-22
  +1.08573506743e-19-j3.59710929782e-22
  +1.27665864635e-19-j4.58432075087e-22
  +1.50115511465e-19-j5.84287855793e-22
  +1.76512789149e-19-j7.44739924634e-22
  +2.07551837254e-19-j9.49302031644e-22
  +2.44048840519e-19-j1.21010439105e-21
  +2.86963483187e-19-j1.54261324870e-21
  +3.37424173304e-19-j1.96654832716e-21
  +3.96757698851e-19-j2.50705255168e-21
  +4.66524093604e-19-j3.19618341832e-21
  +5.48557626787e-19-j4.07481442647e-21
  +6.45014990616e-19-j5.19505929515e-21
  +7.58431947572e-19-j6.62336265202e-21
  +8.91789919695e-19-j8.44444035733e-21
  +1.04859426080e-18-j1.07663029206e-20
  +1.23296625576e-18-j1.37266595763e-20
  +1.44975124670e-18-j1.75010822409e-20
  +1.70464570228e-18-j2.23134126437e-20
  +2.00434653433e-18-j2.84490284386e-20
  +2.35672653655e-18-j3.62717529292e-20
  +2.77104048712e-18-j4.62454079513e-20
  +3.25816723634e-18-j5.89612831106e-20
  +3.83089400827e-18-j7.51731427758e-20
  +4.50425020389e-18-j9.58418352927e-20
  +5.29589922222e-18-j1.22192132306e-19
  +6.22659824220e-18-j1.55785142321e-19
  +7.32073755759e-18-j1.98610552563e-19
  +8.60697295930e-18-j2.53204108589e-19
  +1.01189668445e-17-j3.22797206842e-19
  +1.18962562303e-17-j4.11507333424e-19
  +1.39852686891e-17-j5.24580435050e-19
  +1.64405104281e-17-j6.68699283520e-19
  +1.93259543198e-17-j8.52375652392e-19
  +2.27166596529e-17-j1.08644886081e-18
  +2.67006596859e-17-j1.38471919750e-18
  +3.13811576896e-17-j1.76475221388e-18
  +3.68790769321e-17-j2.24889922834e-18
  +4.33360147950e-17-j2.86559104261e-18
  +5.09176556014e-17-j3.65097634273e-18
  +5.98177003003e-17-j4.65099412519e-18
  +7.02623732157e-17-j5.92399141109e-18
  +8.25155656383e-17-j7.54402419761e-18
  +9.68846717529e-17-j9.60501176806e-18
  +1.13727162398e-16-j1.22259527963e-17
  +1.33457923929e-16-j1.55574566050e-17
  +1.56557359769e-16-j1.97898945445e-17
  +1.83580206810e-16-j2.51635341341e-17
  +2.15164952581e-16-j3.19810805972e-17
  +2.52043645653e-16-j4.06231132253e-17
  +2.95051764030e-16-j5.15669615500e-17
  +3.45137636853e-16-j6.54096088820e-17
  +4.03370696544e-16-j8.28952238321e-17
  +4.70947567198e-16-j1.04947883219e-16
  +5.49194671159e-16-j1.32709934293e-16
  +6.39565669350e-16-j1.67586214839e-16
  +7.43631667352e-16-j2.11293964458e-16
  +8.63061765590e-16-j2.65917674850e-16
  +9.99591285224e-16-j3.33967303210e-16
  +1.15497497328e-15-j4.18437193659e-16
  +1.33092282824e-15-j5.22861742425e-16
  +1.52901706160e-15-j6.51362399092e-16
  +1.75061028730e-15-j8.08679214011e-16
  +1.99670741678e-15-j1.00017913584e-15
  +2.26783690553e-15-j1.23183306120e-15
  +2.56392069666e-15-j1.51015472826e-15
  +2.88415589679e-15-j1.84209735701e-15
  +3.22692405461e-15-j2.23490866279e-15
  +3.58974486365e-15-j2.69595125433e-15
  +3.96928920944e-15-j3.23250262702e-15
  +4.36146119575e-15-j3.85155554959e-15
  +4.76155038268e-15-j4.55964386358e-15
  +5.16444520838e-15-j5.36271899427e-15
  +5.56488854115e-15-j6.26609800875e-15
  +5.95774891036e-15-j7.27449527625e-15
  +6.33827811732e-15-j8.39213838649e-15
  +6.70232840036e-15-j9.62295748771e-15
  +7.04650945296e-15-j1.09708281713e-14
  +7.36827550846e-15-j1.24398432332e-14
  +7.66594302538e-15-j1.40345886062e-14
  +7.93864809663e-15-j1.57604027533e-14
  +8.18625823507e-15-j1.76236053085e-14
  +8.40925532170e-15-j1.96316879787e-14
  +8.60860572692e-15-j2.17934672254e-14
  +8.78563087883e-15-j2.41192031259e-14
  +8.94188789267e-15-j2.66206917972e-14
  +9.07906615304e-15-j2.93113399946e-14
  +9.19890252155e-15-j3.22062304176e-14
  +9.30311539622e-15-j3.53221853291e-14
  +9.39335621455e-15-j3.86778347801e-14
  +9.47117607129e-15-j4.22936943352e-14
  +9.53800474867e-15-j4.61922559310e-14
  +9.59513946169e-15-j5.03980944667e-14
  +9.64374085300e-15-j5.49379919532e-14
  +9.68483411746e-15-j5.98410805229e-14
  +9.71931351566e-15-j6.51390052882e-14
  +9.74794890010e-15-j7.08661078861e-14
  +9.77139319962e-15-j7.70596315252e-14
  +9.79019007746e-15-j8.37599484131e-14
  +9.80478119380e-15-j9.10108105696e-14
  +9.81551266920e-15-j9.88596251969e-14
  +9.82264046868e-15-j1.07357755967e-13
  +9.82633451357e-15-j1.16560851797e-13
  +9.82668138861e-15-j1.26529204897e-13
  +9.82368555064e-15-j1.37328140110e-13
  +9.81726896904e-15-j1.49028437777e-13
