<Qucs Dataset 0.0.20>
<indep lambda4 1>
  +7.49481144999999959744e-02
</indep>
<indep f0 1>
  +1.00000000000000000000e+09
</indep>
<indep Riso 1>
  +1.00000000000000000000e+02
</indep>
<indep Zbranch 1>
  +7.07106781186547550533e+01
</indep>
<indep Z0 1>
  +5.00000000000000000000e+01
</indep>
<indep frequency 100>
  +1.00000000000000000000e+05
  +2.03010101010101027787e+07
  +4.05020202020202055573e+07
  +6.07030303030303120613e+07
  +8.09040404040404111147e+07
  +1.01105050505050510168e+08
  +1.21306060606060624123e+08
  +1.41507070707070708275e+08
  +1.61708080808080822229e+08
  +1.81909090909090936184e+08
  +2.02110101010101020336e+08
  +2.22311111111111134291e+08
  +2.42512121212121248245e+08
  +2.62713131313131332397e+08
  +2.82914141414141416550e+08
  +3.03115151515151560307e+08
  +3.23316161616161644459e+08
  +3.43517171717171728611e+08
  +3.63718181818181872368e+08
  +3.83919191919191956520e+08
  +4.04120202020202040672e+08
  +4.24321212121212184429e+08
  +4.44522222222222268581e+08
  +4.64723232323232352734e+08
  +4.84924242424242496490e+08
  +5.05125252525252580643e+08
  +5.25326262626262664795e+08
  +5.45527272727272748947e+08
  +5.65728282828282833099e+08
  +5.85929292929293036461e+08
  +6.06130303030303120613e+08
  +6.26331313131313204765e+08
  +6.46532323232323288918e+08
  +6.66733333333333373070e+08
  +6.86934343434343457222e+08
  +7.07135353535353541374e+08
  +7.27336363636363744736e+08
  +7.47537373737373828888e+08
  +7.67738383838383913040e+08
  +7.87939393939393997192e+08
  +8.08140404040404081345e+08
  +8.28341414141414165497e+08
  +8.48542424242424368858e+08
  +8.68743434343434453011e+08
  +8.88944444444444537163e+08
  +9.09145454545454621315e+08
  +9.29346464646464705467e+08
  +9.49547474747474789619e+08
  +9.69748484848484992981e+08
  +9.89949494949495077133e+08
  +1.01015050505050516129e+09
  +1.03035151515151524544e+09
  +1.05055252525252532959e+09
  +1.07075353535353541374e+09
  +1.09095454545454549789e+09
  +1.11115555555555558205e+09
  +1.13135656565656566620e+09
  +1.15155757575757575035e+09
  +1.17175858585858607292e+09
  +1.19195959595959615707e+09
  +1.21216060606060624123e+09
  +1.23236161616161632538e+09
  +1.25256262626262640953e+09
  +1.27276363636363649368e+09
  +1.29296464646464657784e+09
  +1.31316565656565666199e+09
  +1.33336666666666674614e+09
  +1.35356767676767683029e+09
  +1.37376868686868691444e+09
  +1.39396969696969699860e+09
  +1.41417070707070708275e+09
  +1.43437171717171740532e+09
  +1.45457272727272748947e+09
  +1.47477373737373757362e+09
  +1.49497474747474765778e+09
  +1.51517575757575774193e+09
  +1.53537676767676782608e+09
  +1.55557777777777791023e+09
  +1.57577878787878799438e+09
  +1.59597979797979807854e+09
  +1.61618080808080816269e+09
  +1.63638181818181824684e+09
  +1.65658282828282833099e+09
  +1.67678383838383841515e+09
  +1.69698484848484873772e+09
  +1.71718585858585882187e+09
  +1.73738686868686890602e+09
  +1.75758787878787899017e+09
  +1.77778888888888907433e+09
  +1.79798989898989915848e+09
  +1.81819090909090924263e+09
  +1.83839191919191932678e+09
  +1.85859292929292941093e+09
  +1.87879393939393949509e+09
  +1.89899494949494957924e+09
  +1.91919595959595966339e+09
  +1.93939696969696998596e+09
  +1.95959797979798007011e+09
  +1.97979898989899015427e+09
  +2.00000000000000023842e+09
</indep>
<dep Decoupling frequency>
  -3.52182591931221011805e+00
  -3.55213335182724510020e+00
  -3.64112117522561273830e+00
  -3.78498266616248235650e+00
  -3.97797187956571418610e+00
  -4.21312019747426358407e+00
  -4.48298017356497346952e+00
  -4.78026429150561504855e+00
  -5.09830738697980567764e+00
  -5.43134081016024428124e+00
  -5.77460580302652015661e+00
  -6.12435021803990142786e+00
  -6.47775277141104233181e+00
  -6.83281062134327932256e+00
  -7.18821538062204901109e+00
  -7.54323311113267447325e+00
  -7.89759664498607527605e+00
  -8.25141375751279149142e+00
  -8.60509180940663220838e+00
  -8.95927791565200237756e+00
  -9.31481300800643907678e+00
  -9.67269798547006232070e+00
  -1.00340702613589538572e+01
  -1.04001892743811019670e+01
  -1.07724298548497507966e+01
  -1.11522826870128284327e+01
  -1.15413614718123938019e+01
  -1.19414167761215335162e+01
  -1.23543569729255864331e+01
  -1.27822771632674143660e+01
  -1.32274975723862660004e+01
  -1.36926137001153449546e+01
  -1.41805615870602430562e+01
  -1.46947031020945892976e+01
  -1.52389384352065064832e+01
  -1.58178564441366287241e+01
  -1.64369389265268708300e+01
  -1.71028436396615965975e+01
  -1.78238054796655731593e+01
  -1.86102204690268067111e+01
  -1.94755227319249293316e+01
  -2.04375509099009100566e+01
  -2.15207737429674281771e+01
  -2.27601179531109707455e+01
  -2.42080197785465145444e+01
  -2.59486313753979018770e+01
  -2.81301691668973319338e+01
  -3.10530878672973322807e+01
  -3.54943731297220921306e+01
  -4.50648347626739251837e+01
  -4.49788412551338012690e+01
  -3.54657135960156040255e+01
  -3.10358977264414583885e+01
  -2.81178962074942262461e+01
  -2.59390912898331826852e+01
  -2.42002194369238523564e+01
  -2.27535223132293360493e+01
  -2.15150614862230504798e+01
  -2.04325138198098272824e+01
  -1.94710180302753634862e+01
  -1.86061458480201125099e+01
  -1.78200849885508567638e+01
  -1.70994192156305118147e+01
  -1.64337650612712025122e+01
  -1.58148966885663728732e+01
  -1.52361630308603768214e+01
  -1.46920873296970420085e+01
  -1.41780845866117530818e+01
  -1.36902576099862205439e+01
  -1.32252468898288597643e+01
  -1.27801182623265940919e+01
  -1.23522777368796337072e+01
  -1.19394063153116789522e+01
  -1.15394099068895794602e+01
  -1.11503809839506509149e+01
  -1.07705697025860320792e+01
  -1.03983629993159816252e+01
  -1.00322707755820914599e+01
  -9.67091876779617543036e+00
  -9.31304811885859251674e+00
  -8.95752204866571410946e+00
  -8.60334038439544990240e+00
  -8.24966306112182401478e+00
  -7.89584402684736907929e+00
  -7.54147724434465871468e+00
  -7.18645659537751058110e+00
  -6.83105131862330949843e+00
  -6.47599791842501559813e+00
  -6.12260791646233037966e+00
  -5.77288790240270710541e+00
  -5.42966350934201980039e+00
  -5.09669172455182195591e+00
  -4.77873637429047803948e+00
  -4.48157094116535681394e+00
  -4.21186449403327944907e+00
  -3.97690663867890847882e+00
  -3.78414415118378855141e+00
  -3.64054146981134341132e+00
  -3.55183661557134922049e+00
  -3.52182518111362519164e+00
</dep>
<dep Attenuation3 frequency>
  -3.52182516920719779208e+00
  -3.52133461882067511084e+00
  -3.51987422972390362474e+00
  -3.51744890726618963939e+00
  -3.51406680935433701762e+00
  -3.50973933595476017544e+00
  -3.50448111411496565637e+00
  -3.49830997821810152359e+00
  -3.49124694510670785519e+00
  -3.48331618363748862777e+00
  -3.47454497815892437984e+00
  -3.46496368533851617499e+00
  -3.45460568370778631220e+00
  -3.44350731524158737429e+00
  -3.43170781824576565100e+00
  -3.41924925079416341944e+00
  -3.40617640393482101757e+00
  -3.39253670387670736019e+00
  -3.37838010237450880879e+00
  -3.36375895455105444753e+00
  -3.34872788343679284040e+00
  -3.33334363056442484208e+00
  -3.31766489203579428846e+00
  -3.30175213957870461456e+00
  -3.28566742623370622312e+00
  -3.26947417645620763693e+00
  -3.25323696058698175193e+00
  -3.23702125383369399003e+00
  -3.22089318011700376232e+00
  -3.20491924136409256363e+00
  -3.18916603307892776442e+00
  -3.17369994727771542742e+00
  -3.15858686414676981258e+00
  -3.14389183405279126760e+00
  -3.12967875180735921603e+00
  -3.11601002535196736076e+00
  -3.10294624128056550916e+00
  -3.09054582984633219311e+00
  -3.07886473230144952495e+00
  -3.06795607358555511013e+00
  -3.05786984350413737488e+00
  -3.04865258961611429456e+00
  -3.04034712507492921318e+00
  -3.03299225463588406626e+00
  -3.02662252195133030241e+00
  -3.02126798112350591907e+00
  -3.01695399527282948071e+00
  -3.01370106460995224040e+00
  -3.01152468617633672920e+00
  -3.01043524704729170693e+00
  -3.01043795237957034772e+00
  -3.01153278924286649243e+00
  -3.01371452670978623445e+00
  -3.01697275220300920040e+00
  -3.02129194362285780073e+00
  -3.02665157631370629332e+00
  -3.03302626348489390296e+00
  -3.04038592829033893494e+00
  -3.04869600540035268210e+00
  -3.05791766957586030884e+00
  -3.06800808848610939705e+00
  -3.07892069679898128243e+00
  -3.09060548842191096242e+00
  -3.10300932368029291908e+00
  -3.11607624818896589147e+00
  -3.12974782019787456377e+00
  -3.14396344327119248163e+00
  -3.15866070128483222845e+00
  -3.17377569289459326995e+00
  -3.18924336282926645936e+00
  -3.20499782759289075784e+00
  -3.22097269341123126907e+00
  -3.23710136452182339895e+00
  -3.25331734017911244905e+00
  -3.26955449901872796659e+00
  -3.28574736969371539175e+00
  -3.30183138695481259717e+00
  -3.31774313259286035560e+00
  -3.33342056089115557072e+00
  -3.34880320844591139462e+00
  -3.36383238840271658887e+00
  -3.37845136932444667366e+00
  -3.39260553905115092022e+00
  -3.40624255403487818938e+00
  -3.41931247473279631421e+00
  -3.43176788772069940592e+00
  -3.44356401524797961500e+00
  -3.45465881299433741347e+00
  -3.46501305681103843881e+00
  -3.47459041923518396899e+00
  -3.48335753655722557554e+00
  -3.49128406720040906919e+00
  -3.49834274213812035370e+00
  -3.50450940803219701536e+00
  -3.50976306372386970267e+00
  -3.51408589065022614051e+00
  -3.51746327769405375818e+00
  -3.51988384090484496269e+00
  -3.52133943845449870480e+00
  -3.52182518111362696800e+00
</dep>
<dep Reflect frequency>
  -9.54242518964469077503e+00
  -9.54635158884753387554e+00
  -9.55806433690889711841e+00
  -9.57759495245604952629e+00
  -9.60499613026468423982e+00
  -9.64034209387073204311e+00
  -9.68372909747489529764e+00
  -9.73527608597161986381e+00
  -9.79512552492660759640e+00
  -9.86344441570214414128e+00
  -9.94042551480948155529e+00
  -1.00262887810968344127e+01
  -1.01212830797404969019e+01
  -1.02256881784166271387e+01
  -1.03398170787751766397e+01
  -1.04640187357726901496e+01
  -1.05986812290084380095e+01
  -1.07442354645474651420e+01
  -1.09011595035866903913e+01
  -1.10699836367609432131e+01
  -1.12512963512706036795e+01
  -1.14457513741919321149e+01
  -1.16540760218145535987e+01
  -1.18770811450767244111e+01
  -1.21156730398992564801e+01
  -1.23708677951201089229e+01
  -1.26438086892513990023e+01
  -1.29357874339789908902e+01
  -1.32482703169360895856e+01
  -1.35829306479529172691e+01
  -1.39416894054644444623e+01
  -1.43267666798728079414e+01
  -1.47407475224515032153e+01
  -1.51866672972482810167e+01
  -1.56681238684834092112e+01
  -1.61894273862234499006e+01
  -1.67558038296817137791e+01
  -1.73736771970199335158e+01
  -1.80510698041003578851e+01
  -1.87981853790794950498e+01
  -1.96282851606503250252e+01
  -2.05590534733475607254e+01
  -2.16148225202059762751e+01
  -2.28303995406048656491e+01
  -2.42581176893061751798e+01
  -2.59820418586079249224e+01
  -2.81503165272055966284e+01
  -3.10633393652040084021e+01
  -3.54980535458884247646e+01
  -4.50652407097724534424e+01
  -4.49792553212942749497e+01
  -3.54694184041318223422e+01
  -3.10461899936867240513e+01
  -2.81381008893934705384e+01
  -2.59725758931562644705e+01
  -2.42504085854524866761e+01
  -2.28239126500166555900e+01
  -2.16092369951603693323e+01
  -2.05541616479299413811e+01
  -1.96239448899673227800e+01
  -1.87942950748237223024e+01
  -1.80475543249410783631e+01
  -1.73704793835404025515e+01
  -1.67528791752028247686e+01
  -1.61867405459230226938e+01
  -1.56656462952227588659e+01
  -1.51843755943981157941e+01
  -1.47386222678868961111e+01
  -1.43247915683202933224e+01
  -1.39398506112377855715e+01
  -1.35812163435628026065e+01
  -1.32466703040616291531e+01
  -1.29342928568249746490e+01
  -1.26424118092433896976e+01
  -1.23695618119032921811e+01
  -1.21144519477339791536e+01
  -1.18759396166057342725e+01
  -1.16530093132205649908e+01
  -1.14447552472347453545e+01
  -1.12503670087648188769e+01
  -1.10691176688465269251e+01
  -1.09003538427348960482e+01
  -1.07434873476899284128e+01
  -1.05979881655163676868e+01
  -1.04633784802737483943e+01
  -1.03392276079976834779e+01
  -1.02251476714086386721e+01
  -1.01207899009358612830e+01
  -1.00258414657988748075e+01
  -9.94002275674213642276e+00
  -9.86308505634174537136e+00
  -9.79480854437922054956e+00
  -9.73500059520299032556e+00
  -9.68349433173474238856e+00
  -9.64014740718213047899e+00
  -9.60484099087351594903e+00
  -9.57747893915620984728e+00
  -9.55798713617674522425e+00
  -9.54631299273485289802e+00
  -9.54242509439325026221e+00
</dep>
<dep Attenuation2 frequency>
  -3.52182516920719779208e+00
  -3.52133461882067289039e+00
  -3.51987422972390362474e+00
  -3.51744890726619097165e+00
  -3.51406680935433879398e+00
  -3.50973933595476195180e+00
  -3.50448111411496743273e+00
  -3.49830997821810329995e+00
  -3.49124694510670785519e+00
  -3.48331618363748996003e+00
  -3.47454497815892615620e+00
  -3.46496368533851795135e+00
  -3.45460568370778497993e+00
  -3.44350731524158915065e+00
  -3.43170781824576742736e+00
  -3.41924925079416341944e+00
  -3.40617640393481924121e+00
  -3.39253670387670736019e+00
  -3.37838010237450747653e+00
  -3.36375895455105577980e+00
  -3.34872788343679284040e+00
  -3.33334363056442217754e+00
  -3.31766489203579917344e+00
  -3.30175213957870372639e+00
  -3.28566742623370622312e+00
  -3.26947417645620896920e+00
  -3.25323696058698041966e+00
  -3.23702125383369576639e+00
  -3.22089318011700376232e+00
  -3.20491924136408989909e+00
  -3.18916603307892776442e+00
  -3.17369994727771320697e+00
  -3.15858686414676981258e+00
  -3.14389183405279259986e+00
  -3.12967875180735921603e+00
  -3.11601002535196913712e+00
  -3.10294624128056684143e+00
  -3.09054582984633130494e+00
  -3.07886473230145263358e+00
  -3.06795607358555377786e+00
  -3.05786984350413559852e+00
  -3.04865258961611429456e+00
  -3.04034712507492788092e+00
  -3.03299225463588850715e+00
  -3.02662252195132897015e+00
  -3.02126798112350591907e+00
  -3.01695399527283258934e+00
  -3.01370106460994957587e+00
  -3.01152468617633672920e+00
  -3.01043524704729437147e+00
  -3.01043795237957167998e+00
  -3.01153278924286649243e+00
  -3.01371452670978534627e+00
  -3.01697275220301053267e+00
  -3.02129194362285780073e+00
  -3.02665157631370629332e+00
  -3.03302626348489390296e+00
  -3.04038592829034337583e+00
  -3.04869600540035445846e+00
  -3.05791766957586297337e+00
  -3.06800808848611117341e+00
  -3.07892069679898128243e+00
  -3.09060548842191273877e+00
  -3.10300932368029291908e+00
  -3.11607624818896855601e+00
  -3.12974782019787722831e+00
  -3.14396344327119159345e+00
  -3.15866070128483400481e+00
  -3.17377569289459415813e+00
  -3.18924336282926645936e+00
  -3.20499782759289209011e+00
  -3.22097269341123126907e+00
  -3.23710136452182162259e+00
  -3.25331734017911244905e+00
  -3.26955449901872929885e+00
  -3.28574736969371716810e+00
  -3.30183138695481126490e+00
  -3.31774313259286035560e+00
  -3.33342056089115201800e+00
  -3.34880320844591050644e+00
  -3.36383238840272014158e+00
  -3.37845136932445022637e+00
  -3.39260553905115092022e+00
  -3.40624255403488129801e+00
  -3.41931247473279364968e+00
  -3.43176788772070029410e+00
  -3.44356401524797961500e+00
  -3.45465881299433519303e+00
  -3.46501305681103843881e+00
  -3.47459041923518130446e+00
  -3.48335753655722690780e+00
  -3.49128406720041262190e+00
  -3.49834274213811857734e+00
  -3.50450940803219701536e+00
  -3.50976306372386748222e+00
  -3.51408589065022303188e+00
  -3.51746327769404931729e+00
  -3.51988384090484496269e+00
  -3.52133943845449870480e+00
  -3.52182518111362519164e+00
</dep>
<dep S[3,3] frequency>
  -3.33333238292715938744e-01+j1.97461422234067221059e-04
  -3.29446488472362242206e-01+j3.97405126591706403527e-02
  -3.18208922310719566351e-01+j7.72867409260113574776e-02
  -3.00582929564049361471e-01+j1.11127728951833024129e-01
  -2.77957995204578534043e-01+j1.40033174584471981072e-01
  -2.51910739489385304690e-01+j1.63331458796562550839e-01
  -2.23982519976544058871e-01+j1.80875628965137091875e-01
  -1.95520509676880782646e-01+j1.92932975607420703623e-01
  -1.67595628046306260872e-01+j2.00045556852724987218e-01
  -1.40985895759019319584e-01+j2.02899031950984187755e-01
  -1.16202898654256342459e-01+j2.02219960037243406958e-01
  -9.35393848049781706511e-02+j1.98706709493796013222e-01
  -7.31218506130952294875e-02+j1.92990037463468100398e-01
  -5.49586885453380580291e-02+j1.85615808877353904993e-01
  -3.89797680007194224938e-02+j1.77042220229264329889e-01
  -2.50666663152270541293e-02+j1.67645367582712589982e-01
  -1.30744879429710719743e-02+j1.57728825474228451231e-01
  -2.84685999928800670400e-03+j1.47534496856361524442e-01
  +5.77424983713141493080e-03+j1.37253174307207903571e-01
  +1.29424580874914346706e-02+j1.27034038732029452845e-01
  +1.88034917610978430380e-02+j1.16992802414746799311e-01
  +2.34934598752934570287e-02+j1.07218473031238076265e-01
  +2.71382533503020870191e-02+j9.77788506718590411104e-02
  +2.98536426400503249190e-02+j8.87249254727328628967e-02
  +3.17457803440764074754e-02+j8.00943547709877801122e-02
  +3.29119147165379960507e-02+j7.19141877152632558179e-02
  +3.34411888148734431914e-02+j6.42029847470429460010e-02
  +3.34154470551228932607e-02+j5.69724563143763629292e-02
  +3.29100024864268578262e-02+j5.02287231178560611422e-02
  +3.19943388847043486134e-02+j4.39732806663362396637e-02
  +3.07327352028442316034e-02+j3.82037344057956085308e-02
  +2.91848084044395369996e-02+j3.29143581028334131222e-02
  +2.74059759142799147513e-02+j2.80965171948402980817e-02
  +2.54478419778961795217e-02+j2.37389900617636373514e-02
  +2.33585139007337766470e-02+j1.98282132315816816970e-02
  +2.11828549454765313609e-02+j1.63484710448266179483e-02
  +1.89626809390379957865e-02+j1.32820459674165419761e-02
  +1.67369075955295237845e-02+j1.06093423042748075114e-02
  +1.45416553350768834596e-02+j8.30899332656455380519e-03
  +1.24103180545943325708e-02+j6.35795962316125506941e-03
  +1.03736019344681240639e-02+j4.73162469794162487968e-03
  +8.45953997092926957002e-03+j3.40389236325519539683e-03
  +6.69348751981840850434e-03+j2.34728925450893022298e-03
  +5.09810372705746250865e-03+j1.53307475764646872207e-03
  +3.69332330327995506103e-03+j9.31359761617490955476e-04
  +2.49632267144284103466e-03+j5.11234894301798581395e-04
  +1.52148407308824729078e-03+j2.40908254210539518603e-04
  +7.80360758115355990228e-04+j8.78520997088204358416e-05
  +2.81645902667354564031e-04+j1.89574954547553492512e-05
  +3.11473997603450847294e-05+j6.95538606202382447830e-07
  +3.17701490923638640851e-05-j7.16506271413244744117e-07
  +2.83506939039973593353e-04-j1.91460448737967858790e-05
  +7.83438469508235257877e-04-j8.83749710409442723602e-05
  +1.52574251427101126311e-03-j2.41930514537316843082e-04
  +2.50171167142398953587e-03-j5.12919125949182208579e-04
  +3.69977860626505283825e-03-j9.33865279141264659213e-04
  +5.10554715756711408048e-03-j1.53655686109271938378e-03
  +6.70182716008510537264e-03-j2.35189852489839368310e-03
  +8.46867033627451970546e-03-j3.40977400416504761171e-03
  +1.03834041300289725562e-02-j4.73891792455578830801e-03
  +1.24206598945300061843e-02-j6.36679709720371078685e-03
  +1.45523914032401474605e-02-j8.31950063207498313744e-03
  +1.67478792244871027561e-02-j1.06216374551648118363e-02
  +1.89737160822811140592e-02-j1.32962389330297386936e-02
  +2.11937679156462971397e-02-j1.63646632741743236483e-02
  +2.33691049447015963825e-02-j1.98464971502989306895e-02
  +2.54578966576324561277e-02-j2.37594485078226336228e-02
  +2.74152642606900476263e-02-j2.81192227492696456004e-02
  +2.91930838099331291247e-02-j3.29393722595611726511e-02
  +3.07397330176470279239e-02-j3.82311065095944646597e-02
  +3.19997746823501988400e-02-j4.40030465287793437490e-02
  +3.29135699663258562975e-02-j5.02609031970989439397e-02
  +3.34168155559294924317e-02-j5.70070533140684398976e-02
  +3.34400004236123093992e-02-j6.42399804511097349824e-02
  +3.29077809781604321837e-02-j7.19535388267820152919e-02
  +3.17382786089401638940e-02-j8.01359874629011259550e-02
  +2.98423121395038001835e-02-j8.87687282838099389615e-02
