<Qucs Dataset 0.0.17>
<indep time 201>
  +0.00000000000e+00
  +3.00000000000e-06
  +6.00000000000e-06
  +9.00000000000e-06
  +1.20000000000e-05
  +1.50000000000e-05
  +1.80000000000e-05
  +2.10000000000e-05
  +2.40000000000e-05
  +2.70000000000e-05
  +3.00000000000e-05
  +3.30000000000e-05
  +3.60000000000e-05
  +3.90000000000e-05
  +4.20000000000e-05
  +4.50000000000e-05
  +4.80000000000e-05
  +5.10000000000e-05
  +5.40000000000e-05
  +5.70000000000e-05
  +6.00000000000e-05
  +6.30000000000e-05
  +6.60000000000e-05
  +6.90000000000e-05
  +7.20000000000e-05
  +7.50000000000e-05
  +7.80000000000e-05
  +8.10000000000e-05
  +8.40000000000e-05
  +8.70000000000e-05
  +9.00000000000e-05
  +9.30000000000e-05
  +9.60000000000e-05
  +9.90000000000e-05
  +1.02000000000e-04
  +1.05000000000e-04
  +1.08000000000e-04
  +1.11000000000e-04
  +1.14000000000e-04
  +1.17000000000e-04
  +1.20000000000e-04
  +1.23000000000e-04
  +1.26000000000e-04
  +1.29000000000e-04
  +1.32000000000e-04
  +1.35000000000e-04
  +1.38000000000e-04
  +1.41000000000e-04
  +1.44000000000e-04
  +1.47000000000e-04
  +1.50000000000e-04
  +1.53000000000e-04
  +1.56000000000e-04
  +1.59000000000e-04
  +1.62000000000e-04
  +1.65000000000e-04
  +1.68000000000e-04
  +1.71000000000e-04
  +1.74000000000e-04
  +1.77000000000e-04
  +1.80000000000e-04
  +1.83000000000e-04
  +1.86000000000e-04
  +1.89000000000e-04
  +1.92000000000e-04
  +1.95000000000e-04
  +1.98000000000e-04
  +2.01000000000e-04
  +2.04000000000e-04
  +2.07000000000e-04
  +2.10000000000e-04
  +2.13000000000e-04
  +2.16000000000e-04
  +2.19000000000e-04
  +2.22000000000e-04
  +2.25000000000e-04
  +2.28000000000e-04
  +2.31000000000e-04
  +2.34000000000e-04
  +2.37000000000e-04
  +2.40000000000e-04
  +2.43000000000e-04
  +2.46000000000e-04
  +2.49000000000e-04
  +2.52000000000e-04
  +2.55000000000e-04
  +2.58000000000e-04
  +2.61000000000e-04
  +2.64000000000e-04
  +2.67000000000e-04
  +2.70000000000e-04
  +2.73000000000e-04
  +2.76000000000e-04
  +2.79000000000e-04
  +2.82000000000e-04
  +2.85000000000e-04
  +2.88000000000e-04
  +2.91000000000e-04
  +2.94000000000e-04
  +2.97000000000e-04
  +3.00000000000e-04
  +3.03000000000e-04
  +3.06000000000e-04
  +3.09000000000e-04
  +3.12000000000e-04
  +3.15000000000e-04
  +3.18000000000e-04
  +3.21000000000e-04
  +3.24000000000e-04
  +3.27000000000e-04
  +3.30000000000e-04
  +3.33000000000e-04
  +3.36000000000e-04
  +3.39000000000e-04
  +3.42000000000e-04
  +3.45000000000e-04
  +3.48000000000e-04
  +3.51000000000e-04
  +3.54000000000e-04
  +3.57000000000e-04
  +3.60000000000e-04
  +3.63000000000e-04
  +3.66000000000e-04
  +3.69000000000e-04
  +3.72000000000e-04
  +3.75000000000e-04
  +3.78000000000e-04
  +3.81000000000e-04
  +3.84000000000e-04
  +3.87000000000e-04
  +3.90000000000e-04
  +3.93000000000e-04
  +3.96000000000e-04
  +3.99000000000e-04
  +4.02000000000e-04
  +4.05000000000e-04
  +4.08000000000e-04
  +4.11000000000e-04
  +4.14000000000e-04
  +4.17000000000e-04
  +4.20000000000e-04
  +4.23000000000e-04
  +4.26000000000e-04
  +4.29000000000e-04
  +4.32000000000e-04
  +4.35000000000e-04
  +4.38000000000e-04
  +4.41000000000e-04
  +4.44000000000e-04
  +4.47000000000e-04
  +4.50000000000e-04
  +4.53000000000e-04
  +4.56000000000e-04
  +4.59000000000e-04
  +4.62000000000e-04
  +4.65000000000e-04
  +4.68000000000e-04
  +4.71000000000e-04
  +4.74000000000e-04
  +4.77000000000e-04
  +4.80000000000e-04
  +4.83000000000e-04
  +4.86000000000e-04
  +4.89000000000e-04
  +4.92000000000e-04
  +4.95000000000e-04
  +4.98000000000e-04
  +5.01000000000e-04
  +5.04000000000e-04
  +5.07000000000e-04
  +5.10000000000e-04
  +5.13000000000e-04
  +5.16000000000e-04
  +5.19000000000e-04
  +5.22000000000e-04
  +5.25000000000e-04
  +5.28000000000e-04
  +5.31000000000e-04
  +5.34000000000e-04
  +5.37000000000e-04
  +5.40000000000e-04
  +5.43000000000e-04
  +5.46000000000e-04
  +5.49000000000e-04
  +5.52000000000e-04
  +5.55000000000e-04
  +5.58000000000e-04
  +5.61000000000e-04
  +5.64000000000e-04
  +5.67000000000e-04
  +5.70000000000e-04
  +5.73000000000e-04
  +5.76000000000e-04
  +5.79000000000e-04
  +5.82000000000e-04
  +5.85000000000e-04
  +5.88000000000e-04
  +5.91000000000e-04
  +5.94000000000e-04
  +5.97000000000e-04
  +6.00000000000e-04
</indep>
<dep V2.It time>
  +0.00000000000e+00
  +0.00000000000e+00
  +0.00000000000e+00
  +0.00000000000e+00
  +0.00000000000e+00
  +0.00000000000e+00
  +0.00000000000e+00
  +0.00000000000e+00
  +0.00000000000e+00
  +0.00000000000e+00
  +0.00000000000e+00
  +0.00000000000e+00
  +0.00000000000e+00
  +0.00000000000e+00
  +0.00000000000e+00
  +0.00000000000e+00
  +0.00000000000e+00
  +0.00000000000e+00
  +0.00000000000e+00
  +0.00000000000e+00
  +0.00000000000e+00
  +0.00000000000e+00
  +0.00000000000e+00
  +0.00000000000e+00
  +0.00000000000e+00
  +0.00000000000e+00
  +0.00000000000e+00
  +0.00000000000e+00
  +0.00000000000e+00
  +0.00000000000e+00
  +0.00000000000e+00
  +0.00000000000e+00
  +0.00000000000e+00
  +0.00000000000e+00
  +0.00000000000e+00
  +0.00000000000e+00
  +0.00000000000e+00
  +0.00000000000e+00
  +0.00000000000e+00
  +0.00000000000e+00
  +0.00000000000e+00
  +0.00000000000e+00
  +0.00000000000e+00
  +0.00000000000e+00
  +0.00000000000e+00
  +0.00000000000e+00
  +0.00000000000e+00
  +0.00000000000e+00
  +0.00000000000e+00
  +0.00000000000e+00
  +0.00000000000e+00
  +0.00000000000e+00
  +0.00000000000e+00
  +0.00000000000e+00
  +0.00000000000e+00
  +0.00000000000e+00
  +0.00000000000e+00
  +0.00000000000e+00
  +0.00000000000e+00
  +0.00000000000e+00
  +0.00000000000e+00
  +0.00000000000e+00
  +0.00000000000e+00
  +0.00000000000e+00
  +0.00000000000e+00
  +0.00000000000e+00
  +0.00000000000e+00
  +0.00000000000e+00
  +0.00000000000e+00
  +0.00000000000e+00
  +0.00000000000e+00
  +0.00000000000e+00
  +0.00000000000e+00
  +0.00000000000e+00
  +0.00000000000e+00
  +0.00000000000e+00
  +0.00000000000e+00
  +0.00000000000e+00
  +0.00000000000e+00
  +0.00000000000e+00
  +0.00000000000e+00
  +0.00000000000e+00
  +0.00000000000e+00
  +0.00000000000e+00
  +0.00000000000e+00
  +0.00000000000e+00
  +0.00000000000e+00
  +0.00000000000e+00
  +0.00000000000e+00
  +0.00000000000e+00
  +0.00000000000e+00
  +0.00000000000e+00
  +0.00000000000e+00
  +0.00000000000e+00
  +0.00000000000e+00
  +0.00000000000e+00
  +0.00000000000e+00
  +0.00000000000e+00
  +0.00000000000e+00
  +0.00000000000e+00
  +0.00000000000e+00
  +0.00000000000e+00
  +0.00000000000e+00
  +0.00000000000e+00
  +0.00000000000e+00
  +0.00000000000e+00
  +0.00000000000e+00
  +0.00000000000e+00
  +0.00000000000e+00
  +0.00000000000e+00
  +0.00000000000e+00
  +0.00000000000e+00
  +0.00000000000e+00
  +0.00000000000e+00
  +0.00000000000e+00
  +0.00000000000e+00
  +0.00000000000e+00
  +0.00000000000e+00
  +0.00000000000e+00
  +0.00000000000e+00
  +0.00000000000e+00
  +0.00000000000e+00
  +0.00000000000e+00
  +0.00000000000e+00
  +0.00000000000e+00
  +0.00000000000e+00
  +0.00000000000e+00
  +0.00000000000e+00
  +0.00000000000e+00
  +0.00000000000e+00
  +0.00000000000e+00
  +0.00000000000e+00
  +0.00000000000e+00
  +0.00000000000e+00
  +0.00000000000e+00
  +0.00000000000e+00
  +0.00000000000e+00
  +0.00000000000e+00
  +0.00000000000e+00
  +0.00000000000e+00
  +0.00000000000e+00
  +0.00000000000e+00
  +0.00000000000e+00
  +0.00000000000e+00
  +0.00000000000e+00
  +0.00000000000e+00
  +0.00000000000e+00
  +0.00000000000e+00
  +0.00000000000e+00
  +0.00000000000e+00
  +0.00000000000e+00
  +0.00000000000e+00
  +0.00000000000e+00
  +0.00000000000e+00
  +0.00000000000e+00
  +0.00000000000e+00
  +0.00000000000e+00
  +0.00000000000e+00
  +0.00000000000e+00
  +0.00000000000e+00
  +0.00000000000e+00
  +0.00000000000e+00
  +0.00000000000e+00
  +0.00000000000e+00
  +0.00000000000e+00
  +0.00000000000e+00
  +0.00000000000e+00
  +0.00000000000e+00
  +0.00000000000e+00
  +0.00000000000e+00
  +0.00000000000e+00
  +0.00000000000e+00
  +0.00000000000e+00
  +0.00000000000e+00
  +0.00000000000e+00
  +0.00000000000e+00
  +0.00000000000e+00
  +0.00000000000e+00
  +0.00000000000e+00
  +0.00000000000e+00
  +0.00000000000e+00
  +0.00000000000e+00
  +0.00000000000e+00
  +0.00000000000e+00
  +0.00000000000e+00
  +0.00000000000e+00
  +0.00000000000e+00
  +0.00000000000e+00
  +0.00000000000e+00
  +0.00000000000e+00
  +0.00000000000e+00
  +0.00000000000e+00
  +0.00000000000e+00
  +0.00000000000e+00
  +0.00000000000e+00
  +0.00000000000e+00
  +0.00000000000e+00
  +0.00000000000e+00
  +0.00000000000e+00
  +0.00000000000e+00
  +0.00000000000e+00
</dep>
<dep V3.It time>
  +0.00000000000e+00
  +0.00000000000e+00
  +0.00000000000e+00
  +0.00000000000e+00
  +0.00000000000e+00
  +0.00000000000e+00
  +0.00000000000e+00
  +0.00000000000e+00
  +0.00000000000e+00
  +0.00000000000e+00
  +0.00000000000e+00
  +0.00000000000e+00
  +0.00000000000e+00
  +0.00000000000e+00
  +0.00000000000e+00
  +0.00000000000e+00
  +0.00000000000e+00
  +0.00000000000e+00
  +0.00000000000e+00
  +0.00000000000e+00
  +0.00000000000e+00
  +0.00000000000e+00
  +0.00000000000e+00
  +0.00000000000e+00
  +0.00000000000e+00
  +0.00000000000e+00
  +0.00000000000e+00
  +0.00000000000e+00
  +0.00000000000e+00
  +0.00000000000e+00
  +0.00000000000e+00
  +0.00000000000e+00
  +0.00000000000e+00
  +0.00000000000e+00
  +0.00000000000e+00
  +0.00000000000e+00
  +0.00000000000e+00
  +0.00000000000e+00
  +0.00000000000e+00
  +0.00000000000e+00
  +0.00000000000e+00
  +0.00000000000e+00
  +0.00000000000e+00
  +0.00000000000e+00
  +0.00000000000e+00
  +0.00000000000e+00
  +0.00000000000e+00
  +0.00000000000e+00
  +0.00000000000e+00
  +0.00000000000e+00
  +0.00000000000e+00
  +0.00000000000e+00
  +0.00000000000e+00
  +0.00000000000e+00
  +0.00000000000e+00
  +0.00000000000e+00
  +0.00000000000e+00
  +0.00000000000e+00
  +0.00000000000e+00
  +0.00000000000e+00
  +0.00000000000e+00
  +0.00000000000e+00
  +0.00000000000e+00
  +0.00000000000e+00
  +0.00000000000e+00
  +0.00000000000e+00
  +0.00000000000e+00
  +0.00000000000e+00
  +0.00000000000e+00
  +0.00000000000e+00
  +0.00000000000e+00
  +0.00000000000e+00
  +0.00000000000e+00
  +0.00000000000e+00
  +0.00000000000e+00
  +0.00000000000e+00
  +0.00000000000e+00
  +0.00000000000e+00
  +0.00000000000e+00
  +0.00000000000e+00
  +0.00000000000e+00
  +0.00000000000e+00
  +0.00000000000e+00
  +0.00000000000e+00
  +0.00000000000e+00
  +0.00000000000e+00
  +0.00000000000e+00
  +0.00000000000e+00
  +0.00000000000e+00
  +0.00000000000e+00
  +0.00000000000e+00
  +0.00000000000e+00
  +0.00000000000e+00
  +0.00000000000e+00
  +0.00000000000e+00
  +0.00000000000e+00
  +0.00000000000e+00
  +0.00000000000e+00
  +0.00000000000e+00
  +0.00000000000e+00
  +0.00000000000e+00
  +0.00000000000e+00
  +0.00000000000e+00
  +0.00000000000e+00
  +0.00000000000e+00
  +0.00000000000e+00
  +0.00000000000e+00
  +0.00000000000e+00
  +0.00000000000e+00
  +0.00000000000e+00
  +0.00000000000e+00
  +0.00000000000e+00
  +0.00000000000e+00
  +0.00000000000e+00
  +0.00000000000e+00
  +0.00000000000e+00
  +0.00000000000e+00
  +0.00000000000e+00
  +0.00000000000e+00
  +0.00000000000e+00
  +0.00000000000e+00
  +0.00000000000e+00
  +0.00000000000e+00
  +0.00000000000e+00
  +0.00000000000e+00
  +0.00000000000e+00
  +0.00000000000e+00
  +0.00000000000e+00
  +0.00000000000e+00
  +0.00000000000e+00
  +0.00000000000e+00
  +0.00000000000e+00
  +0.00000000000e+00
  +0.00000000000e+00
  +0.00000000000e+00
  +0.00000000000e+00
  +0.00000000000e+00
  +0.00000000000e+00
  +0.00000000000e+00
  +0.00000000000e+00
  +0.00000000000e+00
  +0.00000000000e+00
  +0.00000000000e+00
  +0.00000000000e+00
  +0.00000000000e+00
  +0.00000000000e+00
  +0.00000000000e+00
  +0.00000000000e+00
  +0.00000000000e+00
  +0.00000000000e+00
  +0.00000000000e+00
  +0.00000000000e+00
  +0.00000000000e+00
  +0.00000000000e+00
  +0.00000000000e+00
  +0.00000000000e+00
  +0.00000000000e+00
  +0.00000000000e+00
  +0.00000000000e+00
  +0.00000000000e+00
  +0.00000000000e+00
  +0.00000000000e+00
  +0.00000000000e+00
  +0.00000000000e+00
  +0.00000000000e+00
  +0.00000000000e+00
  +0.00000000000e+00
  +0.00000000000e+00
  +0.00000000000e+00
  +0.00000000000e+00
  +0.00000000000e+00
  +0.00000000000e+00
  +0.00000000000e+00
  +0.00000000000e+00
  +0.00000000000e+00
  +0.00000000000e+00
  +0.00000000000e+00
  +0.00000000000e+00
  +0.00000000000e+00
  +0.00000000000e+00
  +0.00000000000e+00
  +0.00000000000e+00
  +0.00000000000e+00
  +0.00000000000e+00
  +0.00000000000e+00
  +0.00000000000e+00
  +0.00000000000e+00
  +0.00000000000e+00
  +0.00000000000e+00
  +0.00000000000e+00
  +0.00000000000e+00
  +0.00000000000e+00
  +0.00000000000e+00
  +0.00000000000e+00
  +0.00000000000e+00
  +0.00000000000e+00
  +0.00000000000e+00
  +0.00000000000e+00
  +0.00000000000e+00
  +0.00000000000e+00
  +0.00000000000e+00
</dep>
<dep V1.It time>
  -1.54944785934e-03
  -1.48033297090e-03
  -1.42471501059e-03
  -1.37596176196e-03
  -1.33194055808e-03
  -1.29184529823e-03
  -1.25523599256e-03
  -1.22178654195e-03
  -1.19121832109e-03
  -1.16328165507e-03
  -1.13774961063e-03
  -1.11441511933e-03
  -1.09308900705e-03
  -1.07359841328e-03
  -1.05578535095e-03
  -1.03950544201e-03
  -1.02462671794e-03
  -1.01102858854e-03
  -9.98600837454e-04
  -9.87242729978e-04
  -9.76862200342e-04
  -9.67375108764e-04
  -9.58704559320e-04
  -9.50780274709e-04
  -9.43538024892e-04
  -9.36919106909e-04
  -9.30869870663e-04
  -9.25341284609e-04
  -9.20288537601e-04
  -9.15670674934e-04
  -9.11450266357e-04
  -9.07593103155e-04
  -9.04067921210e-04
  -9.00846147496e-04
  -8.97902854704e-04
  -8.95210141994e-04
  -8.92751186012e-04
  -8.90503791095e-04
  -8.88449887089e-04
  -8.86572461145e-04
  -8.84856447115e-04
  -8.83288147786e-04
  -8.81854856509e-04
  -8.80544932427e-04
  -8.79347752174e-04
  -8.78253651000e-04
  -8.77253658671e-04
  -8.76339750897e-04
  -8.75504501250e-04
  -8.74741143380e-04
  -8.74043488718e-04
  -8.73405890289e-04
  -8.72823161292e-04
  -8.72290587147e-04
  -8.71803851041e-04
  -8.71359007737e-04
  -8.70952451571e-04
  -8.70580887213e-04
  -8.70241302959e-04
  -8.69930946319e-04
  -8.69647301707e-04
  -8.69388070051e-04
  -8.69151150156e-04
  -8.68934621676e-04
  -8.68736729545e-04
  -8.68555869755e-04
  -8.68390576354e-04
  -8.68239509559e-04
  -8.68101444904e-04
  -8.67975263311e-04
  -8.67859942017e-04
  -8.67754546291e-04
  -8.67658221850e-04
  -8.67570187939e-04
  -8.67489731003e-04
  -8.67416198900e-04
  -8.67348995618e-04
  -8.67287576443e-04
  -8.67231443543e-04
  -8.67180141935e-04
  -8.67133255796e-04
  -8.67090405092e-04
  -8.67051242497e-04
  -8.67015450580e-04
  -8.66982739230e-04
  -8.66952843308e-04
  -8.66925520493e-04
  -8.66900549319e-04
  -8.66877727386e-04
  -8.66856869708e-04
  -8.66837807227e-04
  -8.66820385430e-04
  -8.66804463107e-04
  -8.66789911200e-04
  -8.66776611758e-04
  -8.66764456983e-04
  -8.66753348355e-04
  -8.66743195834e-04
  -8.66733917128e-04
  -8.66725437029e-04
  -8.66717686802e-04
  -8.61943574826e-04
  -8.44802802224e-04
  -8.28210875269e-04
  -8.12157278672e-04
  -7.96624532327e-04
  -7.81595724690e-04
  -7.67054494424e-04
  -7.52985012403e-04
  -7.39371964314e-04
  -7.26200533835e-04
  -7.13456386367e-04
  -7.01125653308e-04
  -6.89194916840e-04
  -6.77651195227e-04
  -6.66481928583e-04
  -6.55674965127e-04
  -6.45218547874e-04
  -6.35604243621e-04
  -6.25748251461e-04
  -6.16234478873e-04
  -6.07045659671e-04
  -5.98153455835e-04
  -5.89549974407e-04
  -5.81226802782e-04
  -5.73174697401e-04
  -5.65384581165e-04
  -5.57848028641e-04
  -5.50556650847e-04
  -5.43502437236e-04
  -5.36677642045e-04
  -5.30074777990e-04
  -5.23686586859e-04
  -5.17506050553e-04
  -5.11526567860e-04
  -5.05741276549e-04
  -5.00504646190e-04
  -5.69357945066e-04
  -7.92271509353e-04
  -8.48724590181e-04
  -8.62195643775e-04
  -8.65541268521e-04
  -8.66385899330e-04
  -8.66598136394e-04
  -8.66650048440e-04
  -8.66661363632e-04
  -8.66662291410e-04
  -8.66660685261e-04
  -8.66658712216e-04
  -8.66656838197e-04
  -8.66655001784e-04
  -8.66653258204e-04
  -8.66651726355e-04
  -8.66650364050e-04
  -8.66648892798e-04
  -8.66647545734e-04
  -8.66646198860e-04
  -8.66644945953e-04
  -8.66644216861e-04
  -8.66643759257e-04
  -8.66643157234e-04
  -8.66642601614e-04
  -8.66642064568e-04
  -8.66641548116e-04
  -8.66641054111e-04
  -8.66640585017e-04
  -8.66640143155e-04
  -8.66639730288e-04
  -8.66639347415e-04
  -8.66638994735e-04
  -8.66638671709e-04
  -8.66638377191e-04
  -8.66638109582e-04
  -8.66637866988e-04
  -8.66637647404e-04
  -8.66637448560e-04
  -8.66637268641e-04
  -8.66637105867e-04
  -8.66636958484e-04
  -8.66636863298e-04
  -8.66636680551e-04
  -8.66636608634e-04
  -8.66636484262e-04
  -8.66636393225e-04
  -8.66636314941e-04
  -8.66636221375e-04
  -8.66636165347e-04
  -8.66636085003e-04
  -8.66636035429e-04
  -8.66635973758e-04
  -8.66635925657e-04
  -8.66635880403e-04
  -8.66635835445e-04
  -8.66635800688e-04
  -8.66635761806e-04
  -8.66635732723e-04
  -8.66635701220e-04
  -8.66635675518e-04
  -8.66635650687e-04
  -8.66635627956e-04
  -8.66635608126e-04
</dep>
<dep vdis.Vt time>
  +6.27553270392e-06
  +1.06688617299e-01
  +1.35482845212e-01
  +1.42891357136e-01
  +1.44785441726e-01
  +1.45268975011e-01
  +1.45392366721e-01
  +1.45423825129e-01
  +1.45431871623e-01
  +1.45433908523e-01
  +1.45434442899e-01
  +1.45434564197e-01
  +1.45434611212e-01
  +1.45434605922e-01
  +1.45434608956e-01
  +1.45434573299e-01
  +1.45434609735e-01
  +1.45434638332e-01
  +1.45434633193e-01
  +1.45434612087e-01
  +1.45434601972e-01
  +1.45434609318e-01
  +1.45434621442e-01
  +1.45434624156e-01
  +1.45434617441e-01
  +1.45434611526e-01
  +1.45434612381e-01
  +1.45434616828e-01
  +1.45434619086e-01
  +1.45434617566e-01
  +1.45434615049e-01
  +1.45434614466e-01
  +1.45434615826e-01
  +1.45434617078e-01
  +1.45434587771e-01
  +1.45434758998e-01
  +1.45434817132e-01
  +1.45433829764e-01
  +1.45433711742e-01
  +1.45434011681e-01
  +1.45434262546e-01
  +1.45434424964e-01
  +1.45434517420e-01
  +1.45434569035e-01
  +1.45434598039e-01
  +1.45434293922e-01
  +1.45434532108e-01
  +1.45434592187e-01
  +1.45434654175e-01
  +1.45434685688e-01
  +1.45434698051e-01
  +1.45434615106e-01
  +1.45434615877e-01
  +1.45434616075e-01
  +1.45434616124e-01
  +1.45434616138e-01
  +1.45434616141e-01
  +1.45434616142e-01
  +1.45434616142e-01
  +1.45434616142e-01
  +1.45434616142e-01
  +1.45434616142e-01
  +1.45434616142e-01
  +1.45434616142e-01
  +1.45434616142e-01
  +1.45434616142e-01
  +1.45434616142e-01
  +1.45434616142e-01
  +1.45434616142e-01
  +1.45434616143e-01
  +1.45434616142e-01
  +1.45434616141e-01
  +1.45434616142e-01
  +1.45434616142e-01
  +1.45434616142e-01
  +1.45434616142e-01
  +1.45434616142e-01
  +1.45434616142e-01
  +1.45434616142e-01
  +1.45434616142e-01
  +1.45434616142e-01
  +1.45434616142e-01
  +1.45434616142e-01
  +1.45434616142e-01
  +1.45434616142e-01
  +1.45434616142e-01
  +1.45434616142e-01
  +1.45434616142e-01
  +1.45434616142e-01
  +1.45434616142e-01
  +1.45434616142e-01
  +1.45434616142e-01
  +1.45434616142e-01
  +1.45434616142e-01
  +1.45434616142e-01
  +1.45434616142e-01
  +1.45434616142e-01
  +1.45434616142e-01
  +1.45434616142e-01
  +1.45434616142e-01
  +1.45434616142e-01
  +1.88695207940e-01
  +3.44627603525e-01
  +4.95569689689e-01
  +6.41616795276e-01
  +7.82927659981e-01
  +9.19655877922e-01
  +1.05195006224e+00
  +1.17995400661e+00
  +1.30380684157e+00
  +1.42364318569e+00
  +1.53959329193e+00
  +1.65178318922e+00
  +1.76033481941e+00
  +1.86536616983e+00
  +1.96699140156e+00
  +2.06532097347e+00
  +2.16046176230e+00
  +2.25133083935e+00
  +2.34046812189e+00
  +2.42670475306e+00
  +2.51011823473e+00
  +2.59083409392e+00
  +2.66893327532e+00
  +2.74449982684e+00
  +2.81761494779e+00
  +2.88835933367e+00
  +2.95680935120e+00
  +3.02303955934e+00
  +3.08712198356e+00
  +3.14912625510e+00
  +3.20911968923e+00
  +3.26716761921e+00
  +3.32333309063e+00
  +3.37767710319e+00
  +3.43025865020e+00
  +3.47785273029e+00
  +2.85123358410e+00
  +8.22670743941e-01
  +3.08902538431e-01
  +1.86274668501e-01
