<Qucs Dataset 0.0.17>
<indep Tstep 1>
  +2.50000000000e-08
</indep>
<indep Tmax 1>
  +5.00000000000e-04
</indep>
<indep Toff 1>
  +1.25000000000e-05
</indep>
<indep Ton 1>
  +1.25000000000e-05
</indep>
<indep Bduty 1>
  +5.00000000000e+01
</indep>
<indep Bperiod 1>
  +2.50000000000e-05
</indep>
<indep Bfreq 1>
  +4.00000000000e+04
</indep>
<indep time 201>
  +0.00000000000e+00
  +2.50000000000e-06
  +5.00000000000e-06
  +7.50000000000e-06
  +1.00000000000e-05
  +1.25000000000e-05
  +1.50000000000e-05
  +1.75000000000e-05
  +2.00000000000e-05
  +2.25000000000e-05
  +2.50000000000e-05
  +2.75000000000e-05
  +3.00000000000e-05
  +3.25000000000e-05
  +3.50000000000e-05
  +3.75000000000e-05
  +4.00000000000e-05
  +4.25000000000e-05
  +4.50000000000e-05
  +4.75000000000e-05
  +5.00000000000e-05
  +5.25000000000e-05
  +5.50000000000e-05
  +5.75000000000e-05
  +6.00000000000e-05
  +6.25000000000e-05
  +6.50000000000e-05
  +6.75000000000e-05
  +7.00000000000e-05
  +7.25000000000e-05
  +7.50000000000e-05
  +7.75000000000e-05
  +8.00000000000e-05
  +8.25000000000e-05
  +8.50000000000e-05
  +8.75000000000e-05
  +9.00000000000e-05
  +9.25000000000e-05
  +9.50000000000e-05
  +9.75000000000e-05
  +1.00000000000e-04
  +1.02500000000e-04
  +1.05000000000e-04
  +1.07500000000e-04
  +1.10000000000e-04
  +1.12500000000e-04
  +1.15000000000e-04
  +1.17500000000e-04
  +1.20000000000e-04
  +1.22500000000e-04
  +1.25000000000e-04
  +1.27500000000e-04
  +1.30000000000e-04
  +1.32500000000e-04
  +1.35000000000e-04
  +1.37500000000e-04
  +1.40000000000e-04
  +1.42500000000e-04
  +1.45000000000e-04
  +1.47500000000e-04
  +1.50000000000e-04
  +1.52500000000e-04
  +1.55000000000e-04
  +1.57500000000e-04
  +1.60000000000e-04
  +1.62500000000e-04
  +1.65000000000e-04
  +1.67500000000e-04
  +1.70000000000e-04
  +1.72500000000e-04
  +1.75000000000e-04
  +1.77500000000e-04
  +1.80000000000e-04
  +1.82500000000e-04
  +1.85000000000e-04
  +1.87500000000e-04
  +1.90000000000e-04
  +1.92500000000e-04
  +1.95000000000e-04
  +1.97500000000e-04
  +2.00000000000e-04
  +2.02500000000e-04
  +2.05000000000e-04
  +2.07500000000e-04
  +2.10000000000e-04
  +2.12500000000e-04
  +2.15000000000e-04
  +2.17500000000e-04
  +2.20000000000e-04
  +2.22500000000e-04
  +2.25000000000e-04
  +2.27500000000e-04
  +2.30000000000e-04
  +2.32500000000e-04
  +2.35000000000e-04
  +2.37500000000e-04
  +2.40000000000e-04
  +2.42500000000e-04
  +2.45000000000e-04
  +2.47500000000e-04
  +2.50000000000e-04
  +2.52500000000e-04
  +2.55000000000e-04
  +2.57500000000e-04
  +2.60000000000e-04
  +2.62500000000e-04
  +2.65000000000e-04
  +2.67500000000e-04
  +2.70000000000e-04
  +2.72500000000e-04
  +2.75000000000e-04
  +2.77500000000e-04
  +2.80000000000e-04
  +2.82500000000e-04
  +2.85000000000e-04
  +2.87500000000e-04
  +2.90000000000e-04
  +2.92500000000e-04
  +2.95000000000e-04
  +2.97500000000e-04
  +3.00000000000e-04
  +3.02500000000e-04
  +3.05000000000e-04
  +3.07500000000e-04
  +3.10000000000e-04
  +3.12500000000e-04
  +3.15000000000e-04
  +3.17500000000e-04
  +3.20000000000e-04
  +3.22500000000e-04
  +3.25000000000e-04
  +3.27500000000e-04
  +3.30000000000e-04
  +3.32500000000e-04
  +3.35000000000e-04
  +3.37500000000e-04
  +3.40000000000e-04
  +3.42500000000e-04
  +3.45000000000e-04
  +3.47500000000e-04
  +3.50000000000e-04
  +3.52500000000e-04
  +3.55000000000e-04
  +3.57500000000e-04
  +3.60000000000e-04
  +3.62500000000e-04
  +3.65000000000e-04
  +3.67500000000e-04
  +3.70000000000e-04
  +3.72500000000e-04
  +3.75000000000e-04
  +3.77500000000e-04
  +3.80000000000e-04
  +3.82500000000e-04
  +3.85000000000e-04
  +3.87500000000e-04
  +3.90000000000e-04
  +3.92500000000e-04
  +3.95000000000e-04
  +3.97500000000e-04
  +4.00000000000e-04
  +4.02500000000e-04
  +4.05000000000e-04
  +4.07500000000e-04
  +4.10000000000e-04
  +4.12500000000e-04
  +4.15000000000e-04
  +4.17500000000e-04
  +4.20000000000e-04
  +4.22500000000e-04
  +4.25000000000e-04
  +4.27500000000e-04
  +4.30000000000e-04
  +4.32500000000e-04
  +4.35000000000e-04
  +4.37500000000e-04
  +4.40000000000e-04
  +4.42500000000e-04
  +4.45000000000e-04
  +4.47500000000e-04
  +4.50000000000e-04
  +4.52500000000e-04
  +4.55000000000e-04
  +4.57500000000e-04
  +4.60000000000e-04
  +4.62500000000e-04
  +4.65000000000e-04
  +4.67500000000e-04
  +4.70000000000e-04
  +4.72500000000e-04
  +4.75000000000e-04
  +4.77500000000e-04
  +4.80000000000e-04
  +4.82500000000e-04
  +4.85000000000e-04
  +4.87500000000e-04
  +4.90000000000e-04
  +4.92500000000e-04
  +4.95000000000e-04
  +4.97500000000e-04
  +5.00000000000e-04
</indep>
<dep V2.It time>
  +0.00000000000e+00
  +0.00000000000e+00
  +0.00000000000e+00
  +0.00000000000e+00
  +0.00000000000e+00
  +0.00000000000e+00
  +0.00000000000e+00
  +0.00000000000e+00
  +0.00000000000e+00
  +0.00000000000e+00
  +0.00000000000e+00
  +0.00000000000e+00
  +0.00000000000e+00
  +0.00000000000e+00
  +0.00000000000e+00
  +0.00000000000e+00
  +0.00000000000e+00
  +0.00000000000e+00
  +0.00000000000e+00
  +0.00000000000e+00
  +0.00000000000e+00
  +0.00000000000e+00
  +0.00000000000e+00
  +0.00000000000e+00
  +0.00000000000e+00
  +0.00000000000e+00
  +0.00000000000e+00
  +0.00000000000e+00
  +0.00000000000e+00
  +0.00000000000e+00
  +0.00000000000e+00
  +0.00000000000e+00
  +0.00000000000e+00
  +0.00000000000e+00
  +0.00000000000e+00
  +0.00000000000e+00
  +0.00000000000e+00
  +0.00000000000e+00
  +0.00000000000e+00
  +0.00000000000e+00
  +0.00000000000e+00
  +0.00000000000e+00
  +0.00000000000e+00
  +0.00000000000e+00
  +0.00000000000e+00
  +0.00000000000e+00
  +0.00000000000e+00
  +0.00000000000e+00
  +0.00000000000e+00
  +0.00000000000e+00
  +0.00000000000e+00
  +0.00000000000e+00
  +0.00000000000e+00
  +0.00000000000e+00
  +0.00000000000e+00
  +0.00000000000e+00
  +0.00000000000e+00
  +0.00000000000e+00
  +0.00000000000e+00
  +0.00000000000e+00
  +0.00000000000e+00
  +0.00000000000e+00
  +0.00000000000e+00
  +0.00000000000e+00
  +0.00000000000e+00
  +0.00000000000e+00
  +0.00000000000e+00
  +0.00000000000e+00
  +0.00000000000e+00
  +0.00000000000e+00
  +0.00000000000e+00
  +0.00000000000e+00
  +0.00000000000e+00
  +0.00000000000e+00
  +0.00000000000e+00
  +0.00000000000e+00
  +0.00000000000e+00
  +0.00000000000e+00
  +0.00000000000e+00
  +0.00000000000e+00
  +0.00000000000e+00
  +0.00000000000e+00
  +0.00000000000e+00
  +0.00000000000e+00
  +0.00000000000e+00
  +0.00000000000e+00
  +0.00000000000e+00
  +0.00000000000e+00
  +0.00000000000e+00
  +0.00000000000e+00
  +0.00000000000e+00
  +0.00000000000e+00
  +0.00000000000e+00
  +0.00000000000e+00
  +0.00000000000e+00
  +0.00000000000e+00
  +0.00000000000e+00
  +0.00000000000e+00
  +0.00000000000e+00
  +0.00000000000e+00
  +0.00000000000e+00
  +0.00000000000e+00
  +0.00000000000e+00
  +0.00000000000e+00
  +0.00000000000e+00
  +0.00000000000e+00
  +0.00000000000e+00
  +0.00000000000e+00
  +0.00000000000e+00
  +0.00000000000e+00
  +0.00000000000e+00
  +0.00000000000e+00
  +0.00000000000e+00
  +0.00000000000e+00
  +0.00000000000e+00
  +0.00000000000e+00
  +0.00000000000e+00
  +0.00000000000e+00
  +0.00000000000e+00
  +0.00000000000e+00
  +0.00000000000e+00
  +0.00000000000e+00
  +0.00000000000e+00
  +0.00000000000e+00
  +0.00000000000e+00
  +0.00000000000e+00
  +0.00000000000e+00
  +0.00000000000e+00
  +0.00000000000e+00
  +0.00000000000e+00
  +0.00000000000e+00
  +0.00000000000e+00
  +0.00000000000e+00
  +0.00000000000e+00
  +0.00000000000e+00
  +0.00000000000e+00
  +0.00000000000e+00
  +0.00000000000e+00
  +0.00000000000e+00
  +0.00000000000e+00
  +0.00000000000e+00
  +0.00000000000e+00
  +0.00000000000e+00
  +0.00000000000e+00
  +0.00000000000e+00
  +0.00000000000e+00
  +0.00000000000e+00
  +0.00000000000e+00
  +0.00000000000e+00
  +0.00000000000e+00
  +0.00000000000e+00
  +0.00000000000e+00
  +0.00000000000e+00
  +0.00000000000e+00
  +0.00000000000e+00
  +0.00000000000e+00
  +0.00000000000e+00
  +0.00000000000e+00
  +0.00000000000e+00
  +0.00000000000e+00
  +0.00000000000e+00
  +0.00000000000e+00
  +0.00000000000e+00
  +0.00000000000e+00
  +0.00000000000e+00
  +0.00000000000e+00
  +0.00000000000e+00
  +0.00000000000e+00
  +0.00000000000e+00
  +0.00000000000e+00
  +0.00000000000e+00
  +0.00000000000e+00
  +0.00000000000e+00
  +0.00000000000e+00
  +0.00000000000e+00
  +0.00000000000e+00
  +0.00000000000e+00
  +0.00000000000e+00
  +0.00000000000e+00
  +0.00000000000e+00
  +0.00000000000e+00
  +0.00000000000e+00
  +0.00000000000e+00
  +0.00000000000e+00
  +0.00000000000e+00
  +0.00000000000e+00
  +0.00000000000e+00
  +0.00000000000e+00
  +0.00000000000e+00
  +0.00000000000e+00
  +0.00000000000e+00
  +0.00000000000e+00
  +0.00000000000e+00
  +0.00000000000e+00
  +0.00000000000e+00
  +0.00000000000e+00
  +0.00000000000e+00
  +0.00000000000e+00
  +0.00000000000e+00
  +0.00000000000e+00
  +0.00000000000e+00
</dep>
<dep V1.It time>
  -1.19999997755e-11
  -6.22690871983e-01
  -1.21111106569e+00
  -1.76749020956e+00
  -2.29277722173e+00
  -1.27407993284e-11
  -1.27403231519e-11
  -1.27398038843e-11
  -1.27392399728e-11
  -1.27386296470e-11
  -2.49933795051e+00
  -2.96374528752e+00
  -3.40040553505e+00
  -3.81021043442e+00
  -4.19404294187e+00
  -1.27534904625e-11
  -1.27529589828e-11
  -1.27523830361e-11
  -1.27517608193e-11
  -1.27510902827e-11
  -4.03534996912e+00
  -4.37073764816e+00
  -4.68349098011e+00
  -4.97440473453e+00
  -5.24426260336e+00
  -1.27583510894e-11
  -1.27576349196e-11
  -1.27568659659e-11
  -1.27560412606e-11
  -1.27551574141e-11
  -4.68127588218e+00
  -4.92398635049e+00
  -5.14844404896e+00
  -5.35533291135e+00
  -5.54532543976e+00
  -1.27593904917e-11
  -1.27584139694e-11
  -1.27573678694e-11
  -1.27562466860e-11
  -1.27550440054e-11
  -4.59908912395e+00
  -4.78707568087e+00
  -4.96011526231e+00
  -5.11878462098e+00
  -5.26365017909e+00
  -1.27578827565e-11
  -1.27565581912e-11
  -1.27551323439e-11
  -1.27535939379e-11
  -1.27519293442e-11
  -3.99697905356e+00
  -4.16466251251e+00
  -4.31951148394e+00
  -4.46201149543e+00
  -4.59263976818e+00
  -1.27543790407e-11
  -1.27525809652e-11
  -1.27506208272e-11
  -1.27484729544e-11
  -1.27461044065e-11
  -3.09119231630e+00
  -3.26614218769e+00
  -3.42923950013e+00
  -3.58090148715e+00
  -3.72153952050e+00
  -1.27491629650e-11
  -1.27466978923e-11
  -1.27439484813e-11
  -1.27408487519e-11
  -1.27373053679e-11
  -2.07712524468e+00
  -2.27848546196e+00
  -2.46803098940e+00
  -2.64613592513e+00
  -2.81317095209e+00
  -1.27424325232e-11
  -1.27389919248e-11
  -1.27350035072e-11
  -1.27302706407e-11
  -1.27244636462e-11
  -1.11085580066e+00
  -1.34923543154e+00
  -1.57514797311e+00
  -1.78894803534e+00
  -1.99098895615e+00
  -1.27344510198e-11
  -1.27295442123e-11
  -1.27234750738e-11
  -1.27155334050e-11
  -1.27040427139e-11
  -3.00813155276e-01
  -5.79243883887e-01
  -8.44136890141e-01
  -1.09584688809e+00
  -1.33472897317e+00
  -1.27257835822e-11
  -1.27186986601e-11
  -1.27089241983e-11
  -1.26930920462e-11
  -1.26458246678e-11
  -1.35136346244e-03
  -3.01340218212e-01
  -5.87003376566e-01
  -8.58707903661e-01
  -1.11682175001e+00
  -1.27222421281e-11
  -1.27141366044e-11
  -1.27022979534e-11
  -1.26799824192e-11
  -3.81051610523e-12
  -1.03143496279e-03
  -3.09071311113e-01
  -6.02318388171e-01
  -8.81154381882e-01
  -1.14596176645e+00
  -1.27229074231e-11
  -1.27152393558e-11
  -1.27043159703e-11
  -1.26851419439e-11
  -8.15159387794e-12
  -2.14333575833e-03
  -3.17406562871e-01
  -6.17455710602e-01
  -9.02685766790e-01
  -1.17349235987e+00
  -1.27235150752e-11
  -1.27162248971e-11
  -1.27060551587e-11
  -1.26891389735e-11
  -1.26248122867e-11
  -9.60757115299e-04
  -3.22859809651e-01
  -6.29161182467e-01
  -9.20271857684e-01
  -1.19659935596e+00
  -1.27240224329e-11
  -1.27170455884e-11
  -1.27074765829e-11
  -1.26921874521e-11
  -1.26504141509e-11
  -2.15815305340e-03
  -3.29937533961e-01
  -6.41775821960e-01
  -9.38090830372e-01
  -1.21930081426e+00
  -1.27245024658e-11
  -1.27178040032e-11
  -1.27087514105e-11
  -1.26947562466e-11
  -1.26623821001e-11
  -2.79985921753e-03
  -3.35892667984e-01
  -6.52734921422e-01
  -9.53754170852e-01
  -1.23937832341e+00
  -1.27249212688e-11
  -1.27184606385e-11
  -1.27098369798e-11
  -1.26968513803e-11
  -1.26697810225e-11
  -2.15147512607e-03
  -3.40072423006e-01
  -6.61463286488e-01
  -9.66760368553e-01
  -1.25640025296e+00
  -1.27252754578e-11
  -1.27190159573e-11
  -1.27107465828e-11
  -1.26985542961e-11
  -1.26748906925e-11
  -1.05928440738e-03
  -3.43352574560e-01
  -6.68863612464e-01
  -9.78036570070e-01
  -1.27131583394e+00
  -1.27255837843e-11
  -1.27194976891e-11
  -1.27115277702e-11
  -1.26999795470e-11
  -1.26787220104e-11
  -2.22538590133e-03
  -3.48334190503e-01
  -6.77437357784e-01
  -9.89986120026e-01
  -1.28643186029e+00
  -1.27258844091e-11
  -1.27199562947e-11
  -1.27122545003e-11
  -1.27012636090e-11
  -1.26818796424e-11
  -2.79706526407e-03
  -3.52331550924e-01
  -6.84660518218e-01
  -1.00024149887e+00
  -1.29953211934e+00
  -1.27261437000e-11
  -1.27203512332e-11
  -1.27128761834e-11
  -1.27023430876e-11
  -1.26843756766e-11
  -5.01849149778e-03
</dep>
<dep out.Vt time>
  +2.98531176102e-16
  +7.85618116111e-03
  +3.07559927221e-02
  +6.78135577484e-02
  +1.18171088943e-01
  +1.80998344576e-01
  +2.48926635248e-01
  +3.15204074108e-01
  +3.79751678546e-01
  +4.42493213433e-01
  +5.03355621252e-01
  +5.69026639619e-01
  +6.45603205960e-01
  +7.32350128212e-01
  +8.28558011241e-01
  +9.33542625457e-01
  +1.04122379538e+00
  +1.14598824563e+00
  +1.24771233621e+00
  +1.34627713765e+00
  +1.44156885773e+00
  +1.53924419071e+00
  +1.64451201016e+00
  +1.75677994246e+00
  +1.87547825115e+00
  +2.00005919883e+00
  +2.12518001918e+00
  +2.24585326426e+00
  +2.36194208520e+00
  +2.47331647006e+00
  +2.57985365507e+00
  +2.68679385280e+00
  +2.79902408905e+00
  +2.91607135756e+00
  +3.03748192506e+00
  +3.16282071102e+00
  +3.28698847113e+00
  +3.40517144684e+00
  +3.51724412691e+00
  +3.62308982998e+00
  +3.72260109492e+00
  +3.82110237723e+00
  +3.92361258153e+00
  +4.02974619002e+00
  +4.13913386225e+00
  +4.25142184830e+00
  +4.36136443436e+00
  +4.46397068171e+00
  +4.55914298409e+00
  +4.64679423139e+00
  +4.72684818200e+00
  +4.80506771871e+00
  +4.88691757620e+00
  +4.97206566276e+00
  +5.06019354780e+00
  +5.15099591584e+00
  +5.23881505264e+00
  +5.31824969252e+00
  +5.38923890018e+00
  +5.45173349540e+00
  +5.50569642454e+00
  +5.55753184580e+00
  +5.61332278424e+00
  +5.67275915577e+00
  +5.73554275522e+00
  +5.80138675116e+00
  +5.86407980202e+00
  +5.91769218759e+00
  +5.96220174465e+00
  +5.99759896144e+00
  +6.02388740716e+00
  +6.04817938284e+00
  +6.07722342475e+00
  +6.11070587692e+00
  +6.14832393507e+00
  +6.18978517760e+00
  +6.22829110106e+00
  +6.25736418189e+00
  +6.27701821801e+00
  +6.28728043302e+00
  +6.28819221259e+00
  +6.28753281566e+00
  +6.29266500729e+00
  +6.30325342985e+00
  +6.31897322658e+00
  +6.33950960069e+00
  +6.35752647807e+00
  +6.36605389299e+00
  +6.36513599050e+00
  +6.35483180534e+00
  +6.33521804400e+00
  +6.31462560392e+00
  +6.30090958821e+00
  +6.29370252735e+00
  +6.29264763626e+00
  +6.29739839219e+00
  +6.30018535856e+00
  +6.29364942243e+00
  +6.27785905304e+00
  +6.25290413980e+00
  +6.22188773061e+00
  +6.19466378367e+00
  +6.17487708550e+00
  +6.16213787229e+00
  +6.15606749027e+00
  +6.15629797695e+00
  +6.15491178435e+00
  +6.14442234036e+00
  +6.12490529495e+00
  +6.09677989349e+00
  +6.06637220573e+00
  +6.04001720247e+00
  +6.02129002766e+00
  +6.00978850162e+00
  +6.00512198047e+00
  +6.00691093293e+00
  +6.00725117655e+00
  +5.99867389218e+00
  +5.98124990514e+00
  +5.95510605516e+00
  +5.92540510747e+00
  +5.89987225134e+00
  +5.88213797131e+00
  +5.87178889623e+00
  +5.86842357609e+00
  +5.87165205488e+00
  +5.87358302828e+00
  +5.86676448030e+00
  +5.85126296508e+00
  +5.82716713180e+00
  +5.79813998270e+00
  +5.77329631089e+00
  +5.75640844740e+00
  +5.74705282068e+00
  +5.74481812904e+00
  +5.74930491006e+00
  +5.75263234399e+00
  +5.74736259220e+00
  +5.73355852957e+00
  +5.71130287031e+00
  +5.68308089275e+00
  +5.65891542550e+00
  +5.64284471718e+00
  +5.63443607466e+00
  +5.63326938912e+00
  +5.63893670216e+00
  +5.64356787934e+00
  +5.63973899150e+00
  +5.62750958230e+00
  +5.60695745868e+00
  +5.57966682104e+00
  +5.55609784053e+00
  +5.54074926604e+00
  +5.53318018223e+00
  +5.53296254083e+00
  +5.53968072395e+00
  +5.54547392414e+00
  +5.54293047938e+00
  +5.53210700746e+00
  +5.51307725216e+00
  +5.48679098610e+00
  +5.46373170638e+00
  +5.44900718614e+00
  +5.44216907826e+00
  +5.44278215712e+00
  +5.45042387924e+00
  +5.45724125225e+00
  +5.45583314216e+00
  +5.44625360772e+00
  +5.42857297856e+00
  +5.40332006602e+00
  +5.38070353844e+00
  +5.36652543463e+00
  +5.36033070032e+00
  +5.36167763159e+00
  +5.37013743327e+00
  +5.37786380750e+00
  +5.37746479422e+00
  +5.36899219634e+00
  +5.35251341815e+00
  +5.32829749362e+00
  +5.30613182105e+00
  +5.29249467102e+00
  +5.28692505741e+00
  +5.28897554937e+00
  +5.29821182752e+00
  +5.30679476536e+00
  +5.30734168443e+00
  +5.29990231393e+00
  +5.28454142558e+00
  +5.26138576090e+00
  +5.23961170547e+00
  +5.22644714014e+00
  +5.22142576914e+00
  +5.22409503484e+00
  +5.23401567211e+00
  +5.24335472437e+00
  +5.24473759450e+00
  +5.23821218968e+00
  +5.22384100840e+00
  +5.20170959774e+00
</dep>
<dep dio.Vt time>
  +2.24496567204e-07
  +1.13773091280e+01
  +1.07888889343e+01
  +1.02325097904e+01
  +9.70722277827e+00
  -7.40799328429e-01
  -7.40323151881e-01
  -7.39803884325e-01
  -7.39239972819e-01
  -7.38629647023e-01
  +9.50066204949e+00
  +9.03625471248e+00
  +8.59959446495e+00
  +8.18978956558e+00
  +7.80595705813e+00
  -7.53490462536e-01
  -7.52958982811e-01
  -7.52383036114e-01
  -7.51760819339e-01
  -7.51090282748e-01
  +7.96465003088e+00
  +7.62926235184e+00
  +7.31650901989e+00
  +7.02559526547e+00
  +6.75573739664e+00
  -7.58351089420e-01
  -7.57634919602e-01
  -7.56865965864e-01
  -7.56041260567e-01
  -7.55157414121e-01
  +7.31872411782e+00
  +7.07601364951e+00
  +6.85155595104e+00
  +6.64466708865e+00
  +6.45467456024e+00
  -7.59390491699e-01
  -7.58413969402e-01
  -7.57367869380e-01
  -7.56246686003e-01
  -7.55044005402e-01
  +7.40091087605e+00
  +7.21292431913e+00
  +7.03988473769e+00
  +6.88121537902e+00
  +6.73634982091e+00
  -7.57882756512e-01
  -7.56558191218e-01
  -7.55132343937e-01
  -7.53593937857e-01
  -7.51929344159e-01
  +8.00302094644e+00
  +7.83533748749e+00
  +7.68048851606e+00
  +7.53798850457e+00
  +7.40736023182e+00
  -7.54379040743e-01
  -7.52580965211e-01
  -7.50620827202e-01
  -7.48472954377e-01
  -7.46104406546e-01
  +8.90880768370e+00
  +8.73385781231e+00
  +8.57076049987e+00
  +8.41909851285e+00
  +8.27846047950e+00
  -7.49162965016e-01
  -7.46697892341e-01
  -7.43948481288e-01
  -7.40848751897e-01
  -7.37305367879e-01
  +9.92287475532e+00
  +9.72151453804e+00
  +9.53196901060e+00
  +9.35386407487e+00
  +9.18682904791e+00
  -7.42432523200e-01
  -7.38991924842e-01
  -7.35003507183e-01
  -7.30270640744e-01
  -7.24463646247e-01
  +1.08891441993e+01
  +1.06507645685e+01
  +1.04248520269e+01
  +1.02110519647e+01
  +1.00090110439e+01
  -7.34451019754e-01
  -7.29544212350e-01
  -7.23475073788e-01
  -7.15533404978e-01
  -7.04042713935e-01
  +1.16991868447e+01
  +1.14207561161e+01
  +1.11558631099e+01
  +1.09041531119e+01
  +1.06652710268e+01
  -7.25783582167e-01
  -7.18698660109e-01
  -7.08924198349e-01
  -6.93092046228e-01
  -6.45824667806e-01
  +1.19986486365e+01
  +1.16986597818e+01
  +1.14129966234e+01
  +1.11412920963e+01
  +1.08831782500e+01
  -7.22242128072e-01
  -7.14136604442e-01
  -7.02297953389e-01
  -6.79982419190e-01
  +8.18948389477e+00
  +1.19989685650e+01
  +1.16909286889e+01
  +1.13976816118e+01
  +1.11188456181e+01
  +1.08540382335e+01
  -7.22907423111e-01
  -7.15239355779e-01
  -7.04315970257e-01
  -6.85141943937e-01
  +3.84840612206e+00
  +1.19978566642e+01
  +1.16825934371e+01
  +1.13825442894e+01
  +1.10973142332e+01
  +1.08265076401e+01
  -7.23515075172e-01
