<Qucs Dataset 0.0.17>
<indep frequency 110>
  +1.00000000000e+08
  +1.09174311927e+08
  +1.18348623853e+08
  +1.27522935780e+08
  +1.36697247706e+08
  +1.45871559633e+08
  +1.55045871560e+08
  +1.64220183486e+08
  +1.73394495413e+08
  +1.82568807339e+08
  +1.91743119266e+08
  +2.00917431193e+08
  +2.10091743119e+08
  +2.19266055046e+08
  +2.28440366972e+08
  +2.37614678899e+08
  +2.46788990826e+08
  +2.55963302752e+08
  +2.65137614679e+08
  +2.74311926606e+08
  +2.83486238532e+08
  +2.92660550459e+08
  +3.01834862385e+08
  +3.11009174312e+08
  +3.20183486239e+08
  +3.29357798165e+08
  +3.38532110092e+08
  +3.47706422018e+08
  +3.56880733945e+08
  +3.66055045872e+08
  +3.75229357798e+08
  +3.84403669725e+08
  +3.93577981651e+08
  +4.02752293578e+08
  +4.11926605505e+08
  +4.21100917431e+08
  +4.30275229358e+08
  +4.39449541284e+08
  +4.48623853211e+08
  +4.57798165138e+08
  +4.66972477064e+08
  +4.76146788991e+08
  +4.85321100917e+08
  +4.94495412844e+08
  +5.03669724771e+08
  +5.12844036697e+08
  +5.22018348624e+08
  +5.31192660550e+08
  +5.40366972477e+08
  +5.49541284404e+08
  +5.58715596330e+08
  +5.67889908257e+08
  +5.77064220183e+08
  +5.86238532110e+08
  +5.95412844037e+08
  +6.04587155963e+08
  +6.13761467890e+08
  +6.22935779817e+08
  +6.32110091743e+08
  +6.41284403670e+08
  +6.50458715596e+08
  +6.59633027523e+08
  +6.68807339450e+08
  +6.77981651376e+08
  +6.87155963303e+08
  +6.96330275229e+08
  +7.05504587156e+08
  +7.14678899083e+08
  +7.23853211009e+08
  +7.33027522936e+08
  +7.42201834862e+08
  +7.51376146789e+08
  +7.60550458716e+08
  +7.69724770642e+08
  +7.78899082569e+08
  +7.88073394495e+08
  +7.97247706422e+08
  +8.06422018349e+08
  +8.15596330275e+08
  +8.24770642202e+08
  +8.33944954128e+08
  +8.43119266055e+08
  +8.52293577982e+08
  +8.61467889908e+08
  +8.70642201835e+08
  +8.79816513761e+08
  +8.88990825688e+08
  +8.98165137615e+08
  +9.07339449541e+08
  +9.16513761468e+08
  +9.25688073394e+08
  +9.34862385321e+08
  +9.44036697248e+08
  +9.53211009174e+08
  +9.62385321101e+08
  +9.71559633028e+08
  +9.80733944954e+08
  +9.89908256881e+08
  +9.99082568807e+08
  +1.00825688073e+09
  +1.01743119266e+09
  +1.02660550459e+09
  +1.03577981651e+09
  +1.04495412844e+09
  +1.05412844037e+09
  +1.06330275229e+09
  +1.07247706422e+09
  +1.08165137615e+09
  +1.09082568807e+09
  +1.10000000000e+09
</indep>
<dep S[2,2] frequency>
  +3.97690014000e-01-j3.82304244684e-01
  +3.69439339178e-01-j3.67806984444e-01
  +3.45580372061e-01-j3.53385953757e-01
  +3.25337961939e-01-j3.39401076314e-01
  +3.08073244291e-01-j3.26053855111e-01
  +2.93265261493e-01-j3.13444997410e-01
  +2.80491159955e-01-j3.01612150069e-01
  +2.69408020049e-01-j2.90554370070e-01
  +2.59737339405e-01-j2.80247878440e-01
  +2.51252265781e-01-j2.70656131052e-01
  +2.43767302623e-01-j2.61736199217e-01
  +2.37130097776e-01-j2.53442759731e-01
  +2.31214927789e-01-j2.45730539401e-01
  +2.25917536408e-01-j2.38555763202e-01
  +2.21151043387e-01-j2.31876963161e-01
  +2.16842694986e-01-j2.25655380375e-01
  +2.12931275085e-01-j2.19855111479e-01
  +2.09365035040e-01-j2.14443098059e-01
  +2.06100031547e-01-j2.09389022895e-01
  +2.03098786333e-01-j2.04665154342e-01
  +2.00329200531e-01-j2.00246165248e-01
  +1.97763671400e-01-j1.96108943105e-01
  +1.95378370425e-01-j1.92232401680e-01
  +1.93152650702e-01-j1.88597300242e-01
  +1.91068558329e-01-j1.85186073726e-01
  +1.89110427819e-01-j1.81982675488e-01
  +1.87264545696e-01-j1.78972433139e-01
  +1.85518869654e-01-j1.76141917310e-01
  +1.83862793174e-01-j1.73478822754e-01
  +1.82286947497e-01-j1.70971861019e-01
  +1.80783034400e-01-j1.68610663771e-01
  +1.79343684498e-01-j1.66385695845e-01
  +1.77962336743e-01-j1.64288177128e-01
  +1.76633135622e-01-j1.62310012388e-01
  +1.75350843165e-01-j1.60443728259e-01
  +1.74110763399e-01-j1.58682416624e-01
  +1.72908677292e-01-j1.57019683742e-01
  +1.71740786572e-01-j1.55449604486e-01
  +1.70603665064e-01-j1.53966681165e-01
  +1.69494216435e-01-j1.52565806426e-01
  +1.68409637409e-01-j1.51242229806e-01
  +1.67347385649e-01-j1.49991527542e-01
  +1.66305151662e-01-j1.48809575293e-01
  +1.65280834153e-01-j1.47692523469e-01
  +1.64272518362e-01-j1.46636774884e-01
  +1.63278456975e-01-j1.45638964502e-01
  +1.62297053275e-01-j1.44695941051e-01
  +1.61326846230e-01-j1.43804750317e-01
  +1.60366497278e-01-j1.42962619945e-01
  +1.59414778580e-01-j1.42166945599e-01
  +1.58470562581e-01-j1.41415278339e-01
  +1.57532812684e-01-j1.40705313101e-01
  +1.56600574935e-01-j1.40034878169e-01
  +1.55672970578e-01-j1.39401925539e-01
  +1.54749189380e-01-j1.38804522103e-01
  +1.53828483647e-01-j1.38240841555e-01
  +1.52910162832e-01-j1.37709156972e-01
  +1.51993588692e-01-j1.37207833991e-01
  +1.51078170912e-01-j1.36735324535e-01
  +1.50163363155e-01-j1.36290161041e-01
  +1.49248659490e-01-j1.35870951136e-01
  +1.48333591158e-01-j1.35476372727e-01
  +1.47417723635e-01-j1.35105169471e-01
  +1.46500653970e-01-j1.34756146582e-01
  +1.45582008363e-01-j1.34428166962e-01
  +1.44661439954e-01-j1.34120147604e-01
  +1.43738626820e-01-j1.33831056278e-01
  +1.42813270133e-01-j1.33559908440e-01
  +1.41885092489e-01-j1.33305764373e-01
  +1.40953836371e-01-j1.33067726526e-01
  +1.40019262751e-01-j1.32844937044e-01
  +1.39081149794e-01-j1.32636575465e-01
  +1.38139291684e-01-j1.32441856582e-01
  +1.37193497538e-01-j1.32260028438e-01
  +1.36243590408e-01-j1.32090370473e-01
  +1.35289406360e-01-j1.31932191781e-01
  +1.34330793635e-01-j1.31784829487e-01
  +1.33367611862e-01-j1.31647647232e-01
  +1.32399731344e-01-j1.31520033749e-01
  +1.31427032387e-01-j1.31401401540e-01
  +1.30449404692e-01-j1.31291185631e-01
  +1.29466746779e-01-j1.31188842402e-01
  +1.28478965468e-01-j1.31093848499e-01
  +1.27485975380e-01-j1.31005699805e-01
  +1.26487698495e-01-j1.30923910478e-01
  +1.25484063723e-01-j1.30848012044e-01
  +1.24475006515e-01-j1.30777552548e-01
  +1.23460468501e-01-j1.30712095755e-01
  +1.22440397152e-01-j1.30651220393e-01
  +1.21414745460e-01-j1.30594519449e-01
  +1.20383471651e-01-j1.30541599495e-01
  +1.19346538905e-01-j1.30492080063e-01
  +1.18303915104e-01-j1.30445593050e-01
  +1.17255572592e-01-j1.30401782154e-01
  +1.16201487951e-01-j1.30360302349e-01
  +1.15141641793e-01-j1.30320819385e-01
  +1.14076018564e-01-j1.30283009313e-01
  +1.13004606362e-01-j1.30246558040e-01
  +1.11927396765e-01-j1.30211160906e-01
  +1.10844384669e-01-j1.30176522286e-01
  +1.09755568138e-01-j1.30142355208e-01
  +1.08660948262e-01-j1.30108381000e-01
  +1.07560529025e-01-j1.30074328945e-01
  +1.06454317176e-01-j1.30039935962e-01
  +1.05342322116e-01-j1.30004946300e-01
  +1.04224555785e-01-j1.29969111249e-01
  +1.03101032556e-01-j1.29932188865e-01
  +1.01971769139e-01-j1.29893943708e-01
  +1.00836784486e-01-j1.29854146595e-01
  +9.96960997036e-02-j1.29812574365e-01
</dep>
<dep S[2,1] frequency>
  -1.28002608614e+01+j2.27199194668e+01
  -1.10843876674e+01+j2.17810627047e+01
  -9.63700623604e+00+j2.08469100627e+01
  -8.41083783820e+00+j1.99394187687e+01
  -7.36691614790e+00+j1.90708835779e+01
  -6.47346624395e+00+j1.82474514621e+01
  -5.70469678391e+00+j1.74714231805e+01
  -5.03969176642e+00+j1.67427457984e+01
  -4.46146412890e+00+j1.60599735574e+01
  -3.95617704869e+00+j1.54208821183e+01
  -3.51251605958e+00+j1.48228577295e+01
  -3.12118822474e+00+j1.42631405895e+01
  -2.77452472869e+00+j1.37389739442e+01
  -2.46616606362e+00+j1.32476924141e+01
  -2.19081249825e+00+j1.27867713295e+01
  -1.94402588195e+00+j1.23538512505e+01
  -1.72207174277e+00+j1.19467469005e+01
  -1.52179302375e+00+j1.15634465203e+01
  -1.34050870533e+00+j1.12021055394e+01
  -1.17593205638e+00+j1.08610370844e+01
  -1.02610441952e+00+j1.05387009343e+01
  -8.89341337227e-01+j1.02336919408e+01
  -7.64188521701e-01+j9.94472853929e+00
  -6.49385709743e-01+j9.67064172258e+00
  -5.43836861027e-01+j9.41036468255e+00
  -4.46585481453e-01+j9.16292321875e+00
  -3.56794105082e-01+j8.92742694556e+00
  -2.73727164783e-01+j8.70306128733e+00
  -1.96736635705e-01+j8.48908022686e+00
  -1.25249956942e-01+j8.28479975868e+00
  -5.87598324243e-02+j8.08959199237e+00
  +3.18441201581e-03+j7.90287984952e+00
  +6.09841780755e-02+j7.72413229858e+00
  +1.14997865277e-01+j7.55286007515e+00
  +1.65546237778e-01+j7.38861183808e+00
  +2.12917032139e-01+j7.23097071649e+00
  +2.57368925261e-01+j7.07955120632e+00
  +2.99134961246e-01+j6.93399637937e+00
  +3.38425519236e-01+j6.79397537133e+00
  +3.75430890675e-01+j6.65918111908e+00
  +4.10323523247e-01+j6.52932832040e+00
  +4.43259979528e-01+j6.40415159248e+00
  +4.74382650822e-01+j6.28340380799e+00
  +5.03821260300e-01+j6.16685459003e+00
  +5.31694184393e-01+j6.05428894914e+00
  +5.58109616960e-01+j5.94550604771e+00
  +5.83166597161e-01+j5.84031807837e+00
  +6.06955918863e-01+j5.73854924493e+00
  +6.29560936866e-01+j5.64003483516e+00
  +6.51058283038e-01+j5.54462037643e+00
  +6.71518503643e-01+j5.45216086567e+00
  +6.91006627575e-01+j5.36252006652e+00
  +7.09582673877e-01+j5.27556986698e+00
  +7.27302105845e-01+j5.19118969170e+00
  +7.44216237991e-01+j5.10926596374e+00
  +7.60372601374e-01+j5.02969161106e+00
  +7.75815272080e-01+j4.95236561350e+00
  +7.90585167006e-01+j4.87719258664e+00
  +8.04720310621e-01+j4.80408239897e+00
  +8.18256075891e-01+j4.73294981943e+00
  +8.31225402187e-01+j4.66371419263e+00
  +8.43658992645e-01+j4.59629913923e+00
  +8.55585493147e-01+j4.53063227923e+00
  +8.67031654865e-01+j4.46664497630e+00
  +8.78022482055e-01+j4.40427210118e+00
  +8.88581366601e-01+j4.34345181270e+00
  +8.98730210666e-01+j4.28412535473e+00
  +9.08489538609e-01+j4.22623686794e+00
  +9.17878599243e-01+j4.16973321500e+00
  +9.26915459366e-01+j4.11456381814e+00
  +9.35617089405e-01+j4.06068050818e+00
  +9.43999441922e-01+j4.00803738396e+00
  +9.52077523651e-01+j3.95659068145e+00
  +9.59865461671e-01+j3.90629865173e+00
  +9.67376564249e-01+j3.85712144720e+00
  +9.74623376836e-01+j3.80902101531e+00
  +9.81617733660e-01+j3.76196099937e+00
  +9.88370805291e-01+j3.71590664567e+00
  +9.94893142554e-01+j3.67082471680e+00
  +1.00119471708e+00+j3.62668341030e+00
  +1.00728495882e+00+j3.58345228258e+00
  +1.01317279073e+00+j3.54110217755e+00
  +1.01886666092e+00+j3.49960515973e+00
  +1.02437457246e+00+j3.45893445136e+00
  +1.02970411098e+00+j3.41906437342e+00
  +1.03486247038e+00+j3.37997029021e+00
  +1.03985647660e+00+j3.34162855716e+00
  +1.04469260986e+00+j3.30401647179e+00
  +1.04937702522e+00+j3.26711222747e+00
  +1.05391557182e+00+j3.23089487000e+00
  +1.05831381079e+00+j3.19534425648e+00
  +1.06257703189e+00+j3.16044101672e+00
  +1.06671026911e+00+j3.12616651670e+00
  +1.07071831524e+00+j3.09250282411e+00
  +1.07460573538e+00+j3.05943267582e+00
  +1.07837687972e+00+j3.02693944712e+00
  +1.08203589539e+00+j2.99500712263e+00
  +1.08558673756e+00+j2.96362026878e+00
  +1.08903317993e+00+j2.93276400776e+00
  +1.09237882441e+00+j2.90242399289e+00
  +1.09562711036e+00+j2.87258638524e+00
  +1.09878132315e+00+j2.84323783148e+00
  +1.10184460220e+00+j2.81436544287e+00
  +1.10481994865e+00+j2.78595677540e+00
  +1.10771023237e+00+j2.75799981078e+00
  +1.11051819878e+00+j2.73048293859e+00
  +1.11324647507e+00+j2.70339493915e+00
  +1.11589757619e+00+j2.67672496736e+00
  +1.11847391040e+00+j2.65046253727e+00
  +1.12097778459e+00+j2.62459750740e+00
</dep>
<dep S[1,2] frequency>
  +9.33118185697e-03+j1.64745155393e-02
  +9.83407592587e-03+j1.72527120557e-02
  +1.02797726888e-02+j1.80314270523e-02
  +1.06796979602e-02+j1.88159167786e-02
  +1.10432677074e-02+j1.96091015830e-02
  +1.13781590532e-02+j2.04124155951e-02
  +1.16906022687e-02+j2.12263631340e-02
  +1.19856486914e-02+j2.20508795279e-02
  +1.22673995188e-02+j2.28855634066e-02
  +1.25391940594e-02+j2.37298251969e-02
  +1.28037615241e-02+j2.45829812053e-02
  +1.30633421018e-02+j2.54443124526e-02
  +1.33197830325e-02+j2.63131007199e-02
  +1.35746147141e-02+j2.71886499021e-02
  +1.38291110261e-02+j2.80702979367e-02
  +1.40843372441e-02+j2.89574227324e-02
  +1.43411882115e-02+j2.98494443301e-02
  +1.46004188645e-02+j3.07458247481e-02
  +1.48626687394e-02+j3.16460664530e-02
  +1.51284817351e-02+j3.25497100667e-02
  +1.53983221207e-02+j3.34563316974e-02
  +1.56725875586e-02+j3.43655401416e-02
  +1.59516197490e-02+j3.52769741077e-02
  +1.62357131673e-02+j3.61902995520e-02
  +1.65251222683e-02+j3.71052071756e-02
  +1.68200674516e-02+j3.80214101070e-02
  +1.71207400214e-02+j3.89386417779e-02
  +1.74273063270e-02+j3.98566539896e-02
  +1.77399112330e-02+j4.07752151605e-02
  +1.80586810390e-02+j4.16941087460e-02
  +1.83837259449e-02+j4.26131318131e-02
  +1.87151421394e-02+j4.35320937610e-02
  +1.90530135767e-02+j4.44508151696e-02
  +1.93974134919e-02+j4.53691267671e-02
  +1.97484056975e-02+j4.62868685015e-02
  +2.01060456974e-02+j4.72038887080e-02
  +2.04703816452e-02+j4.81200433597e-02
  +2.08414551725e-02+j4.90351953950e-02
  +2.12193021055e-02+j4.99492141112e-02
  +2.16039530882e-02+j5.08619746195e-02
  +2.19954341234e-02+j5.17733573536e-02
  +2.23937670467e-02+j5.26832476253e-02
  +2.27989699395e-02+j5.35915352247e-02
  +2.32110574923e-02+j5.44981140577e-02
  +2.36300413236e-02+j5.54028818180e-02
  +2.40559302606e-02+j5.63057396904e-02
  +2.44887305874e-02+j5.72065920811e-02
  +2.49284462642e-02+j5.81053463733e-02
  +2.53750791215e-02+j5.90019127049e-02
  +2.58286290331e-02+j5.98962037657e-02
  +2.62890940694e-02+j6.07881346135e-02
  +2.67564706342e-02+j6.16776225059e-02
  +2.72307535869e-02+j6.25645867468e-02
  +2.77119363519e-02+j6.34489485462e-02
  +2.82000110164e-02+j6.43306308921e-02
  +2.86949684179e-02+j6.52095584331e-02
  +2.91967982236e-02+j6.60856573707e-02
  +2.97054890009e-02+j6.69588553608e-02
  +3.02210282819e-02+j6.78290814232e-02
  +3.07434026206e-02+j6.86962658583e-02
  +3.12725976454e-02+j6.95603401708e-02
  +3.18085981063e-02+j7.04212369990e-02
  +3.23513879175e-02+j7.12788900505e-02
  +3.29009501966e-02+j7.21332340422e-02
  +3.34572672992e-02+j7.29842046452e-02
  +3.40203208518e-02+j7.38317384345e-02
  +3.45900917802e-02+j7.46757728416e-02
  +3.51665603367e-02+j7.55162461113e-02
  +3.57497061240e-02+j7.63530972622e-02
  +3.63395081176e-02+j7.71862660490e-02
  +3.69359446859e-02+j7.80156929289e-02
  +3.75389936090e-02+j7.88413190296e-02
  +3.81486320957e-02+j7.96630861204e-02
  +3.87648367988e-02+j8.04809365846e-02
  +3.93875838299e-02+j8.12948133948e-02
  +4.00168487721e-02+j8.21046600895e-02
  +4.06526066926e-02+j8.29104207515e-02
  +4.12948321535e-02+j8.37120399884e-02
  +4.19434992225e-02+j8.45094629135e-02
  +4.25985814820e-02+j8.53026351292e-02
  +4.32600520381e-02+j8.60915027111e-02
  +4.39278835286e-02+j8.68760121931e-02
  +4.46020481309e-02+j8.76561105542e-02
  +4.52825175686e-02+j8.84317452057e-02
  +4.59692631180e-02+j8.92028639798e-02
  +4.66622556143e-02+j8.99694151188e-02
  +4.73614654571e-02+j9.07313472654e-02
  +4.80668626157e-02+j9.14886094532e-02
  +4.87784166339e-02+j9.22411510991e-02
  +4.94960966346e-02+j9.29889219945e-02
  +5.02198713238e-02+j9.37318722994e-02
  +5.09497089952e-02+j9.44699525351e-02
  +5.16855775331e-02+j9.52031135784e-02
  +5.24274444167e-02+j9.59313066566e-02
  +5.31752767230e-02+j9.66544833422e-02
  +5.39290411300e-02+j9.73725955485e-02
  +5.46887039195e-02+j9.80855955257e-02
  +5.54542309804e-02+j9.87934358571e-02
  +5.62255878108e-02+j9.94960694559e-02
  +5.70027395208e-02+j1.00193449562e-01
  +5.77856508348e-02+j1.00885529741e-01
  +5.85742860940e-02+j1.01572263880e-01
  +5.93686092583e-02+j1.02253606186e-01
  +6.01685839089e-02+j1.02929511184e-01
  +6.09741732499e-02+j1.03599933718e-01
  +6.17853401102e-02+j1.04264828948e-01
  +6.26020469461e-02+j1.04924152348e-01
  +6.34242558423e-02+j1.05577859707e-01
  +6.42519285145e-02+j1.06225907129e-01
  +6.50850263103e-02+j1.06868251031e-01
</dep>
<dep S[1,1] frequency>
  -1.59564153524e-01-j3.21046561129e-01
  -1.84866727644e-01-j3.05921252634e-01
  -2.06210548964e-01-j2.90864982560e-01
  -2.24292738653e-01-j2.76201483353e-01
  -2.39687851108e-01-j2.62112014260e-01
  -2.52864403082e-01-j2.48687185460e-01
  -2.64202683089e-01-j2.35960894744e-01
  -2.74011092375e-01-j2.23932334718e-01
  -2.82540099633e-01-j2.12580160842e-01
  -2.89993722917e-01-j2.01871548454e-01
  -2.96538787794e-01-j1.91767931060e-01
  -3.02312312041e-01-j1.82228588721e-01
  -3.07427365433e-01-j1.73212846499e-01
  -3.11977711669e-01-j1.64681376839e-01
  -3.16041487713e-01-j1.56596927026e-01
  -3.19684126197e-01-j1.48924680733e-01
  -3.22960683683e-01-j1.41632389752e-01
  -3.25917702426e-01-j1.34690364465e-01
  -3.28594705185e-01-j1.28071380542e-01
  -3.31025400617e-01-j1.21750538980e-01
  -3.33238659608e-01-j1.15705103257e-01
  -3.35259309649e-01-j1.09914328593e-01
  -3.37108784061e-01-j1.04359292544e-01
  -3.38805654952e-01-j9.90227324269e-02
  -3.40366072650e-01-j9.38888925846e-02
  -3.41804129558e-01-j8.89433829667e-02
  -3.43132162691e-01-j8.41730494803e-02
  -3.44361006258e-01-j7.95658559625e-02
  -3.45500203338e-01-j7.51107772593e-02
  -3.46558183988e-01-j7.07977026973e-02
  -3.47542415620e-01-j6.66173491405e-02
  -3.48459530449e-01-j6.25611827988e-02
  -3.49315433856e-01-j5.86213489710e-02
  -3.50115396850e-01-j5.47906089413e-02
  -3.50864135197e-01-j5.10622833057e-02
  -3.51565877367e-01-j4.74302010600e-02
  -3.52224423040e-01-j4.38886538428e-02
  -3.52843193638e-01-j4.04323547855e-02
  -3.53425276083e-01-j3.70564014769e-02
  -3.53973460804e-01-j3.37562426023e-02
  -3.54490274825e-01-j3.05276478626e-02
  -3.54978010642e-01-j2.73666808242e-02
  -3.55438751501e-01-j2.42696743884e-02
  -3.55874393557e-01-j2.12332086014e-02
  -3.56286665363e-01-j1.82540905607e-02
  -3.56677145037e-01-j1.53293361990e-02
  -3.57047275416e-01-j1.24561537494e-02
  -3.57398377471e-01-j9.63192872196e-03
  -3.57731662193e-01-j6.85421023559e-03
  -3.58048241154e-01-j4.12069857006e-03
  -3.58349135908e-01-j1.42923381564e-03
  -3.58635286368e-01+j1.22221448788e-03
  -3.58907558294e-01+j3.83555681972e-03
  -3.59166749987e-01+j6.41259234045e-03
  -3.59413598294e-01+j8.95501682568e-03
  -3.59648783995e-01+j1.14644299399e-02
  -3.59872936650e-01+j1.39423419127e-02
  -3.60086638956e-01+j1.63901796725e-02
  -3.60290430691e-01+j1.88092924883e-02
  -3.60484812261e-01+j2.12009571632e-02
  -3.60670247917e-01+j2.35663828204e-02
  -3.60847168668e-01+j2.59067153190e-02
  -3.61015974920e-01+j2.82230413299e-02
  -3.61177038876e-01+j3.05163921036e-02
  -3.61330706715e-01+j3.27877469554e-02
  -3.61477300582e-01+j3.50380364919e-02
  -3.61617120391e-01+j3.72681456011e-02
  -3.61750445487e-01+j3.94789162260e-02
  -3.61877536146e-01+j4.16711499391e-02
  -3.61998634962e-01+j4.38456103336e-02
  -3.62113968110e-01+j4.60030252478e-02
  -3.62223746508e-01+j4.81440888343e-02
  -3.62328166875e-01+j5.02694634874e-02
  -3.62427412717e-01+j5.23797816389e-02
  -3.62521655219e-01+j5.44756474336e-02
  -3.62611054080e-01+j5.65576382931e-02
  -3.62695758267e-01+j5.86263063762e-02
  -3.62775906729e-01+j6.06821799441e-02
  -3.62851629036e-01+j6.27257646375e-02
  -3.62923045990e-01+j6.47575446722e-02
  -3.62990270171e-01+j6.67779839580e-02
  -3.63053406456e-01+j6.87875271490e-02
  -3.63112552496e-01+j7.07866006270e-02
  -3.63167799154e-01+j7.27756134253e-02
  -3.63219230919e-01+j7.47549580965e-02
  -3.63266926282e-01+j7.67250115267e-02
  -3.63310958095e-01+j7.86861357023e-02
  -3.63351393898e-01+j8.06386784303e-02
  -3.63388296227e-01+j8.25829740173e-02
  -3.63421722896e-01+j8.45193439080e-02
  -3.63451727268e-01+j8.64480972877e-02
  -3.63478358503e-01+j8.83695316496e-02
  -3.63501661788e-01+j9.02839333310e-02
  -3.63521678557e-01+j9.21915780181e-02
  -3.63538446691e-01+j9.40927312239e-02
  -3.63552000710e-01+j9.59876487387e-02
  -3.63562371954e-01+j9.78765770570e-02
  -3.63569588743e-01+j9.97597537802e-02
  -3.63573676540e-01+j1.01637407999e-01
  -3.63574658095e-01+j1.03509760652e-01
  -3.63572553583e-01+j1.05377024872e-01
  -3.63567380736e-01+j1.07239406306e-01
  -3.63559154961e-01+j1.09097103426e-01
  -3.63547889460e-01+j1.10950307816e-01
  -3.63533595334e-01+j1.12799204453e-01
  -3.63516281688e-01+j1.14643971967e-01
  -3.63495955724e-01+j1.16484782891e-01
  -3.63472622836e-01+j1.18321803896e-01
