<Qucs Dataset 0.0.18>
<indep time 200>
  +0.00000000000e+00
  +5.02512562814e-06
  +1.00502512563e-05
  +1.50753768844e-05
  +2.01005025126e-05
  +2.51256281407e-05
  +3.01507537688e-05
  +3.51758793970e-05
  +4.02010050251e-05
  +4.52261306533e-05
  +5.02512562814e-05
  +5.52763819095e-05
  +6.03015075377e-05
  +6.53266331658e-05
  +7.03517587940e-05
  +7.53768844221e-05
  +8.04020100503e-05
  +8.54271356784e-05
  +9.04522613065e-05
  +9.54773869347e-05
  +1.00502512563e-04
  +1.05527638191e-04
  +1.10552763819e-04
  +1.15577889447e-04
  +1.20603015075e-04
  +1.25628140704e-04
  +1.30653266332e-04
  +1.35678391960e-04
  +1.40703517588e-04
  +1.45728643216e-04
  +1.50753768844e-04
  +1.55778894472e-04
  +1.60804020101e-04
  +1.65829145729e-04
  +1.70854271357e-04
  +1.75879396985e-04
  +1.80904522613e-04
  +1.85929648241e-04
  +1.90954773869e-04
  +1.95979899497e-04
  +2.01005025126e-04
  +2.06030150754e-04
  +2.11055276382e-04
  +2.16080402010e-04
  +2.21105527638e-04
  +2.26130653266e-04
  +2.31155778894e-04
  +2.36180904523e-04
  +2.41206030151e-04
  +2.46231155779e-04
  +2.51256281407e-04
  +2.56281407035e-04
  +2.61306532663e-04
  +2.66331658291e-04
  +2.71356783920e-04
  +2.76381909548e-04
  +2.81407035176e-04
  +2.86432160804e-04
  +2.91457286432e-04
  +2.96482412060e-04
  +3.01507537688e-04
  +3.06532663317e-04
  +3.11557788945e-04
  +3.16582914573e-04
  +3.21608040201e-04
  +3.26633165829e-04
  +3.31658291457e-04
  +3.36683417085e-04
  +3.41708542714e-04
  +3.46733668342e-04
  +3.51758793970e-04
  +3.56783919598e-04
  +3.61809045226e-04
  +3.66834170854e-04
  +3.71859296482e-04
  +3.76884422111e-04
  +3.81909547739e-04
  +3.86934673367e-04
  +3.91959798995e-04
  +3.96984924623e-04
  +4.02010050251e-04
  +4.07035175879e-04
  +4.12060301508e-04
  +4.17085427136e-04
  +4.22110552764e-04
  +4.27135678392e-04
  +4.32160804020e-04
  +4.37185929648e-04
  +4.42211055276e-04
  +4.47236180905e-04
  +4.52261306533e-04
  +4.57286432161e-04
  +4.62311557789e-04
  +4.67336683417e-04
  +4.72361809045e-04
  +4.77386934673e-04
  +4.82412060302e-04
  +4.87437185930e-04
  +4.92462311558e-04
  +4.97487437186e-04
  +5.02512562814e-04
  +5.07537688442e-04
  +5.12562814070e-04
  +5.17587939698e-04
  +5.22613065327e-04
  +5.27638190955e-04
  +5.32663316583e-04
  +5.37688442211e-04
  +5.42713567839e-04
  +5.47738693467e-04
  +5.52763819095e-04
  +5.57788944724e-04
  +5.62814070352e-04
  +5.67839195980e-04
  +5.72864321608e-04
  +5.77889447236e-04
  +5.82914572864e-04
  +5.87939698492e-04
  +5.92964824121e-04
  +5.97989949749e-04
  +6.03015075377e-04
  +6.08040201005e-04
  +6.13065326633e-04
  +6.18090452261e-04
  +6.23115577889e-04
  +6.28140703518e-04
  +6.33165829146e-04
  +6.38190954774e-04
  +6.43216080402e-04
  +6.48241206030e-04
  +6.53266331658e-04
  +6.58291457286e-04
  +6.63316582915e-04
  +6.68341708543e-04
  +6.73366834171e-04
  +6.78391959799e-04
  +6.83417085427e-04
  +6.88442211055e-04
  +6.93467336683e-04
  +6.98492462312e-04
  +7.03517587940e-04
  +7.08542713568e-04
  +7.13567839196e-04
  +7.18592964824e-04
  +7.23618090452e-04
  +7.28643216080e-04
  +7.33668341709e-04
  +7.38693467337e-04
  +7.43718592965e-04
  +7.48743718593e-04
  +7.53768844221e-04
  +7.58793969849e-04
  +7.63819095477e-04
  +7.68844221106e-04
  +7.73869346734e-04
  +7.78894472362e-04
  +7.83919597990e-04
  +7.88944723618e-04
  +7.93969849246e-04
  +7.98994974874e-04
  +8.04020100503e-04
  +8.09045226131e-04
  +8.14070351759e-04
  +8.19095477387e-04
  +8.24120603015e-04
  +8.29145728643e-04
  +8.34170854271e-04
  +8.39195979899e-04
  +8.44221105528e-04
  +8.49246231156e-04
  +8.54271356784e-04
  +8.59296482412e-04
  +8.64321608040e-04
  +8.69346733668e-04
  +8.74371859296e-04
  +8.79396984925e-04
  +8.84422110553e-04
  +8.89447236181e-04
  +8.94472361809e-04
  +8.99497487437e-04
  +9.04522613065e-04
  +9.09547738693e-04
  +9.14572864322e-04
  +9.19597989950e-04
  +9.24623115578e-04
  +9.29648241206e-04
  +9.34673366834e-04
  +9.39698492462e-04
  +9.44723618090e-04
  +9.49748743719e-04
  +9.54773869347e-04
  +9.59798994975e-04
  +9.64824120603e-04
  +9.69849246231e-04
  +9.74874371859e-04
  +9.79899497487e-04
  +9.84924623116e-04
  +9.89949748744e-04
  +9.94974874372e-04
  +1.00000000000e-03
</indep>
<dep LO.It time>
  +0.00000000000e+00
  -3.95292839764e-03
  -1.97522347166e-02
  -3.26506866039e-02
  -4.09230337015e-02
  -4.36805389136e-02
  -4.06354323014e-02
  -3.21056709151e-02
  -1.90105091612e-02
  -3.17188086018e-03
  +7.65626525734e-09
  +4.74822614424e-03
  +2.04861380137e-02
  +3.31840066062e-02
  +4.11967240207e-02
  +4.36659056998e-02
  +4.03339954951e-02
  +3.15491093279e-02
  +1.82612250439e-02
  +2.41362411661e-03
  -7.52976138430e-09
  -5.55244845743e-03
  -2.12119659754e-02
  -3.37054849415e-02
  -4.14564313268e-02
  -4.36366430776e-02
  -4.00188026827e-02
  -3.09811554517e-02
  -1.75046580294e-02
  -1.69292729057e-03
  +7.69123001395e-09
  +6.36205202510e-03
  +2.19294748977e-02
  +3.42149794341e-02
  +4.17020873964e-02
  +4.35927586964e-02
  +3.96899369536e-02
  +3.04019668339e-02
  +1.67410975015e-02
  +1.03743764233e-03
  -7.50936222019e-09
  -7.17454853794e-03
  -2.26384295153e-02
  -3.47123516195e-02
  -4.19336277618e-02
  -4.35342639910e-02
  -3.93474851168e-02
  -2.98117049395e-02
  -1.59708488219e-02
  -5.00606801765e-04
  +7.84056309377e-09
  +7.98810836826e-03
  +2.33386022559e-02
  +3.51974667842e-02
  +4.21509917046e-02
  +4.34611742293e-02
  +3.89915376805e-02
  +2.92105352878e-02
  +1.51942360611e-02
  +1.62692437256e-04
  -8.00455254039e-09
  -8.80133271793e-03
  -2.40297725490e-02
  -3.56701939168e-02
  -4.23541222627e-02
  -4.33735084874e-02
  -3.86221888447e-02
  -2.85986275006e-02
  -1.44116054841e-02
  -3.48478843504e-05
  +9.00796796952e-09
  +9.61311533239e-03
  +2.47117263120e-02
  +3.61304057160e-02
  +4.25429662342e-02
  +4.32712896508e-02
  +3.82395364938e-02
  +2.79761554267e-02
  +1.36233300662e-02
  +6.10613796041e-06
  -1.30816876959e-08
  -1.04225553094e-02
  -2.53842554716e-02
  -3.65779785444e-02
  -4.27174742011e-02
  -4.31545444072e-02
  -3.78436822089e-02
  -2.73432972152e-02
  -1.28298152604e-02
  -1.00972914967e-06
  +3.60959733048e-08
  +1.12289000370e-02
  +2.60471575787e-02
  +3.70127924750e-02
  +4.28776004984e-02
  +4.30233032628e-02
  +3.74347312246e-02
  +2.67002355157e-02
  +1.20315066176e-02
  +1.58604765465e-07
  -1.76828345752e-07
  -1.20315066393e-02
  -2.67002355282e-02
  -3.74347312213e-02
  -4.30233032582e-02
  -4.28776005012e-02
  -3.70127924662e-02
  -2.60471575763e-02
  -1.12288999787e-02
  -1.84262177704e-08
  +1.02851850915e-06
  +1.28298152755e-02
  +2.73432972315e-02
  +3.78436822040e-02
  +4.31545444147e-02
  +4.27174741934e-02
  +3.65779785491e-02
  +2.53842554534e-02
  +1.04225552674e-02
  -4.36584442698e-09
  -6.12553270355e-06
  -1.36233300724e-02
  -2.79761554179e-02
  -3.82395364871e-02
  -4.32712896596e-02
  -4.25429662249e-02
  -3.61304057225e-02
  -2.47117262901e-02
  -9.61311523921e-03
  +6.84599590033e-09
  +3.48651146113e-05
  +1.44116055138e-02
  +2.85986275101e-02
  +3.86221888471e-02
  +4.33735084882e-02
  +4.23541222585e-02
  +3.56701939168e-02
  +2.40297725413e-02
  +8.80133265622e-03
  -7.86576924598e-09
  -1.62705784691e-04
  -1.51942360037e-02
  -2.92105352468e-02
  -3.89915377167e-02
  -4.34611742610e-02
  -4.21509917356e-02
  -3.51974668178e-02
  -2.33386022979e-02
  -7.98810843194e-03
  +1.00034447903e-08
  +5.00613220662e-04
  +1.59708487592e-02
  +2.98117049925e-02
  +3.93474850754e-02
  +4.35342640279e-02
  +4.19336277189e-02
  +3.47123516585e-02
  +2.26384294407e-02
  +7.17454859280e-03
  -5.61952567884e-09
  -1.03743912331e-03
  -1.67410974460e-02
  -3.04019668778e-02
  -3.96899369868e-02
  -4.35927587258e-02
  -4.17020874252e-02
  -3.42149793889e-02
  -2.19294748270e-02
  -6.36205208014e-03
  +5.62283195642e-09
  +1.69292793706e-03
  +1.75046579748e-02
  +3.09811554146e-02
  +4.00188026456e-02
  +4.36366431145e-02
  +4.14564312874e-02
  +3.37054849815e-02
  +2.12119659080e-02
  +5.55244847370e-03
  -9.58817406758e-09
  -2.41362435934e-03
  -1.82612249995e-02
  -3.15491093709e-02
  -4.03339954655e-02
  -4.36659057294e-02
  -4.11967239883e-02
  -3.31840066388e-02
  -2.04861379458e-02
  -4.74822617543e-03
  +5.47884192972e-09
  +3.17188098781e-03
  +1.90105091135e-02
  +3.21056708773e-02
  +4.06354322664e-02
  +4.36805388790e-02
  +4.09230336634e-02
  +3.26506865577e-02
  +1.97522346418e-02
  +3.95292788454e-03
  -5.66399906495e-09
</dep>
<dep RF.It time>
  +0.00000000000e+00
  -2.94923084378e-07
  -6.19844555339e-07
  -9.33736380369e-07
  -1.24550150655e-06
  -1.55516059927e-06
  -1.86196125394e-06
  -2.16397133550e-06
  -2.45349758124e-06
  -2.58034308162e-06
  -3.06191396735e-13
  -3.21273025260e-06
  -3.63481031978e-06
  -3.93991203664e-06
  -4.23008555902e-06
  -4.51172165857e-06
  -4.78506112357e-06
  -5.04690612036e-06
  -5.28107092001e-06
  -5.07649699033e-06
  -1.08068637891e-12
  -5.85343074238e-06
  -6.29280521292e-06
  -6.55723186818e-06
  -6.79667402740e-06
  -7.02220734070e-06
  -7.23481163917e-06
  -7.43008081989e-06
  -7.58332094226e-06
  -6.84934103272e-06
  -2.82082376254e-12
  -7.93605376350e-06
  -8.33038473364e-06
  -8.52676356610e-06
  -8.69146205766e-06
  -8.83840791169e-06
  -8.96905812967e-06
  -9.07800443997e-06
  -9.13298339102e-06
  -7.51836161867e-06
  -3.74112517573e-12
  -9.24158339338e-06
  -9.54537696703e-06
  -9.65358761651e-06
  -9.72704865545e-06
  -9.78076192738e-06
  -9.81640898735e-06
  -9.82796223970e-06
  -9.77758075311e-06
  -6.57089765124e-06
  -4.54005995281e-12
  -9.63231803029e-06
  -9.81695064890e-06
  -9.82609615454e-06
  -9.80098650466e-06
  -9.75611619108e-06
  -9.69319045473e-06
  -9.60609705652e-06
  -9.45452032159e-06
  -3.69153346086e-06
  -7.75283374152e-12
  -9.06418808590e-06
  -9.11760905369e-06
  -9.02703384793e-06
  -8.90590213614e-06
  -8.76692345173e-06
  -8.61169597125e-06
  -8.43467673858e-06
  -8.19724017129e-06
  -9.74559864319e-07
  -2.43118548681e-11
  -7.59028233516e-06
  -7.51597613108e-06
  -7.33523943432e-06
  -7.13024127133e-06
  -6.91100620558e-06
  -6.67897105508e-06
  -6.42988214532e-06
  -6.13186141803e-06
  -1.39309569484e-07
  -1.00816898032e-10
  -5.35501333947e-06
  -5.17001735743e-06
  -4.91785052397e-06
  -4.64952242182e-06
  -4.37188848398e-06
  -4.08621199468e-06
  -3.79027255796e-06
  -3.46458992790e-06
  -1.27740655170e-08
  -3.13754280316e-10
  -2.57938959637e-06
  -2.31146603835e-06
  -2.01378555069e-06
  -1.70899474701e-06
  -1.40062576834e-06
  -1.08985908652e-06
  -7.77115439849e-07
  -4.61213611482e-07
  -1.02364374726e-10
  +1.03174192030e-10
  +4.61213238367e-07
  +7.77116280040e-07
  +1.08985872045e-06
  +1.40062540294e-06
  +1.70899559013e-06
  +2.01378518804e-06
  +2.31146688579e-06
  +2.57938925333e-06
  +3.10852195637e-10
  +1.27782372384e-08
  +3.46459142154e-06
  +3.79027135953e-06
  +4.08621348187e-06
  +4.37188729806e-06
  +4.64952391293e-06
  +4.91784934315e-06
  +5.17001886999e-06
  +5.35501457112e-06
  +9.80436432521e-11
  +1.39311276016e-07
  +6.13185862988e-06
  +6.42988140396e-06
  +6.67896834076e-06
  +6.91100915113e-06
  +7.13023856830e-06
  +7.33524239460e-06
  +7.51597343207e-06
  +7.59028172606e-06
  +2.16608796204e-11
  +9.74511902584e-07
  +8.19723949170e-06
  +8.43467620901e-06
  +8.61169341722e-06
  +8.76692091473e-06
  +8.90590276909e-06
  +9.02703337056e-06
  +9.11761184420e-06
  +9.06418744831e-06
  +1.66642039432e-11
  +3.69141844766e-06
  +9.45453408599e-06
  +9.60611104533e-06
  +9.69317495253e-06
  +9.75610067681e-06
  +9.80097100206e-06
  +9.82608069382e-06
  +9.81693530675e-06
  +9.63230475713e-06
  -1.56276985984e-11
  +6.57082337118e-06
  +9.77760876816e-06
  +9.82793469633e-06
  +9.81643716007e-06
  +9.78073437338e-06
  +9.72707684488e-06
  +9.65356009476e-06
  +9.54540511453e-06
  +9.24155631201e-06
  -1.62620678348e-11
  +7.51835884055e-06
  +9.13299599319e-06
  +9.07798984125e-06
  +8.96904349448e-06
  +8.83839326926e-06
  +8.69144742743e-06
  +8.52677642880e-06
  +8.33039749934e-06
  +7.93604177043e-06
  +1.12822140439e-11
  +6.84936283203e-06
  +7.58334716360e-06
  +7.43010641564e-06
  +7.23483797197e-06
  +7.02218075490e-06
  +6.79670037121e-06
  +6.55720531037e-06
  +6.29283079397e-06
  +5.85340549929e-06
  +1.30037629966e-11
  +5.07650558237e-06
  +5.28108251717e-06
  +5.04689402916e-06
  +4.78507294387e-06
  +4.51170951741e-06
  +4.23009738801e-06
  +3.93989995138e-06
  +3.63482198908e-06
  +3.21271924429e-06
  +1.59232477538e-11
  +2.58037031453e-06
  +2.45352578450e-06
  +2.16399960917e-06
  +1.86198954783e-06
  +1.55518889890e-06
  +1.24552979943e-06
  +9.33764653172e-07
  +6.19872764483e-07
  +2.94950730995e-07
  -1.67098948466e-11
</dep>
<dep _net4.Vt time>
  +0.00000000000e+00
  +3.15685412766e-05
  +6.31056228019e-05
  +9.45797994269e-05
  +1.25959696609e-04
  +1.57214034583e-04
  +1.88311657930e-04
  +2.19221568244e-04
  +2.49912953319e-04
  +2.80355217332e-04
  +3.10517924654e-04
  +1.90982970882e-05
  +6.40427437391e-06
  +5.03934765281e-06
  +4.76953309474e-06
  +4.92698717874e-06
  +5.45951036241e-06
  +6.65899787762e-06
  +1.01168362334e-05
  +5.69119865724e-05
  +5.90336780112e-04
  +6.15523273595e-04
  +6.40096183064e-04
  +6.64031102797e-04
  +6.87304171434e-04
  +7.09891981644e-04
  +7.31772294736e-04
  +7.52923022464e-04
  +7.73323358265e-04
  +7.92952744548e-04
  +8.11791343979e-04
  +3.62160042884e-05
  +1.39856417023e-05
  +1.07060007253e-05
  +9.73375531144e-06
  +9.66068702562e-06
  +1.03265207558e-05
  +1.22583965709e-05
  +1.86698744520e-05
  +1.91112442641e-04
  +9.52989043772e-04
  +9.62079401824e-04
  +9.70210830483e-04
  +9.77375135006e-04
  +9.83565171107e-04
  +9.88774768155e-04
  +9.92998733018e-04
  +9.96232855019e-04
  +9.98473909655e-04
  +9.99719549870e-04
  +9.99968300876e-04
  +3.59893848529e-05
  +1.57826543314e-05
  +1.21301740829e-05
  +1.09116308688e-05
  +1.06812934231e-05
  +1.12733401175e-05
  +1.33046774107e-05
  +2.08135302538e-05
  +5.88500117545e-04
  +9.48087099814e-04
  +9.37575254240e-04
  +9.26128956222e-04
  +9.13759475084e-04
  +9.00478934019e-04
  +8.86300980989e-04
  +8.71239543763e-04
  +8.55309840746e-04
  +8.38527340642e-04
  +8.20908698926e-04
  +8.02469560874e-04
  +2.42072912300e-05
  +1.16207799209e-05
  +8.91613350339e-06
  +7.89794302026e-06
  +7.58442195946e-06
  +7.85483487862e-06
  +9.15662961440e-06
  +1.47019245258e-05
  +5.89074110576e-04
  +5.77521359265e-04
  +5.51461640200e-04
  +5.24852289492e-04
  +4.97719518949e-04
  +4.70091084557e-04
  +4.41993579636e-04
  +4.13455959511e-04
  +3.84505723906e-04
  +3.55172677832e-04
  +3.25485316194e-04
  +2.95442033606e-04
  +7.22816190668e-06
  +3.44988282171e-06
  +2.41344529919e-06
  +1.88489495580e-06
  +1.54192682263e-06
  +1.29757449871e-06
  +1.14098563555e-06
  +1.22161298993e-06
  +1.57759904446e-05
  -1.57861737651e-05
  -4.73430418948e-05
  -7.88524765665e-05
  -1.10283550905e-04
  -1.41604571411e-04
  -1.72784316608e-04
  -2.03792068120e-04
  -2.34596433612e-04
  -2.65167189286e-04
  -2.95473462058e-04
  -3.24207360030e-04
  -8.71343139441e-06
  -5.47869223838e-06
  -4.83450703452e-06
  -4.80495412412e-06
  -5.13858896693e-06
  -5.93468893533e-06
  -7.85029819168e-06
  -1.59600505386e-05
  -5.77511451310e-04
  -6.03004981442e-04
  -6.27888151818e-04
  -6.52145124670e-04
  -6.75752025877e-04
  -6.98684957029e-04
  -7.20922155638e-04
  -7.42439991456e-04
  -7.63218478507e-04
  -7.83235805284e-04
  -8.02471905482e-04
  -7.23457760853e-04
  -1.88031394196e-05
  -1.18419678198e-05
  -1.00701549839e-05
  -9.60884246711e-06
  -9.88890915637e-06
  -1.10558859605e-05
  -1.43678188079e-05
  -3.11562572786e-05
  -9.48085482573e-04
  -9.57655040225e-04
  -9.66263991413e-04
  -9.73912812132e-04
  -9.80593805623e-04
  -9.86294332531e-04
  -9.91011701306e-04
  -9.94741209478e-04
  -9.97479139130e-04
  -9.99222758718e-04
  -9.99967179841e-04
  -3.42634447714e-04
  -2.07157926303e-05
  -1.34365557968e-05
  -1.13577765921e-05
  -1.06985013734e-05
  -1.08602460434e-05
  -1.20162962345e-05
  -1.56730782988e-05
  -3.79209413625e-05
  -9.52987921091e-04
  -9.42947134043e-04
  -9.31966742623e-04
  -9.20060154303e-04
  -9.07233647428e-04
  -8.93502791867e-04
  -8.78881274719e-04
  -8.63380886583e-04
  -8.47022644328e-04
  -8.29822851199e-04
  -8.11792932834e-04
  -1.08019048538e-04
  -1.49912255336e-05
  -9.91503382166e-06
  -8.29108104676e-06
  -7.67132267751e-06
  -7.63671775584e-06
  -8.30798834617e-06
  -1.08157564318e-05
  -3.01800707107e-05
  -5.90338127949e-04
  -5.64560469917e-04
  -5.38222685661e-04
  -5.11350852448e-04
  -4.83964380221e-04
  -4.56100395496e-04
  -4.27776846573e-04
  -3.99031793702e-04
  -3.69884064001e-04
  -3.40372537008e-04
  -3.10519193641e-04
  -2.23210403701e-05
  -4.56322928718e-06
  -2.82446146819e-06
  -2.11555721726e-06
  -1.69799848976e-06
  -1.40957039139e-06
  -1.20618756160e-06
  -1.12119974221e-06
  -2.07632143076e-06
  +1.19233991620e-09
</dep>
<dep _net2.Vt time>
  +0.00000000000e+00
  -7.33907675741e-01
  -7.83398339981e-01
  -8.02840777068e-01
  -8.12815041974e-01
  -8.15879595003e-01
  -8.12488915430e-01
  -8.02133096852e-01
  -7.82037999183e-01
  -7.27826305895e-01
  +4.73583432276e-02
  +7.39044372319e-01
  +7.84708420852e-01
  +8.03526295079e-01
  +8.13124208115e-01
  +8.15863616091e-01
  +8.12145709846e-01
  +8.01402732854e-01
  +7.80623795339e-01
  +7.20384481821e-01
  -9.47052728064e-02
  -7.43491487341e-01
  -7.85971423956e-01
  -8.04190133330e-01
  -8.13416522943e-01
  -8.15831654325e-01
  -8.11785296968e-01
  -8.00649121971e-01
  -7.79151634540e-01
  -7.10855050667e-01
  +1.42028585353e-01
  +7.47415056645e-01
  +7.87190175135e-01
  +8.04832737005e-01
  +8.13692088558e-01
  +8.15783699842e-01
  +8.11407539778e-01
  +7.99871651950e-01
  +7.77616842096e-01
  +6.97867004995e-01
  -1.89316518470e-01
  -7.50928429353e-01
  -7.88367193015e-01
  -8.05454520342e-01
  -8.13950998534e-01
  -8.15719739697e-01
  -8.11012289982e-01
  -7.99069660602e-01
  -7.76014047196e-01
  -6.78759168289e-01
  +2.36557244194e-01
  +7.54112086683e-01
  +7.89504728551e-01
  +8.06055866271e-01
  +8.14193339025e-01
  +8.15639755349e-01
  +8.10599387992e-01
  +7.98242427111e-01
  +7.74337043872e-01
  +6.49530108680e-01
  -2.83739023157e-01
  -7.57025037301e-01
  -7.90604801881e-01
  -8.06637130456e-01
  -8.14419189164e-01
  -8.15543723694e-01
  -8.10168662176e-01
  -7.97389167759e-01
  -7.72578614223e-01
  -6.09633654653e-01
  +3.30850046335e-01
  +7.59711734337e-01
  +7.91669230269e-01
  +8.07198642413e-01
  +8.14628621535e-01
  +8.15431616796e-01
  +8.09719928145e-01
  +7.96509027765e-01
  +7.70730300117e-01
  +5.64629692571e-01
  -3.77878461119e-01
  -7.62206437663e-01
  -7.92699654250e-01
  -8.07740709364e-01
  -8.14821701652e-01
  -8.15303401966e-01
  -8.09252986925e-01
  -7.95601075686e-01
  -7.68782112289e-01
  -5.18302669965e-01
  +4.24811753476e-01
  +7.64536069667e-01
  +7.93697559046e-01
  +8.08263615330e-01
  +8.14998490096e-01
  +8.15159040620e-01
  +8.08767625916e-01
  +7.94664291388e-01
  +7.66722146739e-01
  +4.71634198663e-01
  -4.71633287484e-01
  -7.66722145654e-01
  -7.94664290765e-01
  -8.08767626079e-01
  -8.15159040851e-01
  -8.14998489955e-01
  -8.08263615769e-01
  -7.93697559166e-01
  -7.64536072580e-01
  -4.24812636964e-01
  +5.18301730497e-01
  +7.68782111534e-01
  +7.95601074871e-01
  +8.09252987172e-01
  +8.15303401593e-01
  +8.14821702039e-01
  +8.07740709128e-01
  +7.92699655156e-01
  +7.62206439762e-01
  +3.77879333495e-01
  -5.64628722834e-01
  -7.70730299806e-01
  -7.96509028209e-01
  -8.09719928481e-01
  -8.15431616356e-01
  -8.14628622000e-01
  -8.07198642089e-01
  -7.91669231364e-01
  -7.59711738996e-01
  -3.30850839034e-01
  +6.09632793140e-01
  +7.72578612735e-01
  +7.97389167285e-01
  +8.10168662059e-01
  +8.15543723654e-01
  +8.14419189374e-01
  +8.06637130456e-01
  +7.90604802267e-01
  +7.57025040386e-01
  +2.83739816673e-01
  -6.49529441309e-01
  -7.74337046742e-01
  -7.98242429159e-01
  -8.10599386178e-01
  -8.15639753762e-01
