<Qucs Dataset 0.0.18>
<indep time 200>
  +0.00000000000e+00
  +1.50753768844e-07
  +3.01507537688e-07
  +4.52261306533e-07
  +6.03015075377e-07
  +7.53768844221e-07
  +9.04522613065e-07
  +1.05527638191e-06
  +1.20603015075e-06
  +1.35678391960e-06
  +1.50753768844e-06
  +1.65829145729e-06
  +1.80904522613e-06
  +1.95979899497e-06
  +2.11055276382e-06
  +2.26130653266e-06
  +2.41206030151e-06
  +2.56281407035e-06
  +2.71356783920e-06
  +2.86432160804e-06
  +3.01507537688e-06
  +3.16582914573e-06
  +3.31658291457e-06
  +3.46733668342e-06
  +3.61809045226e-06
  +3.76884422111e-06
  +3.91959798995e-06
  +4.07035175879e-06
  +4.22110552764e-06
  +4.37185929648e-06
  +4.52261306533e-06
  +4.67336683417e-06
  +4.82412060302e-06
  +4.97487437186e-06
  +5.12562814070e-06
  +5.27638190955e-06
  +5.42713567839e-06
  +5.57788944724e-06
  +5.72864321608e-06
  +5.87939698492e-06
  +6.03015075377e-06
  +6.18090452261e-06
  +6.33165829146e-06
  +6.48241206030e-06
  +6.63316582915e-06
  +6.78391959799e-06
  +6.93467336683e-06
  +7.08542713568e-06
  +7.23618090452e-06
  +7.38693467337e-06
  +7.53768844221e-06
  +7.68844221106e-06
  +7.83919597990e-06
  +7.98994974874e-06
  +8.14070351759e-06
  +8.29145728643e-06
  +8.44221105528e-06
  +8.59296482412e-06
  +8.74371859296e-06
  +8.89447236181e-06
  +9.04522613065e-06
  +9.19597989950e-06
  +9.34673366834e-06
  +9.49748743719e-06
  +9.64824120603e-06
  +9.79899497487e-06
  +9.94974874372e-06
  +1.01005025126e-05
  +1.02512562814e-05
  +1.04020100503e-05
  +1.05527638191e-05
  +1.07035175879e-05
  +1.08542713568e-05
  +1.10050251256e-05
  +1.11557788945e-05
  +1.13065326633e-05
  +1.14572864322e-05
  +1.16080402010e-05
  +1.17587939698e-05
  +1.19095477387e-05
  +1.20603015075e-05
  +1.22110552764e-05
  +1.23618090452e-05
  +1.25125628141e-05
  +1.26633165829e-05
  +1.28140703518e-05
  +1.29648241206e-05
  +1.31155778894e-05
  +1.32663316583e-05
  +1.34170854271e-05
  +1.35678391960e-05
  +1.37185929648e-05
  +1.38693467337e-05
  +1.40201005025e-05
  +1.41708542714e-05
  +1.43216080402e-05
  +1.44723618090e-05
  +1.46231155779e-05
  +1.47738693467e-05
  +1.49246231156e-05
  +1.50753768844e-05
  +1.52261306533e-05
  +1.53768844221e-05
  +1.55276381910e-05
  +1.56783919598e-05
  +1.58291457286e-05
  +1.59798994975e-05
  +1.61306532663e-05
  +1.62814070352e-05
  +1.64321608040e-05
  +1.65829145729e-05
  +1.67336683417e-05
  +1.68844221106e-05
  +1.70351758794e-05
  +1.71859296482e-05
  +1.73366834171e-05
  +1.74874371859e-05
  +1.76381909548e-05
  +1.77889447236e-05
  +1.79396984925e-05
  +1.80904522613e-05
  +1.82412060302e-05
  +1.83919597990e-05
  +1.85427135678e-05
  +1.86934673367e-05
  +1.88442211055e-05
  +1.89949748744e-05
  +1.91457286432e-05
  +1.92964824121e-05
  +1.94472361809e-05
  +1.95979899497e-05
  +1.97487437186e-05
  +1.98994974874e-05
  +2.00502512563e-05
  +2.02010050251e-05
  +2.03517587940e-05
  +2.05025125628e-05
  +2.06532663317e-05
  +2.08040201005e-05
  +2.09547738693e-05
  +2.11055276382e-05
  +2.12562814070e-05
  +2.14070351759e-05
  +2.15577889447e-05
  +2.17085427136e-05
  +2.18592964824e-05
  +2.20100502513e-05
  +2.21608040201e-05
  +2.23115577889e-05
  +2.24623115578e-05
  +2.26130653266e-05
  +2.27638190955e-05
  +2.29145728643e-05
  +2.30653266332e-05
  +2.32160804020e-05
  +2.33668341709e-05
  +2.35175879397e-05
  +2.36683417085e-05
  +2.38190954774e-05
  +2.39698492462e-05
  +2.41206030151e-05
  +2.42713567839e-05
  +2.44221105528e-05
  +2.45728643216e-05
  +2.47236180905e-05
  +2.48743718593e-05
  +2.50251256281e-05
  +2.51758793970e-05
  +2.53266331658e-05
  +2.54773869347e-05
  +2.56281407035e-05
  +2.57788944724e-05
  +2.59296482412e-05
  +2.60804020101e-05
  +2.62311557789e-05
  +2.63819095477e-05
  +2.65326633166e-05
  +2.66834170854e-05
  +2.68341708543e-05
  +2.69849246231e-05
  +2.71356783920e-05
  +2.72864321608e-05
  +2.74371859296e-05
  +2.75879396985e-05
  +2.77386934673e-05
  +2.78894472362e-05
  +2.80402010050e-05
  +2.81909547739e-05
  +2.83417085427e-05
  +2.84924623116e-05
  +2.86432160804e-05
  +2.87939698492e-05
  +2.89447236181e-05
  +2.90954773869e-05
  +2.92462311558e-05
  +2.93969849246e-05
  +2.95477386935e-05
  +2.96984924623e-05
  +2.98492462312e-05
  +3.00000000000e-05
</indep>
<dep V1.It time>
  -1.53375932308e-02
  -1.54640983748e-02
  -1.57383528196e-02
  -1.61097763887e-02
  -1.64764540146e-02
  -1.67272598311e-02
  -1.68503341657e-02
  -1.67917325369e-02
  -1.65579840265e-02
  -1.61913348159e-02
  -1.57596329431e-02
  -1.53452473747e-02
  -1.50321068222e-02
  -1.48840894445e-02
  -1.49280022300e-02
  -1.51486849799e-02
  -1.54936724949e-02
  -1.58850539773e-02
  -1.62358115171e-02
  -1.64687075324e-02
  -1.65319105422e-02
  -1.64098261479e-02
  -1.61256277724e-02
  -1.57343044483e-02
  -1.53120287354e-02
  -1.49441787860e-02
  -1.47090526237e-02
  -1.46559773068e-02
  -1.47934164187e-02
  -1.50887837464e-02
  -1.54762568884e-02
  -1.58716860536e-02
  -1.61899518781e-02
  -1.63626120548e-02
  -1.63526748589e-02
  -1.61617704454e-02
  -1.58285189183e-02
  -1.54188607333e-02
  -1.50146688778e-02
  -1.47016501379e-02
  -1.45480361650e-02
  -1.45859334638e-02
  -1.48052328088e-02
  -1.51572387171e-02
  -1.55657966772e-02
  -1.59433074460e-02
  -1.62098197075e-02
  -1.63092251963e-02
  -1.62209475444e-02
  -1.59636734963e-02
  -1.55897066177e-02
  -1.51734915965e-02
  -1.48008810946e-02
  -1.45532355141e-02
  -1.44847160825e-02
  -1.46090808511e-02
  -1.48982804444e-02
  -1.52894177570e-02
  -1.56989998761e-02
  -1.60403121673e-02
  -1.62415324237e-02
  -1.62609087439e-02
  -1.60952579476e-02
  -1.57793585268e-02
  -1.53769237701e-02
  -1.49691530743e-02
  -1.46425947419e-02
  -1.44695964295e-02
  -1.44877426458e-02
  -1.46920853380e-02
  -1.50379006049e-02
  -1.54508354272e-02
  -1.58433459624e-02
  -1.61328634643e-02
  -1.62590527167e-02
  -1.61962892166e-02
  -1.59586605349e-02
  -1.55952143251e-02
  -1.51790522883e-02
  -1.47955425117e-02
  -1.45285235874e-02
  -1.44371937530e-02
  -1.45408666005e-02
  -1.48163038143e-02
  -1.52039692255e-02
  -1.56211072859e-02
  -1.59798990914e-02
  -1.62049994192e-02
  -1.62499643218e-02
  -1.61066450076e-02
  -1.58054869784e-02
  -1.54080109360e-02
  -1.49939273686e-02
  -1.46509294451e-02
  -1.44550708207e-02
  -1.44494257672e-02
  -1.46344270921e-02
  -1.49696043961e-02
  -1.53828863365e-02
  -1.57870598273e-02
  -1.60968129806e-02
  -1.62475942495e-02
  -1.62088716469e-02
  -1.59900182165e-02
  -1.56366506184e-02
  -1.52197520664e-02
  -1.48245660917e-02
  -1.45371831076e-02
  -1.44215070708e-02
  -1.45023733146e-02
  -1.47615047240e-02
  -1.51428605778e-02
  -1.55651891227e-02
  -1.59390703686e-02
  -1.61863558077e-02
  -1.62559742621e-02
  -1.61345003880e-02
  -1.58484452608e-02
  -1.54561561667e-02
  -1.50362857444e-02
  -1.46770649180e-02
  -1.44580684075e-02
  -1.44277075276e-02
  -1.45918556097e-02
  -1.49144829350e-02
  -1.53262585618e-02
  -1.57398654995e-02
  -1.60682498452e-02
  -1.62429429883e-02
  -1.62283665347e-02
  -1.60288480932e-02
  -1.56863058057e-02
  -1.52697305696e-02
  -1.48637382653e-02
  -1.45562602588e-02
  -1.44157975128e-02
  -1.44727654026e-02
  -1.47140102290e-02
  -1.50872378476e-02
  -1.55128295028e-02
  -1.59007724364e-02
  -1.61696476520e-02
  -1.62637704021e-02
  -1.61647037360e-02
  -1.58944702324e-02
  -1.55084425021e-02
  -1.50837734053e-02
  -1.47093098508e-02
  -1.44675630855e-02
  -1.44122057039e-02
  -1.45546073000e-02
  -1.48633407079e-02
  -1.52719971565e-02
  -1.56937944932e-02
  -1.60398135311e-02
  -1.62377744426e-02
  -1.62471786335e-02
  -1.60674682309e-02
  -1.57367113434e-02
  -1.53217247767e-02
  -1.49062792013e-02
  -1.45796926122e-02
  -1.44147860893e-02
  -1.44475322712e-02
  -1.46699801234e-02
  -1.50337346022e-02
  -1.54609193132e-02
  -1.58614720887e-02
  -1.61511084378e-02
  -1.62696987530e-02
  -1.61936742094e-02
  -1.59402966605e-02
  -1.55619037379e-02
  -1.51341665216e-02
  -1.47454100656e-02
  -1.44812219900e-02
  -1.44004178945e-02
  -1.45200016916e-02
  -1.48133701032e-02
  -1.52172683704e-02
  -1.56457922033e-02
  -1.60086503703e-02
  -1.62298508460e-02
  -1.62639495254e-02
  -1.61052116454e-02
  -1.57875759096e-02
  -1.53754881592e-02
  -1.49517362378e-02
  -1.46067026679e-02
  -1.44173801072e-02
  -1.44252308411e-02
  -1.46276768666e-02
  -1.49805077013e-02
  -1.54082721490e-02
  -1.58201585903e-02
  -1.61298095965e-02
  -1.62728446062e-02
  -1.62204599281e-02
  -1.59848294038e-02
  -1.56151765423e-02
</dep>
<dep _net0.Vt time>
  +9.77235987378e+00
  +7.52599113692e+00
  +5.89406132950e+00
  +5.10962136538e+00
  +5.42968057123e+00
  +6.61359891508e+00
  +8.57198169895e+00
  +1.08376146254e+01
  +1.29318848727e+01
  +1.44133413272e+01
  +1.49691169989e+01
  +1.44818458844e+01
  +1.30536932049e+01
  +1.09839507734e+01
  +8.70848441607e+00
  +6.70700336642e+00
  +5.40187520996e+00
  +5.06846260585e+00
  +5.77732979139e+00
  +7.37958597106e+00
  +9.53851819396e+00
  +1.17979681232e+01
  +1.36814830220e+01
  +1.47919718645e+01
  +1.48940907960e+01
  +1.39671470511e+01
  +1.22051811922e+01
  +9.97839410794e+00
  +7.75623342518e+00
  +6.00737149782e+00
  +5.10115122518e+00
  +5.22808243371e+00
  +6.36285832348e+00
  +8.26702710277e+00
  +1.05394851465e+01
  +1.27004373545e+01
  +1.42937021950e+01
  +1.49826842578e+01
  +1.46219418586e+01
  +1.32874927228e+01
  +1.12599065213e+01
  +8.96598389811e+00
  +6.88934719383e+00
  +5.46828629371e+00
  +5.00276740033e+00
  +5.59132430804e+00
  +7.11037549026e+00
  +9.24086653662e+00
  +1.15336250524e+01
  +1.35046497956e+01
  +1.47376483900e+01
  +1.49722307383e+01
  +1.41589491687e+01
  +1.24689999398e+01
  +1.02575706266e+01
  +7.99073407207e+00
  +6.14651778364e+00
  +5.11451561865e+00
  +5.11188465732e+00
  +6.14024324425e+00
  +7.98401797677e+00
  +1.02547691967e+01
  +1.24732525232e+01
  +1.41713725841e+01
  +1.49904899138e+01
  +1.47581111519e+01
  +1.35233706176e+01
  +1.15450681303e+01
  +9.23970972101e+00
  +7.09332382499e+00
  +5.55886566660e+00
  +4.96036996080e+00
  +5.42374690875e+00
  +6.85221564706e+00
  +8.94629122633e+00
  +1.12641725968e+01
  +1.33168453804e+01
  +1.46709391778e+01
  +1.50403044443e+01
  +1.43480427587e+01
  +1.27392367289e+01
  +1.05515912375e+01
  +8.24627886421e+00
  +6.30937091971e+00
  +5.14986432468e+00
  +5.01240214316e+00
  +5.92659091051e+00
  +7.70076315559e+00
  +9.96159541441e+00
  +1.22308852095e+01
  +1.40320404692e+01
  +1.49829115780e+01
  +1.48842049495e+01
  +1.37567162221e+01
  +1.18364724339e+01
  +9.52748806887e+00
  +7.31671334387e+00
  +5.67055275169e+00
  +4.93670077204e+00
  +5.26980405128e+00
  +6.60121129998e+00
  +8.65082299793e+00
  +1.09863413743e+01
  +1.31148399207e+01
  +1.45874398516e+01
  +1.50932369258e+01
  +1.45256108653e+01
  +1.30040060678e+01
  +1.08478101368e+01
  +8.51148830739e+00
  +6.48747239553e+00
  +5.20315450043e+00
  +4.92979916420e+00
  +5.72541333992e+00
  +7.42286413956e+00
  +9.66570359630e+00
  +1.19805296068e+01
  +1.38778539459e+01
  +1.49588791361e+01
  +1.49952715283e+01
  +1.39794407024e+01
  +1.21240812392e+01
  +9.81944459279e+00
  +7.55130643549e+00
  +5.79821004689e+00
  +4.93038839018e+00
  +5.13088558864e+00
  +6.35827361396e+00
  +8.35458715721e+00
  +1.06998583229e+01
  +1.28986034797e+01
  +1.44870009151e+01
  +1.51296291649e+01
  +1.46909649225e+01
  +1.32634691760e+01
  +1.11468365359e+01
  +8.78696351613e+00
  +6.68134538483e+00
  +5.27442597352e+00
  +4.86329738760e+00
  +5.53551676683e+00
  +7.15021428601e+00
  +9.36750234508e+00
  +1.17193851443e+01
  +1.37088842592e+01
  +1.49179089464e+01
  +1.50905724986e+01
  +1.41906623585e+01
  +1.24068633648e+01
  +1.01141266420e+01
  +7.79583215444e+00
  +5.94089397257e+00
  +4.94106325737e+00
  +5.00760146432e+00
  +6.12740685224e+00
  +8.06512562772e+00
  +1.04125018726e+01
  +1.26737983477e+01
  +1.43722982916e+01
  +1.51493654069e+01
  +1.48411041563e+01
  +1.35125522453e+01
  +1.14424256399e+01
  +9.06674626581e+00
  +6.88632189267e+00
  +5.36135672038e+00
  +4.81361936383e+00
  +5.35890222675e+00
  +6.88366772492e+00
  +9.06666419606e+00
  +1.14483907892e+01
  +1.35249036053e+01
  +1.48594656137e+01
  +1.51703619245e+01
  +1.43921370163e+01
  +1.26877979499e+01
  +1.04153227740e+01
  +8.05375295820e+00
  +6.10112748372e+00
  +4.96978214657e+00
  +4.89851505048e+00
  +5.90338091258e+00
  +7.77342756686e+00
  +1.01146960253e+01
  +1.24329813018e+01
  +1.42391469058e+01
  +1.51516849759e+01
  +1.49780153565e+01
  +1.37548625284e+01
  +1.17393249349e+01
  +9.35567619427e+00
  +7.10633047397e+00
  +5.46599312943e+00
  +4.78073755987e+00
  +5.19557559784e+00
  +6.62365217818e+00
  +8.76487601185e+00
  +1.11684611073e+01
  +1.33273385034e+01
  +1.47845466717e+01
</dep>
<dep Output.Vt time>
  -2.27068075102e-01
  -2.40320131528e+00
  -3.87533138235e+00
  -4.43934802053e+00
  -3.89828016071e+00
  -2.56029934412e+00
  -5.22683351343e-01
  +1.71287516900e+00
  +3.66986554582e+00
  +4.93172783831e+00
  +5.22805467486e+00
  +4.49254782849e+00
  +2.87624605330e+00
  +7.14897589189e-01
  -1.53923384016e+00
  -3.41376671828e+00
  -4.51584094125e+00
  -4.61547007968e+00
  -3.69394394422e+00
  -1.94724851971e+00
  +2.55149292657e-01
  +2.44571136555e+00
  +4.16048494012e+00
  +5.03589210575e+00
  +4.88454735153e+00
  +3.73732576429e+00
  +1.83302376729e+00
  -4.29548482465e-01
  -2.57473562235e+00
  -4.15141877378e+00
  -4.82795656545e+00
  -4.46336866227e+00
  -3.13416482744e+00
  -1.12105944843e+00
  +1.15073233215e+00
  +3.20047602840e+00
  +4.59444261776e+00
  +5.03714302916e+00
  +4.43421390848e+00
  +2.91193171337e+00
  +7.89711853331e-01
  -1.48633509443e+00
  -3.43696529190e+00
  -4.65108368356e+00
  -4.87292738583e+00
  -4.05602357892e+00
  -2.37255142307e+00
  -1.76811860288e-01
  +2.06763269167e+00
  +3.88641527773e+00
  +4.89485651408e+00
  +4.87948005444e+00
  +3.84313744942e+00
  +2.00367088531e+00
  -2.52533125683e-01
  -2.45020287463e+00
  -4.12615480650e+00
  -4.92665352006e+00
  -4.68354350204e+00
  -3.44722917281e+00
  -1.47746601191e+00
  +8.10375188132e-01
  +2.93314174658e+00
  +4.44264529640e+00
  +5.01977742350e+00
  +4.54297005800e+00
  +3.11249681907e+00
  +1.02828343702e+00
  -1.27086096629e+00
  -3.30029227176e+00
  -4.63182659263e+00
  -4.98443592754e+00
  -4.28409710632e+00
  -2.67762569043e+00
  -5.02204628044e-01
  +1.78293710122e+00
  +3.69550791521e+00
  +4.83150390089e+00
  +4.95080898999e+00
  +4.02897955442e+00
  +2.25936549867e+00
  +1.35738757651e-02
  -2.23490933754e+00
  -4.01200024915e+00
  -4.94246261050e+00
  -4.83007577881e+00
  -3.69777511983e+00
  -1.78340754546e+00
  +5.10008420892e-01
  +2.69731593009e+00
  +4.31900412328e+00
  +5.03086020767e+00
  +4.68381082097e+00
  +3.35091834611e+00
  +1.31141926351e+00
  -1.00539714244e+00
  -3.11086565493e+00
  -4.56077284509e+00
  -5.04894967593e+00
  -4.47229203444e+00
  -2.95099139515e+00
  -8.05285654064e-01
  +1.51216188947e+00
  +3.51218523462e+00
  +4.77292352679e+00
  +5.02809344736e+00
  +4.22388068729e+00
  +2.52956571690e+00
  +3.00954621658e-01
  -1.99210794888e+00
  -3.86624995372e+00
  -4.92567011040e+00
  -4.94649152519e+00
  -3.92406415861e+00
  -2.07326049673e+00
  +2.17063858261e-01
  +2.46334026108e+00
  +4.19058601947e+00
  +5.03574232614e+00
  +4.82017061417e+00
  +3.58935140830e+00
  +1.60122777672e+00
  -7.25809702439e-01
  -2.90116162048e+00
  -4.46579696982e+00
  -5.08925876468e+00
  -4.63996333072e+00
  -3.21178438326e+00
  -1.10507238896e+00
  +1.23683581132e+00
  +3.31907396005e+00
  +4.70233528352e+00
  +5.09442363310e+00
  +4.41262900348e+00
  +2.80065959950e+00
  +5.97101382391e-01
  -1.73369992474e+00
  -3.70030442220e+00
  -4.88754883033e+00
  -5.04462053335e+00
  -4.13752461158e+00
  -2.35670260527e+00
  -7.71489184898e-02
  +2.21993687704e+00
  +4.04919921159e+00
  +5.02618878097e+00
  +4.94384534233e+00
  +3.81990240359e+00
  +1.89005928398e+00
  -4.39786279934e-01
  -2.67831461930e+00
  -4.35336364348e+00
  -5.11110685047e+00
  -4.79127932841e+00
  -3.46040335023e+00
  -1.39839657307e+00
  +9.60195328323e-01
  +3.11722892201e+00
  +4.61792740578e+00
  +5.14532888176e+00
  +4.58816374454e+00
  +3.06393259636e+00
  +8.92588213046e-01
  -1.46836723848e+00
  -3.52115093328e+00
  -4.83244841600e+00
  -5.12560300102e+00
  -4.33826807270e+00
  -2.63513577186e+00
  -3.75149618744e-01
  +1.96589603813e+00
  +3.89265159823e+00
  +4.99988207994e+00
  +5.05376049955e+00
  +4.04297753343e+00
  +2.17949490275e+00
  -1.45034467262e-01
  -2.44046317811e+00
  -4.22262788532e+00
  -5.11513412980e+00
  -4.92951319639e+00
  -3.70380491319e+00
  -1.69563400197e+00
  +6.71830611678e-01
  +2.89879670664e+00
  +4.51533618466e+00
  +5.17990320604e+00
  +4.75220482175e+00
  +3.32252817181e+00
  +1.19151272159e+00
  -1.19212664190e+00
  -3.32589365908e+00
  -4.75942257552e+00
  -5.19017807285e+00
  -4.52689400612e+00
  -2.90868675998e+00
  -6.75795178096e-01
  +1.70156153609e+00
  +3.72170838955e+00
  +4.95699676563e+00
</dep>
<dep _net3.Vt time>
  +6.17289538834e-01
  -1.62354262692e+00
  -3.25208266075e+00
  -4.03503866038e+00
  -3.71557469592e+00
  -2.53398531611e+00
  -5.79983930986e-01
  +1.67943845474e+00
  +3.76624391050e+00
  +5.24072333230e+00
  +5.79330836731e+00
  +5.30885512820e+00
  +3.88754423896e+00
  +1.82531733594e+00
  -4.43816097585e-01
  -2.44077383697e+00
  -3.74332779915e+00
  -4.07612185670e+00
  -3.36858791482e+00
  -1.76962491451e+00
  +3.84082554693e-01
  +2.63663251439e+00
  +4.51254554908e+00
  +5.61722332037e+00
  +5.71873642831e+00
  +4.79683432124e+00
  +3.04238029174e+00
  +8.22751376718e-01
  -1.39381639150e+00
  -3.13899405126e+00
  -4.04349323226e+00
  -3.91679631278e+00
  -2.78421487985e+00
  -8.84205652927e-01
  +1.38221633527e+00
  +3.53573508588e+00
  +5.12172265367e+00
  +5.80679262625e+00
  +5.44817172337e+00
  +4.12033993112e+00
  +2.10038821335e+00
  -1.86960370763e-01
  -2.25881092251e+00
  -3.67704170521e+00
  -4.14169690756e+00
  -3.55423686216e+00
  -2.03825198757e+00
  +8.72169373751e-02
  +2.37319817431e+00
  +4.33652853742e+00
  +5.56321646132e+00
  +5.79640308132e+00
  +4.98767044064e+00
  +3.30520355921e+00
  +1.10113156708e+00
  -1.15985212460e+00
  -3.00012246075e+00
  -4.03015340714e+00
  -4.03277953001e+00
  -3.00638455035e+00
  -1.16655270253e+00
  +1.09833825069e+00
  +3.30943977925e+00
  +5.00003003035e+00
  +5.81455040957e+00
  +5.58356041151e+00
  +4.35516415331e+00
  +2.38460256663e+00
  +8.60631306601e-02
  -2.05526713877e+00
  -3.58663378659e+00
  -4.18401709830e+00
  -3.72149719768e+00
  -2.29586444671e+00
  -2.06603241716e-01
  +2.10464036955e+00
  +4.14956377522e+00
  +5.49689085176e+00
  +5.86405733054e+00
  +5.17577517173e+00
  +3.57437944916e+00
  +1.39428619314e+00
  -9.04904773887e-01
  -2.83759456482e+00
  -3.99486979675e+00
  -4.13207975155e+00
  -3.21961649213e+00
  -1.44916138991e+00
  +8.05999828774e-01
  +3.06798898071e+00
  +4.86140491183e+00
  +5.80701855351e+00
  +5.70890985072e+00
  +4.58742356142e+00
  +2.67500176243e+00
  +3.73081987317e-01
  -1.83236010953e+00
  -3.47515968429e+00
  -4.20764326144e+00
  -3.87515216991e+00
  -2.54634744620e+00
  -5.01335526036e-01
  +1.82770039946e+00
  +3.94843214417e+00
  +5.41386383677e+00
  +5.91665891315e+00
  +5.35237913678e+00
  +3.83806552485e+00
  +1.68960236748e+00
  -6.40330286082e-01
  -2.65985352046e+00
  -3.94167806665e+00
  -4.21453233704e+00
  -3.42040435790e+00
  -1.72644177240e+00
  +5.10924677706e-01
  +2.81854729197e+00
  +4.70797896835e+00
  +5.78313296153e+00
  +5.81930265444e+00
  +4.80906712205e+00
  +2.96157883817e+00
  +6.64244558299e-01
  -1.59828356839e+00
  -3.34774799077e+00
  -4.21394418077e+00
  -4.01381356257e+00
  -2.78879033861e+00
  -7.96853912297e-01
  +1.54210536384e+00
  +3.73309960623e+00
  +5.31398189080e+00
  +5.95282118557e+00
  +5.51680203431e+00
  +4.09642133771e+00
  +1.98768445256e+00
  -3.65531508675e-01
  -2.46637866620e+00
  -3.87053884460e+00
  -4.28091366666e+00
  -3.60993838142e+00
  -1.99849870289e+00
  +2.13521234208e-01
  +2.55832302048e+00
  +4.53981798243e+00
