<Qucs Dataset 0.0.17>
<indep time 200>
  +0.00000000000e+00
  +1.50753768844e-07
  +3.01507537688e-07
  +4.52261306533e-07
  +6.03015075377e-07
  +7.53768844221e-07
  +9.04522613065e-07
  +1.05527638191e-06
  +1.20603015075e-06
  +1.35678391960e-06
  +1.50753768844e-06
  +1.65829145729e-06
  +1.80904522613e-06
  +1.95979899497e-06
  +2.11055276382e-06
  +2.26130653266e-06
  +2.41206030151e-06
  +2.56281407035e-06
  +2.71356783920e-06
  +2.86432160804e-06
  +3.01507537688e-06
  +3.16582914573e-06
  +3.31658291457e-06
  +3.46733668342e-06
  +3.61809045226e-06
  +3.76884422111e-06
  +3.91959798995e-06
  +4.07035175879e-06
  +4.22110552764e-06
  +4.37185929648e-06
  +4.52261306533e-06
  +4.67336683417e-06
  +4.82412060302e-06
  +4.97487437186e-06
  +5.12562814070e-06
  +5.27638190955e-06
  +5.42713567839e-06
  +5.57788944724e-06
  +5.72864321608e-06
  +5.87939698492e-06
  +6.03015075377e-06
  +6.18090452261e-06
  +6.33165829146e-06
  +6.48241206030e-06
  +6.63316582915e-06
  +6.78391959799e-06
  +6.93467336683e-06
  +7.08542713568e-06
  +7.23618090452e-06
  +7.38693467337e-06
  +7.53768844221e-06
  +7.68844221106e-06
  +7.83919597990e-06
  +7.98994974874e-06
  +8.14070351759e-06
  +8.29145728643e-06
  +8.44221105528e-06
  +8.59296482412e-06
  +8.74371859296e-06
  +8.89447236181e-06
  +9.04522613065e-06
  +9.19597989950e-06
  +9.34673366834e-06
  +9.49748743719e-06
  +9.64824120603e-06
  +9.79899497487e-06
  +9.94974874372e-06
  +1.01005025126e-05
  +1.02512562814e-05
  +1.04020100503e-05
  +1.05527638191e-05
  +1.07035175879e-05
  +1.08542713568e-05
  +1.10050251256e-05
  +1.11557788945e-05
  +1.13065326633e-05
  +1.14572864322e-05
  +1.16080402010e-05
  +1.17587939698e-05
  +1.19095477387e-05
  +1.20603015075e-05
  +1.22110552764e-05
  +1.23618090452e-05
  +1.25125628141e-05
  +1.26633165829e-05
  +1.28140703518e-05
  +1.29648241206e-05
  +1.31155778894e-05
  +1.32663316583e-05
  +1.34170854271e-05
  +1.35678391960e-05
  +1.37185929648e-05
  +1.38693467337e-05
  +1.40201005025e-05
  +1.41708542714e-05
  +1.43216080402e-05
  +1.44723618090e-05
  +1.46231155779e-05
  +1.47738693467e-05
  +1.49246231156e-05
  +1.50753768844e-05
  +1.52261306533e-05
  +1.53768844221e-05
  +1.55276381910e-05
  +1.56783919598e-05
  +1.58291457286e-05
  +1.59798994975e-05
  +1.61306532663e-05
  +1.62814070352e-05
  +1.64321608040e-05
  +1.65829145729e-05
  +1.67336683417e-05
  +1.68844221106e-05
  +1.70351758794e-05
  +1.71859296482e-05
  +1.73366834171e-05
  +1.74874371859e-05
  +1.76381909548e-05
  +1.77889447236e-05
  +1.79396984925e-05
  +1.80904522613e-05
  +1.82412060302e-05
  +1.83919597990e-05
  +1.85427135678e-05
  +1.86934673367e-05
  +1.88442211055e-05
  +1.89949748744e-05
  +1.91457286432e-05
  +1.92964824121e-05
  +1.94472361809e-05
  +1.95979899497e-05
  +1.97487437186e-05
  +1.98994974874e-05
  +2.00502512563e-05
  +2.02010050251e-05
  +2.03517587940e-05
  +2.05025125628e-05
  +2.06532663317e-05
  +2.08040201005e-05
  +2.09547738693e-05
  +2.11055276382e-05
  +2.12562814070e-05
  +2.14070351759e-05
  +2.15577889447e-05
  +2.17085427136e-05
  +2.18592964824e-05
  +2.20100502513e-05
  +2.21608040201e-05
  +2.23115577889e-05
  +2.24623115578e-05
  +2.26130653266e-05
  +2.27638190955e-05
  +2.29145728643e-05
  +2.30653266332e-05
  +2.32160804020e-05
  +2.33668341709e-05
  +2.35175879397e-05
  +2.36683417085e-05
  +2.38190954774e-05
  +2.39698492462e-05
  +2.41206030151e-05
  +2.42713567839e-05
  +2.44221105528e-05
  +2.45728643216e-05
  +2.47236180905e-05
  +2.48743718593e-05
  +2.50251256281e-05
  +2.51758793970e-05
  +2.53266331658e-05
  +2.54773869347e-05
  +2.56281407035e-05
  +2.57788944724e-05
  +2.59296482412e-05
  +2.60804020101e-05
  +2.62311557789e-05
  +2.63819095477e-05
  +2.65326633166e-05
  +2.66834170854e-05
  +2.68341708543e-05
  +2.69849246231e-05
  +2.71356783920e-05
  +2.72864321608e-05
  +2.74371859296e-05
  +2.75879396985e-05
  +2.77386934673e-05
  +2.78894472362e-05
  +2.80402010050e-05
  +2.81909547739e-05
  +2.83417085427e-05
  +2.84924623116e-05
  +2.86432160804e-05
  +2.87939698492e-05
  +2.89447236181e-05
  +2.90954773869e-05
  +2.92462311558e-05
  +2.93969849246e-05
  +2.95477386935e-05
  +2.96984924623e-05
  +2.98492462312e-05
  +3.00000000000e-05
</indep>
<dep V1.It time>
  -1.53375932308e-02
  -1.54640983748e-02
  -1.57383528196e-02
  -1.61097763887e-02
  -1.64764540146e-02
  -1.67272598311e-02
  -1.68503341657e-02
  -1.67917325369e-02
  -1.65579840265e-02
  -1.61913348159e-02
  -1.57596329431e-02
  -1.53452473747e-02
  -1.50321068222e-02
  -1.48840894445e-02
  -1.49280022300e-02
  -1.51486849799e-02
  -1.54936724949e-02
  -1.58850539773e-02
  -1.62358115171e-02
  -1.64687075324e-02
  -1.65319105422e-02
  -1.64098261479e-02
  -1.61256277724e-02
  -1.57343044483e-02
  -1.53120287354e-02
  -1.49441787860e-02
  -1.47090526237e-02
  -1.46559773068e-02
  -1.47934164187e-02
  -1.50887837464e-02
  -1.54762568884e-02
  -1.58716860536e-02
  -1.61899518781e-02
  -1.63626120548e-02
  -1.63526748589e-02
  -1.61617704454e-02
  -1.58285189183e-02
  -1.54188607333e-02
  -1.50146688778e-02
  -1.47016501379e-02
  -1.45480361650e-02
  -1.45859334638e-02
  -1.48052328088e-02
  -1.51572387171e-02
  -1.55657966772e-02
  -1.59433074460e-02
  -1.62098197075e-02
  -1.63092251963e-02
  -1.62209475444e-02
  -1.59636734963e-02
  -1.55897066177e-02
  -1.51734915965e-02
  -1.48008810946e-02
  -1.45532355141e-02
  -1.44847160825e-02
  -1.46090808511e-02
  -1.48982804444e-02
  -1.52894177570e-02
  -1.56989998762e-02
  -1.60403121672e-02
  -1.62415324239e-02
  -1.62609087435e-02
  -1.60952579500e-02
  -1.57793585356e-02
  -1.53769237861e-02
  -1.49691531996e-02
  -1.46425947652e-02
  -1.44695964378e-02
  -1.44877426574e-02
  -1.46920837101e-02
  -1.50378962698e-02
  -1.54507999575e-02
  -1.58433691318e-02
  -1.61329114725e-02
  -1.62590542429e-02
  -1.61963031455e-02
  -1.59587305093e-02
  -1.55954017445e-02
  -1.51791087255e-02
  -1.47955097698e-02
  -1.45284963446e-02
  -1.44371950043e-02
  -1.45408959051e-02
  -1.48163548065e-02
  -1.52040379661e-02
  -1.56213693251e-02
  -1.59800146981e-02
  -1.62050265112e-02
  -1.62499552227e-02
  -1.61065507235e-02
  -1.58054919099e-02
  -1.54079106685e-02
  -1.49938688506e-02
  -1.46508406149e-02
  -1.44550339169e-02
  -1.44494580255e-02
  -1.46345233577e-02
  -1.49697468014e-02
  -1.53832992169e-02
  -1.57873130133e-02
  -1.60969473302e-02
  -1.62476202544e-02
  -1.62088025622e-02
  -1.59898291661e-02
  -1.56365544988e-02
  -1.52197068954e-02
  -1.48245158713e-02
  -1.45371000703e-02
  -1.44215000350e-02
  -1.45024484370e-02
  -1.47616427970e-02
  -1.51430128425e-02
  -1.55653217401e-02
  -1.59392935258e-02
  -1.61865290953e-02
  -1.62559435184e-02
  -1.61342237795e-02
  -1.58478648550e-02
  -1.54554044741e-02
  -1.50354847544e-02
  -1.46764097174e-02
  -1.44577811379e-02
  -1.44278615813e-02
  -1.45924168244e-02
  -1.49153261976e-02
  -1.53272388617e-02
  -1.57407861716e-02
  -1.60688289481e-02
  -1.62431282993e-02
  -1.62281182468e-02
  -1.60282534385e-02
  -1.56856925717e-02
  -1.52691906280e-02
  -1.48633779733e-02
  -1.45560684761e-02
  -1.44157618515e-02
  -1.44728914576e-02
  -1.47142703256e-02
  -1.50875770312e-02
  -1.55131621498e-02
  -1.59010297802e-02
  -1.61697837355e-02
  -1.62637688336e-02
  -1.61646051507e-02
  -1.58941370233e-02
  -1.55079126123e-02
  -1.50833322842e-02
  -1.47088673697e-02
  -1.44673456150e-02
  -1.44122689030e-02
  -1.45549362632e-02
  -1.48638584318e-02
  -1.52724316156e-02
  -1.56939920659e-02
  -1.60398228252e-02
  -1.62377304205e-02
  -1.62472039567e-02
  -1.60674635133e-02
  -1.57367837737e-02
  -1.53218981135e-02
  -1.49065104474e-02
  -1.45797878494e-02
  -1.44148109962e-02
  -1.44474812829e-02
  -1.46698690683e-02
  -1.50336301779e-02
  -1.54608522285e-02
  -1.58613003058e-02
  -1.61510219664e-02
  -1.62696896773e-02
  -1.61937437322e-02
  -1.59404353082e-02
  -1.55620804245e-02
  -1.51343460270e-02
  -1.47455541338e-02
  -1.44812983063e-02
  -1.44004097860e-02
  -1.45199112652e-02
  -1.48132142314e-02
  -1.52171287363e-02
  -1.56455919554e-02
  -1.60083737970e-02
  -1.62296988633e-02
  -1.62640242637e-02
  -1.61054575882e-02
  -1.57880423337e-02
  -1.53761547660e-02
  -1.49524603607e-02
  -1.46072775049e-02
  -1.44175785311e-02
  -1.44250040482e-02
  -1.46270766316e-02
  -1.49797031337e-02
  -1.54074472632e-02
  -1.58195109146e-02
  -1.61294285454e-02
  -1.62727871167e-02
  -1.62206204223e-02
  -1.59852084083e-02
  -1.56155664085e-02
</dep>
<dep _net0.Vt time>
  +9.77235987378e+00
  +7.52599113692e+00
  +5.89406132950e+00
  +5.10962136538e+00
  +5.42968057123e+00
  +6.61359891508e+00
  +8.57198169895e+00
  +1.08376146254e+01
  +1.29318848727e+01
  +1.44133413272e+01
  +1.49691169989e+01
  +1.44818458844e+01
  +1.30536932049e+01
  +1.09839507734e+01
  +8.70848441607e+00
  +6.70700336642e+00
  +5.40187520996e+00
  +5.06846260585e+00
  +5.77732979139e+00
  +7.37958597106e+00
  +9.53851819396e+00
  +1.17979681232e+01
  +1.36814830220e+01
  +1.47919718645e+01
  +1.48940907960e+01
  +1.39671470511e+01
  +1.22051811922e+01
  +9.97839410794e+00
  +7.75623342518e+00
  +6.00737149782e+00
  +5.10115122518e+00
  +5.22808243371e+00
  +6.36285832348e+00
  +8.26702710277e+00
  +1.05394851465e+01
  +1.27004373545e+01
  +1.42937021950e+01
  +1.49826842578e+01
  +1.46219418586e+01
  +1.32874927228e+01
  +1.12599065213e+01
  +8.96598389811e+00
  +6.88934719383e+00
  +5.46828629371e+00
  +5.00276740033e+00
  +5.59132430804e+00
  +7.11037549025e+00
  +9.24086653662e+00
  +1.15336250524e+01
  +1.35046497956e+01
  +1.47376483900e+01
  +1.49722307383e+01
  +1.41589491687e+01
  +1.24689999398e+01
  +1.02575706266e+01
  +7.99073407207e+00
  +6.14651778364e+00
  +5.11451561865e+00
  +5.11188465734e+00
  +6.14024324401e+00
  +7.98401798031e+00
  +1.02547692087e+01
  +1.24732525042e+01
  +1.41713725529e+01
  +1.49904899021e+01
  +1.47581114029e+01
  +1.35233707688e+01
  +1.15450683679e+01
  +9.23970948996e+00
  +7.09333468773e+00
  +5.55887785553e+00
  +4.96037627329e+00
  +5.42381064121e+00
  +6.85261911259e+00
  +8.94639178534e+00
  +1.12639683284e+01
  +1.33164461845e+01
  +1.46705220223e+01
  +1.50403259456e+01
  +1.43479255129e+01
  +1.27389451335e+01
  +1.05512466431e+01
  +8.24595459031e+00
  +6.30913467018e+00
  +5.14975482972e+00
  +5.01266304549e+00
  +5.92712290387e+00
  +7.70117013691e+00
  +9.96200730680e+00
  +1.22317503651e+01
  +1.40320192278e+01
  +1.49830157332e+01
  +1.48841090379e+01
  +1.37562130179e+01
  +1.18356924894e+01
  +9.52668363760e+00
  +7.31600222234e+00
  +5.67010138732e+00
  +4.93649667205e+00
  +5.27039368550e+00
  +6.60219775632e+00
  +8.65184541270e+00
  +1.09875381291e+01
  +1.31160319302e+01
  +1.45876864400e+01
  +1.50932327332e+01
  +1.45254565436e+01
  +1.30032486385e+01
  +1.08468816286e+01
  +8.51052739262e+00
  +6.48676016268e+00
  +5.20285989613e+00
  +4.92988677500e+00
  +5.72630787079e+00
  +7.42501489075e+00
  +9.66842649421e+00
  +1.19833946166e+01
  +1.38804116199e+01
  +1.49599181981e+01
  +1.49942683490e+01
  +1.39761977185e+01
  +1.21192963950e+01
  +9.81418803878e+00
  +7.54667217682e+00
  +5.79520004252e+00
  +4.92959337578e+00
  +5.13265421752e+00
  +6.36198248883e+00
  +8.35961101333e+00
  +1.07051306527e+01
  +1.29027661943e+01
  +1.44888090095e+01
  +1.51297651950e+01
  +1.46900275878e+01
  +1.32619590508e+01
  +1.11449427201e+01
  +8.78507260339e+00
  +6.67985635172e+00
  +5.27365155497e+00
  +4.86340153291e+00
  +5.53641000943e+00
  +7.15164719029e+00
  +9.36916390688e+00
  +1.17205474140e+01
  +1.37105150381e+01
  +1.49188170751e+01
  +1.50901747066e+01
  +1.41887444977e+01
  +1.24038909467e+01
  +1.01107663532e+01
  +7.79278670058e+00
  +5.93883112582e+00
  +4.94057293898e+00
  +5.00790659090e+00
  +6.12746173199e+00
  +8.06422769570e+00
  +1.04118036700e+01
  +1.26738319298e+01
  +1.43720544804e+01
  +1.51492647098e+01
  +1.48416099572e+01
  +1.35132052548e+01
  +1.14432489359e+01
  +9.06766311981e+00
  +6.88702676465e+00
  +5.36163218788e+00
  +4.81362090537e+00
  +5.35839029010e+00
  +6.88288636029e+00
  +9.06572595521e+00
  +1.14474445747e+01
  +1.35241505538e+01
  +1.48591016031e+01
  +1.51704619301e+01
  +1.43926799025e+01
  +1.26886699294e+01
  +1.04163403640e+01
  +8.05470200820e+00
  +6.10181978538e+00
  +4.96998601496e+00
  +4.89828202378e+00
  +5.90202622215e+00
  +7.77093629157e+00
  +1.01118695445e+01
  +1.24308410317e+01
  +1.42373978441e+01
  +1.51510876786e+01
  +1.49793200975e+01
  +1.37583250492e+01
  +1.17440949469e+01
  +9.36069636214e+00
  +7.11054486817e+00
  +5.46839838187e+00
  +4.78101051191e+00
  +5.19392851830e+00
  +6.62065554635e+00
  +8.76200964640e+00
  +1.11659127200e+01
  +1.33250669006e+01
  +1.47836124061e+01
</dep>
<dep Output.Vt time>
  -2.27068075102e-01
  -2.40320131528e+00
  -3.87533138235e+00
  -4.43934802053e+00
  -3.89828016071e+00
  -2.56029934412e+00
  -5.22683351343e-01
  +1.71287516900e+00
  +3.66986554582e+00
  +4.93172783831e+00
  +5.22805467486e+00
  +4.49254782849e+00
  +2.87624605330e+00
  +7.14897589189e-01
  -1.53923384016e+00
  -3.41376671828e+00
  -4.51584094125e+00
  -4.61547007968e+00
  -3.69394394422e+00
  -1.94724851971e+00
  +2.55149292657e-01
  +2.44571136555e+00
  +4.16048494012e+00
  +5.03589210575e+00
  +4.88454735153e+00
  +3.73732576429e+00
  +1.83302376729e+00
  -4.29548482465e-01
  -2.57473562235e+00
  -4.15141877378e+00
  -4.82795656545e+00
  -4.46336866227e+00
  -3.13416482744e+00
  -1.12105944843e+00
  +1.15073233215e+00
  +3.20047602840e+00
  +4.59444261776e+00
  +5.03714302916e+00
  +4.43421390848e+00
  +2.91193171337e+00
  +7.89711853331e-01
  -1.48633509443e+00
  -3.43696529190e+00
  -4.65108368356e+00
  -4.87292738583e+00
  -4.05602357892e+00
  -2.37255142307e+00
  -1.76811860288e-01
  +2.06763269167e+00
  +3.88641527773e+00
  +4.89485651408e+00
  +4.87948005444e+00
  +3.84313744942e+00
  +2.00367088530e+00
  -2.52533125683e-01
  -2.45020287463e+00
  -4.12615480650e+00
  -4.92665352006e+00
  -4.68354350202e+00
  -3.44722917308e+00
  -1.47746600825e+00
  +8.10375199940e-01
  +2.93314172895e+00
  +4.44264527050e+00
  +5.01977742138e+00
  +4.54297038386e+00
  +3.11249698427e+00
  +1.02828367998e+00
  -1.27086119100e+00
  -3.30028235477e+00
  -4.63181696707e+00
  -4.98445087685e+00
  -4.28401927396e+00
  -2.67719225339e+00
  -5.02102905832e-01
  +1.78274083881e+00
  +3.69515047264e+00
  +4.83119950418e+00
  +4.95086432695e+00
  +4.02884270534e+00
  +2.25905727387e+00
  +1.32293464365e-02
  -2.23521687932e+00
  -4.01220660741e+00
  -4.94253120568e+00
  -4.82965682728e+00
  -3.69717214598e+00
  -1.78298319552e+00
  +5.10415752512e-01
  +2.69812561026e+00
  +4.31898584141e+00
  +5.03090408175e+00
  +4.68367989627e+00
  +3.35036173167e+00
  +1.31061603352e+00
  -1.00618407587e+00
  -3.11152101465e+00
  -4.56114015457e+00
  -5.04890669557e+00
  -4.47154864254e+00
  -2.94992143541e+00
  -8.04245047741e-01
  +1.51331938415e+00
  +3.51326467759e+00
  +4.77311228727e+00
  +5.02806215762e+00
  +4.22369631960e+00
  +2.52875785814e+00
  +3.00020143119e-01
  -1.99302625423e+00
  -3.86688144530e+00
  -4.92587428087e+00
  -4.94632406572e+00
  -3.92303298924e+00
  -2.07099977444e+00
  +2.19774488274e-01
  +2.46604330083e+00
  +4.19279573946e+00
  +5.03632920422e+00
  +4.81868802020e+00
  +3.58571523529e+00
  +1.59626423841e+00
  -7.30985522583e-01
  -2.90547196559e+00
  -4.46831021968e+00
  -5.08946812370e+00
  -4.63763672863e+00
  -3.20771702298e+00
  -1.09992429022e+00
  +1.24196937864e+00
  +3.32288350288e+00
  +4.70377450626e+00
  +5.09423551056e+00
  +4.41147620729e+00
  +2.79903347019e+00
  +5.95182821224e-01
  -1.73551993173e+00
  -3.70164174584e+00
  -4.88812216296e+00
  -5.04431646830e+00
  -4.13647419848e+00
  -2.35518398266e+00
  -7.54843898439e-02
  +2.22104176269e+00
  +4.05063049459e+00
  +5.02677800760e+00
  +4.94318340206e+00
  +3.81771941545e+00
  +1.88695290526e+00
  -4.43115824376e-01
  -2.68117097056e+00
  -4.35512211971e+00
  -5.11133804974e+00
  -4.79085469236e+00
  -3.46034272891e+00
  -1.39932330855e+00
  +9.59510896886e-01
  +3.11725970755e+00
  +4.61772714626e+00
  +5.14533232861e+00
  +4.58880780773e+00
  +3.06464302682e+00
  +8.93427807250e-01
  -1.46747874904e+00
  -3.52051066042e+00
  -4.83223474398e+00
  -5.12564170536e+00
  -4.33888467586e+00
  -2.63597127442e+00
  -3.76095585766e-01
  +1.96498998328e+00
  +3.89198142099e+00
  +4.99962443955e+00
  +5.05396806402e+00
  +4.04360664012e+00
  +2.18041354774e+00
  -1.44019670136e-01
  -2.43956585569e+00
  -4.22202702131e+00
  -5.11501339555e+00
  -4.92986711271e+00
  -3.70532966861e+00
  -1.69822324735e+00
  +6.69042939341e-01
  +2.89680152963e+00
  +4.51386739524e+00
  +5.17970671675e+00
  +4.75394253311e+00
  +3.32633636621e+00
  +1.19640899246e+00
  -1.18723072887e+00
  -3.32202740862e+00
  -4.75749259750e+00
  -5.19039918040e+00
  -4.52893486452e+00
  -2.91192080256e+00
  -6.78703218535e-01
  +1.69910496118e+00
  +3.71966289096e+00
  +4.95629724450e+00
</dep>
<dep _net3.Vt time>
  +6.17289538834e-01
  -1.62354262692e+00
  -3.25208266075e+00
  -4.03503866038e+00
  -3.71557469592e+00
  -2.53398531611e+00
  -5.79983930986e-01
  +1.67943845474e+00
  +3.76624391050e+00
  +5.24072333230e+00
  +5.79330836731e+00
  +5.30885512820e+00
  +3.88754423896e+00
  +1.82531733594e+00
  -4.43816097585e-01
  -2.44077383697e+00
  -3.74332779915e+00
  -4.07612185670e+00
  -3.36858791482e+00
  -1.76962491451e+00
  +3.84082554693e-01
  +2.63663251439e+00
  +4.51254554908e+00
  +5.61722332037e+00
  +5.71873642831e+00
  +4.79683432124e+00
  +3.04238029174e+00
  +8.22751376718e-01
  -1.39381639150e+00
  -3.13899405126e+00
  -4.04349323226e+00
  -3.91679631278e+00
  -2.78421487985e+00
  -8.84205652927e-01
  +1.38221633527e+00
  +3.53573508588e+00
  +5.12172265367e+00
  +5.80679262625e+00
  +5.44817172337e+00
  +4.12033993112e+00
  +2.10038821335e+00
  -1.86960370763e-01
  -2.25881092251e+00
  -3.67704170521e+00
  -4.14169690756e+00
  -3.55423686216e+00
  -2.03825198757e+00
  +8.72169373754e-02
  +2.37319817432e+00
  +4.33652853742e+00
  +5.56321646132e+00
  +5.79640308132e+00
  +4.98767044063e+00
  +3.30520355921e+00
  +1.10113156708e+00
  -1.15985212460e+00
  -3.00012246075e+00
  -4.03015340714e+00
  -4.03277953000e+00
  -3.00638455059e+00
  -1.16655269900e+00
  +1.09833826267e+00
  +3.30943976033e+00
  +5.00002999932e+00
  +5.81455039789e+00
  +5.58356066099e+00
  +4.35516430380e+00
  +2.38460280341e+00
  +8.60629002097e-02
  -2.05525629927e+00
  -3.58662162081e+00
  -4.18401079729e+00
  -3.72143358508e+00
  -2.29546182769e+00
  -2.06502936768e-01
  +2.10443676783e+00
  +4.14916633556e+00
  +5.49647607727e+00
  +5.86407869832e+00
  +5.17565855085e+00
  +3.57408902213e+00
  +1.39394263083e+00
  -9.05228280866e-01
  -2.83783033956e+00
  -3.99497908982e+00
  -4.13181932563e+00
  -3.21908553711e+00
  -1.44875532550e+00
  +8.06410566208e-01
  +3.06885092170e+00
  +4.86138377674e+00
  +5.80712207047e+00
  +5.70881451350e+00
  +4.58692274917e+00
  +2.67422456070e+00
  +3.72279710383e-01
  -1.83306968080e+00
  -3.47561018439e+00
  -4.20784699072e+00
  -3.87456363227e+00
  -2.54536301838e+00
  -5.00315622173e-01
  +1.82889338007e+00
  +3.94961908269e+00
  +5.41410904293e+00
  +5.91665474685e+00
  +5.35222566868e+00
  +3.83731125980e+00
  +1.68867673855e+00
  -6.41288871950e-01
  -2.66056430191e+00
  -3.94197212569e+00
  -4.21444488529e+00
  -3.41951154693e+00
  -1.72429575274e+00
  +5.13640176454e-01
  +2.82140202317e+00
  +4.71052420562e+00
  +5.78416569151e+00
  +5.81830563957e+00
  +4.80584020397e+00
  +2.95681149834e+00
  +6.59002516169e-01
  -1.60290752254e+00
  -3.35075217727e+00
  -4.21473775187e+00
  -4.01204819058e+00
  -2.78508894703e+00
  -7.91842059369e-01
  +1.54736162257e+00
  +3.73724521386e+00
  +5.31578006312e+00
  +5.95295635221e+00
  +5.51587007309e+00
  +4.09491779569e+00
  +1.98579672684e+00
  -3.67417717569e-01
  -2.46786461801e+00
  -3.87131182251e+00
  -4.28080970954e+00
  -3.60904683237e+00
  -1.99706887950e+00
  +2.15178418007e-01
  +2.55948126611e+00
  +4.54144107538e+00
