<Qucs Dataset 0.0.17>
<indep time 200>
  +0.00000000000e+00
  +1.50753768844e-07
  +3.01507537688e-07
  +4.52261306533e-07
  +6.03015075377e-07
  +7.53768844221e-07
  +9.04522613065e-07
  +1.05527638191e-06
  +1.20603015075e-06
  +1.35678391960e-06
  +1.50753768844e-06
  +1.65829145729e-06
  +1.80904522613e-06
  +1.95979899497e-06
  +2.11055276382e-06
  +2.26130653266e-06
  +2.41206030151e-06
  +2.56281407035e-06
  +2.71356783920e-06
  +2.86432160804e-06
  +3.01507537688e-06
  +3.16582914573e-06
  +3.31658291457e-06
  +3.46733668342e-06
  +3.61809045226e-06
  +3.76884422111e-06
  +3.91959798995e-06
  +4.07035175879e-06
  +4.22110552764e-06
  +4.37185929648e-06
  +4.52261306533e-06
  +4.67336683417e-06
  +4.82412060302e-06
  +4.97487437186e-06
  +5.12562814070e-06
  +5.27638190955e-06
  +5.42713567839e-06
  +5.57788944724e-06
  +5.72864321608e-06
  +5.87939698492e-06
  +6.03015075377e-06
  +6.18090452261e-06
  +6.33165829146e-06
  +6.48241206030e-06
  +6.63316582915e-06
  +6.78391959799e-06
  +6.93467336683e-06
  +7.08542713568e-06
  +7.23618090452e-06
  +7.38693467337e-06
  +7.53768844221e-06
  +7.68844221106e-06
  +7.83919597990e-06
  +7.98994974874e-06
  +8.14070351759e-06
  +8.29145728643e-06
  +8.44221105528e-06
  +8.59296482412e-06
  +8.74371859296e-06
  +8.89447236181e-06
  +9.04522613065e-06
  +9.19597989950e-06
  +9.34673366834e-06
  +9.49748743719e-06
  +9.64824120603e-06
  +9.79899497487e-06
  +9.94974874372e-06
  +1.01005025126e-05
  +1.02512562814e-05
  +1.04020100503e-05
  +1.05527638191e-05
  +1.07035175879e-05
  +1.08542713568e-05
  +1.10050251256e-05
  +1.11557788945e-05
  +1.13065326633e-05
  +1.14572864322e-05
  +1.16080402010e-05
  +1.17587939698e-05
  +1.19095477387e-05
  +1.20603015075e-05
  +1.22110552764e-05
  +1.23618090452e-05
  +1.25125628141e-05
  +1.26633165829e-05
  +1.28140703518e-05
  +1.29648241206e-05
  +1.31155778894e-05
  +1.32663316583e-05
  +1.34170854271e-05
  +1.35678391960e-05
  +1.37185929648e-05
  +1.38693467337e-05
  +1.40201005025e-05
  +1.41708542714e-05
  +1.43216080402e-05
  +1.44723618090e-05
  +1.46231155779e-05
  +1.47738693467e-05
  +1.49246231156e-05
  +1.50753768844e-05
  +1.52261306533e-05
  +1.53768844221e-05
  +1.55276381910e-05
  +1.56783919598e-05
  +1.58291457286e-05
  +1.59798994975e-05
  +1.61306532663e-05
  +1.62814070352e-05
  +1.64321608040e-05
  +1.65829145729e-05
  +1.67336683417e-05
  +1.68844221106e-05
  +1.70351758794e-05
  +1.71859296482e-05
  +1.73366834171e-05
  +1.74874371859e-05
  +1.76381909548e-05
  +1.77889447236e-05
  +1.79396984925e-05
  +1.80904522613e-05
  +1.82412060302e-05
  +1.83919597990e-05
  +1.85427135678e-05
  +1.86934673367e-05
  +1.88442211055e-05
  +1.89949748744e-05
  +1.91457286432e-05
  +1.92964824121e-05
  +1.94472361809e-05
  +1.95979899497e-05
  +1.97487437186e-05
  +1.98994974874e-05
  +2.00502512563e-05
  +2.02010050251e-05
  +2.03517587940e-05
  +2.05025125628e-05
  +2.06532663317e-05
  +2.08040201005e-05
  +2.09547738693e-05
  +2.11055276382e-05
  +2.12562814070e-05
  +2.14070351759e-05
  +2.15577889447e-05
  +2.17085427136e-05
  +2.18592964824e-05
  +2.20100502513e-05
  +2.21608040201e-05
  +2.23115577889e-05
  +2.24623115578e-05
  +2.26130653266e-05
  +2.27638190955e-05
  +2.29145728643e-05
  +2.30653266332e-05
  +2.32160804020e-05
  +2.33668341709e-05
  +2.35175879397e-05
  +2.36683417085e-05
  +2.38190954774e-05
  +2.39698492462e-05
  +2.41206030151e-05
  +2.42713567839e-05
  +2.44221105528e-05
  +2.45728643216e-05
  +2.47236180905e-05
  +2.48743718593e-05
  +2.50251256281e-05
  +2.51758793970e-05
  +2.53266331658e-05
  +2.54773869347e-05
  +2.56281407035e-05
  +2.57788944724e-05
  +2.59296482412e-05
  +2.60804020101e-05
  +2.62311557789e-05
  +2.63819095477e-05
  +2.65326633166e-05
  +2.66834170854e-05
  +2.68341708543e-05
  +2.69849246231e-05
  +2.71356783920e-05
  +2.72864321608e-05
  +2.74371859296e-05
  +2.75879396985e-05
  +2.77386934673e-05
  +2.78894472362e-05
  +2.80402010050e-05
  +2.81909547739e-05
  +2.83417085427e-05
  +2.84924623116e-05
  +2.86432160804e-05
  +2.87939698492e-05
  +2.89447236181e-05
  +2.90954773869e-05
  +2.92462311558e-05
  +2.93969849246e-05
  +2.95477386935e-05
  +2.96984924623e-05
  +2.98492462312e-05
  +3.00000000000e-05
</indep>
<dep V1.It time>
  -1.53375932308e-02
  -1.54640983748e-02
  -1.57383528196e-02
  -1.61097763887e-02
  -1.64764540146e-02
  -1.67272598311e-02
  -1.68503341657e-02
  -1.67917325369e-02
  -1.65579840265e-02
  -1.61913348159e-02
  -1.57596329431e-02
  -1.53452473747e-02
  -1.50321068222e-02
  -1.48840894445e-02
  -1.49280022300e-02
  -1.51486849799e-02
  -1.54936724949e-02
  -1.58850539773e-02
  -1.62358115171e-02
  -1.64687075324e-02
  -1.65319105422e-02
  -1.64098261479e-02
  -1.61256277724e-02
  -1.57343044483e-02
  -1.53120287354e-02
  -1.49441787860e-02
  -1.47090526237e-02
  -1.46559773068e-02
  -1.47934164187e-02
  -1.50887837464e-02
  -1.54762568884e-02
  -1.58716860536e-02
  -1.61899518781e-02
  -1.63626120548e-02
  -1.63526748589e-02
  -1.61617704454e-02
  -1.58285189183e-02
  -1.54188607333e-02
  -1.50146688778e-02
  -1.47016501379e-02
  -1.45480361650e-02
  -1.45859334638e-02
  -1.48052328088e-02
  -1.51572387171e-02
  -1.55657966772e-02
  -1.59433074460e-02
  -1.62098197075e-02
  -1.63092251963e-02
  -1.62209475444e-02
  -1.59636734963e-02
  -1.55897066177e-02
  -1.51734915965e-02
  -1.48008810946e-02
  -1.45532355141e-02
  -1.44847160825e-02
  -1.46090808511e-02
  -1.48982804444e-02
  -1.52894177570e-02
  -1.56989998761e-02
  -1.60403121672e-02
  -1.62415324239e-02
  -1.62609087435e-02
  -1.60952579500e-02
  -1.57793585356e-02
  -1.53769237861e-02
  -1.49691531996e-02
  -1.46425947652e-02
  -1.44695964378e-02
  -1.44877426573e-02
  -1.46920837102e-02
  -1.50378962702e-02
  -1.54507999596e-02
  -1.58433691255e-02
  -1.61329114677e-02
  -1.62590542424e-02
  -1.61963031548e-02
  -1.59587305460e-02
  -1.55954018156e-02
  -1.51791088228e-02
  -1.47955098687e-02
  -1.45284964072e-02
  -1.44371950019e-02
  -1.45408958385e-02
  -1.48163546902e-02
  -1.52040377775e-02
  -1.56213689723e-02
  -1.59800175148e-02
  -1.62050271353e-02
  -1.62499551126e-02
  -1.61065564796e-02
  -1.58055207690e-02
  -1.54078378871e-02
  -1.49935790029e-02
  -1.46505572739e-02
  -1.44549256345e-02
  -1.44495539376e-02
  -1.46347948271e-02
  -1.49701015599e-02
  -1.53834488876e-02
  -1.57874406263e-02
  -1.60969874075e-02
  -1.62476187092e-02
  -1.62087969193e-02
  -1.59899479026e-02
  -1.56366947333e-02
  -1.52199189568e-02
  -1.48248757707e-02
  -1.45373707417e-02
  -1.44215240943e-02
  -1.45022172340e-02
  -1.47612134299e-02
  -1.51424611306e-02
  -1.55647534345e-02
  -1.59388405684e-02
  -1.61862928926e-02
  -1.62559814483e-02
  -1.61345788848e-02
  -1.58484333577e-02
  -1.54560298544e-02
  -1.50360564088e-02
  -1.46768160822e-02
  -1.44579560454e-02
  -1.44277692922e-02
  -1.45920721302e-02
  -1.49148071567e-02
  -1.53267094498e-02
  -1.57402019181e-02
  -1.60684536523e-02
  -1.62430047447e-02
  -1.62282764787e-02
  -1.60287263541e-02
  -1.56862938463e-02
  -1.52698730350e-02
  -1.48640720916e-02
  -1.45564815392e-02
  -1.44158386566e-02
  -1.44726201590e-02
  -1.47137119109e-02
  -1.50868280453e-02
  -1.55123992120e-02
  -1.59004136021e-02
  -1.61694427619e-02
  -1.62637724056e-02
  -1.61649524912e-02
  -1.58946859091e-02
  -1.55085463816e-02
  -1.50838688130e-02
  -1.47092122723e-02
  -1.44675034231e-02
  -1.44122234966e-02
  -1.45546955661e-02
  -1.48634743208e-02
  -1.52721390712e-02
  -1.56938993886e-02
  -1.60398690647e-02
  -1.62377880822e-02
  -1.62471611741e-02
  -1.60673383257e-02
  -1.57364065944e-02
  -1.53212562625e-02
  -1.49057441759e-02
  -1.45792622040e-02
  -1.44146699202e-02
  -1.44477581795e-02
  -1.46704995248e-02
  -1.50344334821e-02
  -1.54616508766e-02
  -1.58620733411e-02
  -1.61514515768e-02
  -1.62697378368e-02
  -1.61933616093e-02
  -1.59395120334e-02
  -1.55606904845e-02
  -1.51327232922e-02
  -1.47440906584e-02
  -1.44805035644e-02
  -1.44005007570e-02
  -1.45208479255e-02
  -1.48147974047e-02
  -1.52188264841e-02
  -1.56471084777e-02
  -1.60094664238e-02
  -1.62301407047e-02
  -1.62638023215e-02
  -1.61046141317e-02
  -1.57867540037e-02
  -1.53746814015e-02
  -1.49510776101e-02
  -1.46062992701e-02
  -1.44172464343e-02
  -1.44253904609e-02
  -1.46280991229e-02
  -1.49811464141e-02
  -1.54087471007e-02
  -1.58206550614e-02
  -1.61301623533e-02
  -1.62729190658e-02
  -1.62201960185e-02
  -1.59843142911e-02
  -1.56143804313e-02
</dep>
<dep _net0.Vt time>
  +9.77235987378e+00
  +7.52599113692e+00
  +5.89406132950e+00
  +5.10962136538e+00
  +5.42968057123e+00
  +6.61359891508e+00
  +8.57198169895e+00
  +1.08376146254e+01
  +1.29318848727e+01
  +1.44133413272e+01
  +1.49691169989e+01
  +1.44818458844e+01
  +1.30536932049e+01
  +1.09839507734e+01
  +8.70848441607e+00
  +6.70700336642e+00
  +5.40187520996e+00
  +5.06846260585e+00
  +5.77732979139e+00
  +7.37958597106e+00
  +9.53851819396e+00
  +1.17979681232e+01
  +1.36814830220e+01
  +1.47919718645e+01
  +1.48940907960e+01
  +1.39671470511e+01
  +1.22051811922e+01
  +9.97839410794e+00
  +7.75623342518e+00
  +6.00737149782e+00
  +5.10115122518e+00
  +5.22808243371e+00
  +6.36285832348e+00
  +8.26702710277e+00
  +1.05394851465e+01
  +1.27004373545e+01
  +1.42937021950e+01
  +1.49826842578e+01
  +1.46219418586e+01
  +1.32874927228e+01
  +1.12599065213e+01
  +8.96598389811e+00
  +6.88934719383e+00
  +5.46828629371e+00
  +5.00276740033e+00
  +5.59132430804e+00
  +7.11037549025e+00
  +9.24086653662e+00
  +1.15336250524e+01
  +1.35046497956e+01
  +1.47376483900e+01
  +1.49722307383e+01
  +1.41589491687e+01
  +1.24689999398e+01
  +1.02575706266e+01
  +7.99073407207e+00
  +6.14651778364e+00
  +5.11451561865e+00
  +5.11188465734e+00
  +6.14024324401e+00
  +7.98401798031e+00
  +1.02547692087e+01
  +1.24732525042e+01
  +1.41713725529e+01
  +1.49904899021e+01
  +1.47581114028e+01
  +1.35233707688e+01
  +1.15450683678e+01
  +9.23970948998e+00
  +7.09333468713e+00
  +5.55887785447e+00
  +4.96037627291e+00
  +5.42381062382e+00
  +6.85261907194e+00
  +8.94639175431e+00
  +1.12639681914e+01
  +1.33164459748e+01
  +1.46705218636e+01
  +1.50403259841e+01
  +1.43479258619e+01
  +1.27389457967e+01
  +1.05512474363e+01
  +8.24595533338e+00
  +6.30913521298e+00
  +5.14975513416e+00
  +5.01266269562e+00
  +5.92713580376e+00
  +7.70117937876e+00
  +9.96201251485e+00
  +1.22316973877e+01
  +1.40319049429e+01
  +1.49830923602e+01
  +1.48836391389e+01
  +1.37546111680e+01
  +1.18334103097e+01
  +9.52428426209e+00
  +7.31399461613e+00
  +5.66897599737e+00
  +4.93642653786e+00
  +5.27069483847e+00
  +6.60249881550e+00
  +8.65181740585e+00
  +1.09876223055e+01
  +1.31152752150e+01
  +1.45873194513e+01
  +1.50932432622e+01
  +1.45265491518e+01
  +1.30057032000e+01
  +1.08498869112e+01
  +8.51350130548e+00
  +6.48898385685e+00
  +5.20393551926e+00
  +4.92952109965e+00
  +5.72449857187e+00
  +7.42209233800e+00
  +9.66501435595e+00
  +1.19797095868e+01
  +1.38779030570e+01
  +1.49590508328e+01
  +1.49949807095e+01
  +1.39782041480e+01
  +1.21221984924e+01
  +9.81735793127e+00
  +7.54952434086e+00
  +5.79705666516e+00
  +4.93002578485e+00
  +5.13153583992e+00
  +6.35958509671e+00
  +8.35628132301e+00
  +1.07017560428e+01
  +1.28994488513e+01
  +1.44870306574e+01
  +1.51295887260e+01
  +1.46918302306e+01
  +1.32652070505e+01
  +1.11489973072e+01
  +8.78914912214e+00
  +6.68305648577e+00
  +5.27536417509e+00
  +4.86316521393e+00
  +5.53427445816e+00
  +7.14806273842e+00
  +9.36488457777e+00
  +1.17164460843e+01
  +1.37078260690e+01
  +1.49177282342e+01
  +1.50906559036e+01
  +1.41902344689e+01
  +1.24060375724e+01
  +1.01132161659e+01
  +7.79502185966e+00
  +5.94036593359e+00
  +4.94090679339e+00
  +5.00776710572e+00
  +6.12772460894e+00
  +8.06542339852e+00
  +1.04129556116e+01
  +1.26748025324e+01
  +1.43733098762e+01
  +1.51496277626e+01
  +1.48399231542e+01
  +1.35095773984e+01
  +1.14384951657e+01
  +9.06273044912e+00
  +6.88304538503e+00
  +5.35952908412e+00
  +4.81361941630e+00
  +5.36070933748e+00
  +6.88679389917e+00
  +9.07095450987e+00
  +1.14526116550e+01
  +1.35291441048e+01
  +1.48619445140e+01
  +1.51695316907e+01
  +1.43871255543e+01
  +1.26795108339e+01
  +1.04056653617e+01
  +8.04493647608e+00
  +6.09482599079e+00
  +4.96753800837e+00
  +4.90007473933e+00
  +5.90741074004e+00
  +7.77824534984e+00
  +1.01201237710e+01
  +1.24381430612e+01
  +1.42422059500e+01
  +1.51523910112e+01
  +1.49768131219e+01
  +1.37524116832e+01
  +1.17360497743e+01
  +9.35219696570e+00
  +7.10338603940e+00
  +5.46409808990e+00
  +4.78059306082e+00
  +5.19685250770e+00
  +6.62644883999e+00
  +8.76869192173e+00
  +1.11726197627e+01
  +1.33304101347e+01
  +1.47864419204e+01
</dep>
<dep Output.Vt time>
  -2.27068075102e-01
  -2.40320131528e+00
  -3.87533138235e+00
  -4.43934802053e+00
  -3.89828016071e+00
  -2.56029934412e+00
  -5.22683351343e-01
  +1.71287516900e+00
  +3.66986554582e+00
  +4.93172783831e+00
  +5.22805467486e+00
  +4.49254782849e+00
  +2.87624605330e+00
  +7.14897589189e-01
  -1.53923384016e+00
  -3.41376671828e+00
  -4.51584094125e+00
  -4.61547007968e+00
  -3.69394394422e+00
  -1.94724851971e+00
  +2.55149292657e-01
  +2.44571136555e+00
  +4.16048494012e+00
  +5.03589210575e+00
  +4.88454735153e+00
  +3.73732576429e+00
  +1.83302376729e+00
  -4.29548482465e-01
  -2.57473562235e+00
  -4.15141877378e+00
  -4.82795656545e+00
  -4.46336866227e+00
  -3.13416482744e+00
  -1.12105944843e+00
  +1.15073233215e+00
  +3.20047602840e+00
  +4.59444261776e+00
  +5.03714302916e+00
  +4.43421390848e+00
  +2.91193171337e+00
  +7.89711853331e-01
  -1.48633509443e+00
  -3.43696529190e+00
  -4.65108368356e+00
  -4.87292738583e+00
  -4.05602357892e+00
  -2.37255142307e+00
  -1.76811860288e-01
  +2.06763269167e+00
  +3.88641527773e+00
  +4.89485651408e+00
  +4.87948005444e+00
  +3.84313744942e+00
  +2.00367088530e+00
  -2.52533125683e-01
  -2.45020287463e+00
  -4.12615480650e+00
  -4.92665352006e+00
  -4.68354350202e+00
  -3.44722917308e+00
  -1.47746600825e+00
  +8.10375199939e-01
  +2.93314172895e+00
  +4.44264527050e+00
  +5.01977742138e+00
  +4.54297038383e+00
  +3.11249698425e+00
  +1.02828367996e+00
  -1.27086119098e+00
  -3.30028235531e+00
  -4.63181696791e+00
  -4.98445087596e+00
  -4.28401929519e+00
  -2.67719229706e+00
  -5.02102937214e-01
  +1.78274070715e+00
  +3.69515028477e+00
  +4.83119938831e+00
  +4.95086442381e+00
  +4.02884311357e+00
  +2.25905797536e+00
  +1.32301398208e-02
  -2.23521617425e+00
  -4.01220613280e+00
  -4.94253101344e+00
  -4.82965738991e+00
  -3.69715751693e+00
  -1.78297355393e+00
  +5.10420905917e-01
  +2.69807601941e+00
  +4.31888887544e+00
  +5.03093695110e+00
  +4.68303656700e+00
  +3.34858951872e+00
  +1.30826553771e+00
  -1.00853144420e+00
  -3.11337137923e+00
  -4.56205615083e+00
  -5.04888725004e+00
  -4.47116997888e+00
  -2.94959544678e+00
  -8.04274052623e-01
  +1.51340032895e+00
  +3.51257865611e+00
  +4.77282967177e+00
  +5.02819990956e+00
  +4.22500425594e+00
  +2.53137678831e+00
  +3.03045520669e-01
  -1.99018343799e+00
  -3.86490880735e+00
  -4.92512630761e+00
  -4.94703188562e+00
  -3.92511961311e+00
  -2.07407220016e+00
  +2.16377365386e-01
  +2.46256619501e+00
  +4.19062799440e+00
  +5.03583804257e+00
  +4.81974253610e+00
  +3.58796552738e+00
  +1.59927512246e+00
  -7.27863948068e-01
  -2.90281873044e+00
  -4.46675934483e+00
  -5.08935198863e+00
  -4.63910918038e+00
  -3.21034671799e+00
  -1.10333676588e+00
  +1.23868317378e+00
  +3.31984702440e+00
  +4.70235783492e+00
  +5.09446872914e+00
  +4.41369394742e+00
  +2.80253131554e+00
  +5.99290658641e-01
  -1.73159600206e+00
  -3.69876731562e+00
  -4.88685357333e+00
  -5.04501130236e+00
  -4.13898606538e+00
  -2.35898319620e+00
  -7.97716420502e-02
  +2.21714259850e+00
  +4.04827014748e+00
  +5.02607058902e+00
  +4.94398588193e+00
  +3.81941604787e+00
  +1.88919672828e+00
  -4.40688024183e-01
  -2.67907415605e+00
  -4.35381311804e+00
  -5.11117866229e+00
  -4.79105022543e+00
  -3.46005131741e+00
  -1.39808982596e+00
  +9.60639516186e-01
  +3.11815618059e+00
  +4.61875575224e+00
  +5.14530975902e+00
  +4.58666285916e+00
  +3.06069823073e+00
  +8.88581569283e-01
  -1.47225727367e+00
  -3.52412525568e+00
  -4.83386242421e+00
  -5.12516401034e+00
  -4.33609457448e+00
  -2.63179469274e+00
  -3.70825428326e-01
  +1.96993627157e+00
  +3.89642308291e+00
  +5.00163058393e+00
  +5.05206552545e+00
  +4.03717644665e+00
  +2.17076838562e+00
  -1.54661846217e-01
  -2.44879541648e+00
  -4.22809198258e+00
  -5.11645051490e+00
  -4.92715878401e+00
  -3.69927319649e+00
  -1.69062919480e+00
  +6.77181616412e-01
  +2.90360591018e+00
  +4.51790134659e+00
  +5.18012418843e+00
  +4.75060879362e+00
  +3.31983473572e+00
  +1.18815240447e+00
  -1.19551829508e+00
  -3.32859312379e+00
  -4.76094027037e+00
  -5.19003806251e+00
  -4.52531520309e+00
  -2.90567025120e+00
  -6.71925035244e-01
  +1.70556915757e+00
  +3.72447270274e+00
  +4.95841267099e+00
</dep>
<dep _net3.Vt time>
  +6.17289538834e-01
  -1.62354262692e+00
  -3.25208266075e+00
  -4.03503866038e+00
  -3.71557469592e+00
  -2.53398531611e+00
  -5.79983930986e-01
  +1.67943845474e+00
  +3.76624391050e+00
  +5.24072333230e+00
  +5.79330836731e+00
  +5.30885512820e+00
  +3.88754423896e+00
  +1.82531733594e+00
  -4.43816097585e-01
  -2.44077383697e+00
  -3.74332779915e+00
  -4.07612185670e+00
  -3.36858791482e+00
  -1.76962491451e+00
  +3.84082554693e-01
  +2.63663251439e+00
  +4.51254554908e+00
  +5.61722332037e+00
  +5.71873642831e+00
  +4.79683432124e+00
  +3.04238029174e+00
  +8.22751376718e-01
  -1.39381639150e+00
  -3.13899405126e+00
  -4.04349323226e+00
  -3.91679631278e+00
  -2.78421487985e+00
  -8.84205652927e-01
  +1.38221633527e+00
  +3.53573508588e+00
  +5.12172265367e+00
  +5.80679262625e+00
  +5.44817172337e+00
  +4.12033993112e+00
  +2.10038821335e+00
  -1.86960370763e-01
  -2.25881092251e+00
  -3.67704170521e+00
  -4.14169690756e+00
  -3.55423686216e+00
  -2.03825198757e+00
  +8.72169373754e-02
  +2.37319817432e+00
  +4.33652853742e+00
  +5.56321646132e+00
  +5.79640308132e+00
  +4.98767044063e+00
  +3.30520355921e+00
  +1.10113156708e+00
  -1.15985212460e+00
  -3.00012246075e+00
  -4.03015340714e+00
  -4.03277953000e+00
  -3.00638455059e+00
  -1.16655269900e+00
  +1.09833826267e+00
  +3.30943976033e+00
  +5.00002999932e+00
  +5.81455039789e+00
  +5.58356066096e+00
  +4.35516430378e+00
  +2.38460280339e+00
  +8.60629002289e-02
  -2.05525629987e+00
  -3.58662162186e+00
  -4.18401079766e+00
  -3.72143360243e+00
  -2.29546186826e+00
  -2.06502967716e-01
  +2.10443663126e+00
  +4.14916612669e+00
  +5.49647591951e+00
  +5.86407873662e+00
  +5.17565889801e+00
  +3.57408968276e+00
  +1.39394342167e+00
  -9.05227539553e-01
  -2.83782979785e+00
  -3.99497878594e+00
  -4.13181967486e+00
  -3.21907266240e+00
  -1.44874610448e+00
  +8.06415759663e-01
  +3.06879814110e+00
  +4.86127006390e+00
  +5.80719822787e+00
  +5.70834742828e+00
  +4.58532851197e+00
  +2.67195040513e+00
  +3.69886759544e-01
  -1.83507291087e+00
  -3.47673341958e+00
  -4.20791699753e+00
  -3.87426303940e+00
  -2.54506257832e+00
  -5.00343560245e-01
  +1.82897729104e+00
  +3.94886558677e+00
  +5.41374411139e+00
  +5.91666520961e+00
  +5.35331223251e+00
  +3.83975556561e+00
  +1.69167270070e+00
  -6.38322167436e-01
  -2.65834513951e+00
  -3.94089849343e+00
  -4.21480989680e+00
  -3.42131736726e+00
  -1.72721187625e+00
  +5.10237309955e-01
  +2.81773021321e+00
  +4.70802784074e+00
  +5.78330361202e+00
  +5.81901362286e+00
  +4.80783669479e+00
  +2.95970298044e+00
  +6.62163658446e-01
  -1.60006169995e+00
  -3.34889914305e+00
  -4.21430612780e+00
  -4.01316450866e+00
  -2.78748150175e+00
  -7.95163793642e-01
  +1.54399730022e+00
  +3.73394150456e+00
  +5.31401146998e+00
  +5.95278100331e+00
  +5.51766238074e+00
  +4.09815163399e+00
  +1.98983827348e+00
  -3.63351340663e-01
  -2.46467110654e+00
  -3.86960238847e+00
  -4.28104560150e+00
  -3.61117833491e+00
  -2.00064562511e+00
  +2.10910362871e-01
  +2.55539413327e+00
  +4.53876477829e+00
