<Qucs Dataset 0.0.18>
<indep frequency 150>
  +5.00000000000e+09
  +5.06711409396e+09
  +5.13422818792e+09
  +5.20134228188e+09
  +5.26845637584e+09
  +5.33557046980e+09
  +5.40268456376e+09
  +5.46979865772e+09
  +5.53691275168e+09
  +5.60402684564e+09
  +5.67114093960e+09
  +5.73825503356e+09
  +5.80536912752e+09
  +5.87248322148e+09
  +5.93959731544e+09
  +6.00671140940e+09
  +6.07382550336e+09
  +6.14093959732e+09
  +6.20805369128e+09
  +6.27516778523e+09
  +6.34228187919e+09
  +6.40939597315e+09
  +6.47651006711e+09
  +6.54362416107e+09
  +6.61073825503e+09
  +6.67785234899e+09
  +6.74496644295e+09
  +6.81208053691e+09
  +6.87919463087e+09
  +6.94630872483e+09
  +7.01342281879e+09
  +7.08053691275e+09
  +7.14765100671e+09
  +7.21476510067e+09
  +7.28187919463e+09
  +7.34899328859e+09
  +7.41610738255e+09
  +7.48322147651e+09
  +7.55033557047e+09
  +7.61744966443e+09
  +7.68456375839e+09
  +7.75167785235e+09
  +7.81879194631e+09
  +7.88590604027e+09
  +7.95302013423e+09
  +8.02013422819e+09
  +8.08724832215e+09
  +8.15436241611e+09
  +8.22147651007e+09
  +8.28859060403e+09
  +8.35570469799e+09
  +8.42281879195e+09
  +8.48993288591e+09
  +8.55704697987e+09
  +8.62416107383e+09
  +8.69127516779e+09
  +8.75838926174e+09
  +8.82550335570e+09
  +8.89261744966e+09
  +8.95973154362e+09
  +9.02684563758e+09
  +9.09395973154e+09
  +9.16107382550e+09
  +9.22818791946e+09
  +9.29530201342e+09
  +9.36241610738e+09
  +9.42953020134e+09
  +9.49664429530e+09
  +9.56375838926e+09
  +9.63087248322e+09
  +9.69798657718e+09
  +9.76510067114e+09
  +9.83221476510e+09
  +9.89932885906e+09
  +9.96644295302e+09
  +1.00335570470e+10
  +1.01006711409e+10
  +1.01677852349e+10
  +1.02348993289e+10
  +1.03020134228e+10
  +1.03691275168e+10
  +1.04362416107e+10
  +1.05033557047e+10
  +1.05704697987e+10
  +1.06375838926e+10
  +1.07046979866e+10
  +1.07718120805e+10
  +1.08389261745e+10
  +1.09060402685e+10
  +1.09731543624e+10
  +1.10402684564e+10
  +1.11073825503e+10
  +1.11744966443e+10
  +1.12416107383e+10
  +1.13087248322e+10
  +1.13758389262e+10
  +1.14429530201e+10
  +1.15100671141e+10
  +1.15771812081e+10
  +1.16442953020e+10
  +1.17114093960e+10
  +1.17785234899e+10
  +1.18456375839e+10
  +1.19127516779e+10
  +1.19798657718e+10
  +1.20469798658e+10
  +1.21140939597e+10
  +1.21812080537e+10
  +1.22483221477e+10
  +1.23154362416e+10
  +1.23825503356e+10
  +1.24496644295e+10
  +1.25167785235e+10
  +1.25838926174e+10
  +1.26510067114e+10
  +1.27181208054e+10
  +1.27852348993e+10
  +1.28523489933e+10
  +1.29194630872e+10
  +1.29865771812e+10
  +1.30536912752e+10
  +1.31208053691e+10
  +1.31879194631e+10
  +1.32550335570e+10
  +1.33221476510e+10
  +1.33892617450e+10
  +1.34563758389e+10
  +1.35234899329e+10
  +1.35906040268e+10
  +1.36577181208e+10
  +1.37248322148e+10
  +1.37919463087e+10
  +1.38590604027e+10
  +1.39261744966e+10
  +1.39932885906e+10
  +1.40604026846e+10
  +1.41275167785e+10
  +1.41946308725e+10
  +1.42617449664e+10
  +1.43288590604e+10
  +1.43959731544e+10
  +1.44630872483e+10
  +1.45302013423e+10
  +1.45973154362e+10
  +1.46644295302e+10
  +1.47315436242e+10
  +1.47986577181e+10
  +1.48657718121e+10
  +1.49328859060e+10
  +1.50000000000e+10
</indep>
<dep dB_S11 frequency>
  -5.71449261991e-02
  -5.86989265340e-02
  -6.03101224753e-02
  -6.19813570947e-02
  -6.37156389825e-02
  -6.55161537992e-02
  -6.73862767518e-02
  -6.93295860821e-02
  -7.13498776646e-02
  -7.34511808231e-02
  -7.56377754876e-02
  -7.79142108299e-02
  -8.02853255301e-02
  -8.27562698522e-02
  -8.53325297236e-02
  -8.80199530487e-02
  -9.08247785119e-02
  -9.37536671708e-02
  -9.68137371823e-02
  -1.00012602060e-01
  -1.03358412932e-01
  -1.06859905340e-01
  -1.10526451230e-01
  -1.14368116888e-01
  -1.18395727753e-01
  -1.22620941164e-01
  -1.27056328397e-01
  -1.31715467562e-01
  -1.36613049335e-01
  -1.41764997907e-01
  -1.47188610140e-01
  -1.52902716608e-01
  -1.58927869168e-01
  -1.65286560906e-01
  -1.72003485864e-01
  -1.79105848079e-01
  -1.86623732145e-01
  -1.94590551263e-01
  -2.03043593616e-01
  -2.12024694745e-01
  -2.21581072838e-01
  -2.31766376913e-01
  -2.42642016251e-01
  -2.54278865906e-01
  -2.66759481833e-01
  -2.80181016701e-01
  -2.94659114834e-01
  -3.10333200030e-01
  -3.27373784331e-01
  -3.45992773241e-01
  -3.66458320009e-01
  -3.89116764797e-01
  -4.14425914034e-01
  -4.43007004344e-01
  -4.75728399556e-01
  -5.13844899037e-01
  -5.59237672450e-01
  -6.14842198466e-01
  -6.85438505745e-01
  -7.79159327363e-01
  -9.10450304461e-01
  -1.10597900574e+00
  -1.41633499360e+00
  -1.93774321630e+00
  -2.84485790863e+00
  -4.41438512559e+00
  -6.98343602463e+00
  -1.08548320197e+01
  -1.64219002182e+01
  -2.51828123258e+01
  -3.48466162921e+01
  -2.60639477456e+01
  -2.28622051017e+01
  -2.11518435993e+01
  -1.98463224763e+01
  -1.85876355010e+01
  -1.73081143858e+01
  -1.60744644484e+01
  -1.50002887128e+01
  -1.42101399864e+01
  -1.38483777574e+01
  -1.41361939264e+01
  -1.55392010533e+01
  -1.93952657990e+01
  -2.55946318646e+01
  -1.47705252286e+01
  -8.60698882515e+00
  -5.15086301518e+00
  -3.21448135551e+00
  -2.14644352761e+00
  -1.54707306628e+00
  -1.19505908310e+00
  -9.75819223445e-01
  -8.30655479517e-01
  -7.28820940209e-01
  -6.53606008779e-01
  -5.95543041507e-01
  -5.49036883006e-01
  -5.10643917573e-01
  -4.78162022659e-01
  -4.50131852984e-01
  -4.25553870832e-01
  -4.03722388729e-01
  -3.84125158668e-01
  -3.66380821612e-01
  -3.50198866167e-01
  -3.35353337297e-01
  -3.21665160432e-01
  -3.08989993605e-01
  -2.97209706362e-01
  -2.86226288105e-01
  -2.75957415751e-01
  -2.66333175456e-01
  -2.57293600737e-01
  -2.48786797318e-01
  -2.40767495920e-01
  -2.33195921508e-01
  -2.26036899602e-01
  -2.19259142323e-01
  -2.12834672254e-01
  -2.06738353122e-01
  -2.00947504073e-01
  -1.95441580029e-01
  -1.90201904701e-01
  -1.85211445949e-01
  -1.80454625469e-01
  -1.75917156492e-01
  -1.71585904542e-01
  -1.67448767281e-01
  -1.63494570262e-01
  -1.59712976046e-01
  -1.56094404565e-01
  -1.52629963057e-01
  -1.49311384153e-01
  -1.46130970957e-01
  -1.43081548159e-01
  -1.40156418356e-01
  -1.37349322927e-01
  -1.34654406855e-01
  -1.32066187038e-01
  -1.29579523647e-01
  -1.27189594192e-01
  -1.24891869975e-01
  -1.22682094679e-01
  -1.20556264842e-01
  -1.18510612043e-01
  -1.16541586596e-01
  -1.14645842620e-01
  -1.12820224339e-01
  -1.11061753499e-01
</dep>
<dep dB_S21 frequency>
  -9.28119324106e+01
  -9.21086589848e+01
  -9.13958624214e+01
  -9.06733117729e+01
  -8.99407703806e+01
  -8.91979954579e+01
  -8.84447376584e+01
  -8.76807406242e+01
  -8.69057405145e+01
  -8.61194655110e+01
  -8.53216352975e+01
  -8.45119605109e+01
  -8.36901421603e+01
  -8.28558710119e+01
  -8.20088269333e+01
  -8.11486781964e+01
  -8.02750807302e+01
  -7.93876773218e+01
  -7.84860967572e+01
  -7.75699528948e+01
  -7.66388436666e+01
  -7.56923499941e+01
  -7.47300346126e+01
  -7.37514407898e+01
  -7.27560909259e+01
  -7.17434850205e+01
  -7.07130989874e+01
  -6.96643827974e+01
  -6.85967584242e+01
  -6.75096175664e+01
  -6.64023191120e+01
  -6.52741863060e+01
  -6.41245035791e+01
  -6.29525129800e+01
  -6.17574101520e+01
  -6.05383397780e+01
  -5.92943904060e+01
  -5.80245885518e+01
  -5.67278919538e+01
  -5.54031818329e+01
  -5.40492539826e+01
  -5.26648084798e+01
  -5.12484377691e+01
  -4.97986128253e+01
  -4.83136670491e+01
  -4.67917774888e+01
  -4.52309429213e+01
  -4.36289582674e+01
  -4.19833847771e+01
  -4.02915154339e+01
  -3.85503351550e+01
  -3.67564757325e+01
  -3.49061663299e+01
  -3.29951822266e+01
  -3.10187984562e+01
  -2.89717632035e+01
  -2.68483229595e+01
  -2.46423674558e+01
  -2.23478388927e+01
  -1.99597134119e+01
  -1.74762091897e+01
  -1.49035774082e+01
  -1.22660558123e+01
  -9.62468222060e+00
  -7.10489860645e+00
  -4.90998412609e+00
  -3.25691953963e+00
  -2.22369590586e+00
  -1.68620955838e+00
  -1.44217277506e+00
  -1.33788060306e+00
  -1.29190971818e+00
  -1.27011660409e+00
  -1.26114415097e+00
  -1.26272107384e+00
  -1.27550434395e+00
  -1.30040760703e+00
  -1.33700428578e+00
  -1.38212309725e+00
  -1.42886782424e+00
  -1.46705086612e+00
  -1.48663300413e+00
  -1.48668419099e+00
  -1.49398294561e+00
  -1.59504463528e+00
  -1.96883753508e+00
  -2.85418700095e+00
  -4.38261701672e+00
  -6.43850650795e+00
  -8.76927091542e+00
  -1.11659317974e+01
  -1.35138130097e+01
  -1.57645254146e+01
  -1.79036283785e+01
  -1.99316471957e+01
  -2.18549289370e+01
  -2.36815859619e+01
  -2.54197956438e+01
  -2.70771472729e+01
  -2.86604432311e+01
  -3.01756902953e+01
  -3.16281641543e+01
  -3.30224960367e+01
  -3.43627598744e+01
  -3.56525516720e+01
  -3.68950586142e+01
  -3.80931179419e+01
  -3.92492665919e+01
  -4.03657828685e+01
  -4.14447214016e+01
  -4.24879425102e+01
  -4.34971369311e+01
  -4.44738467133e+01
  -4.54194829397e+01
  -4.63353408173e+01
  -4.72226125796e+01
  -4.80823985633e+01
  -4.89157167572e+01
  -4.97235110661e+01
  -5.05066584902e+01
  -5.12659753868e+01
  -5.20022229508e+01
  -5.27161120271e+01
  -5.34083073526e+01
  -5.40794313048e+01
  -5.47300672260e+01
  -5.53607623784e+01
  -5.59720305784e+01
  -5.65643545502e+01
  -5.71381880335e+01
  -5.76939576751e+01
  -5.82320647283e+01
  -5.87528865838e+01
  -5.92567781481e+01
  -5.97440730882e+01
  -6.02150849540e+01
  -6.06701081928e+01
  -6.11094190636e+01
  -6.15332764629e+01
  -6.19419226678e+01
  -6.23355840042e+01
  -6.27144714461e+01
  -6.30787811501e+01
  -6.34286949306e+01
  -6.37643806790e+01
  -6.40859927296e+01
  -6.43936721756e+01
  -6.46875471377e+01
  -6.49677329856e+01
  -6.52343325156e+01
</dep>
<dep S[2,2] frequency>
  +6.32975766627e-01-j7.65682546993e-01
  +6.18926847655e-01-j7.76855559256e-01
  +6.04401530246e-01-j7.87977061724e-01
  +5.89382398795e-01-j7.99035676018e-01
  +5.73851374807e-01-j8.10018905535e-01
  +5.57789705133e-01-j8.20913035191e-01
  +5.41177952725e-01-j8.31703022044e-01
  +5.23995990511e-01-j8.42372375937e-01
  +5.06222999113e-01-j8.52903029260e-01
  +4.87837469243e-01-j8.63275194837e-01
  +4.68817209771e-01-j8.73467210879e-01
  +4.49139362612e-01-j8.83455371817e-01
  +4.28780425786e-01-j8.93213743796e-01
  +4.07716286211e-01-j9.02713963456e-01
  +3.85922264089e-01-j9.11925018569e-01
  +3.63373171009e-01-j9.20813008973e-01
  +3.40043384277e-01-j9.29340886173e-01
  +3.15906940372e-01-j9.37468169843e-01
  +2.90937650935e-01-j9.45150639415e-01
  +2.65109245226e-01-j9.52339998832e-01
  +2.38395543645e-01-j9.58983512484e-01
  +2.10770667671e-01-j9.65023610315e-01
  +1.82209292441e-01-j9.70397460068e-01
  +1.52686949202e-01-j9.75036504701e-01
  +1.22180386066e-01-j9.78865963065e-01
  +9.06679968752e-02-j9.81804292161e-01
  +5.81303295609e-02-j9.83762609550e-01
  +2.45506872933e-02-j9.84644074928e-01
  -1.00841621472e-02-j9.84343230482e-01
  -4.57831507786e-02-j9.82745300469e-01
  -8.25499276478e-02-j9.79725451588e-01
  -1.20381704449e-01-j9.75148017230e-01
  -1.59267901024e-01-j9.68865690649e-01
  -1.99188557440e-01-j9.60718694736e-01
  -2.40112473726e-01-j9.50533939423e-01
  -2.81995031628e-01-j9.38124182202e-01
  -3.24775644880e-01-j9.23287212936e-01
  -3.68374774976e-01-j9.05805091588e-01
  -4.12690438111e-01-j8.85443477158e-01
  -4.57594115251e-01-j8.61951098742e-01
  -5.02925960572e-01-j8.35059436176e-01
  -5.48489183046e-01-j8.04482699575e-01
  -5.94043450548e-01-j7.69918226183e-01
  -6.39297134107e-01-j7.31047452040e-01
  -6.83898169753e-01-j6.87537669258e-01
  -7.27423264172e-01-j6.39044853122e-01
  -7.69365104282e-01-j5.85217946203e-01
  -8.09117144956e-01-j5.25705133469e-01
  -8.45955436772e-01-j4.60162855676e-01
  -8.79016808591e-01-j3.88268624899e-01
  -9.07272528195e-01-j3.09739186321e-01
  -9.29496319964e-01-j2.24356316986e-01
  -9.44225322869e-01-j1.32003742525e-01
  -9.49712259650e-01-j3.27206019360e-02
  -9.43866892695e-01+j7.32198312374e-02
  -9.24185172667e-01+j1.85191805103e-01
  -8.87666503149e-01+j3.02034776967e-01
  -8.30726449144e-01+j4.21764960651e-01
  -7.49132736461e-01+j5.41106975065e-01
  -6.38050054153e-01+j6.54718956235e-01
  -4.92435528402e-01+j7.53912612257e-01
  -3.08428642559e-01+j8.24652018616e-01
  -8.72838467482e-02+j8.45043080524e-01
  +1.55314911585e-01+j7.84821402776e-01
  +3.73657783914e-01+j6.16274717822e-01
  +4.87872912421e-01+j3.51933861770e-01
  +4.39333131288e-01+j8.52940596460e-02
  +2.78639973429e-01-j6.70268396714e-02
  +1.23511127732e-01-j8.68242292690e-02
  +3.73211793228e-02-j4.04852659820e-02
  +1.43914298328e-02+j1.09764557930e-02
  +2.70045157979e-02+j4.17842940080e-02
  +5.27403044914e-02+j4.89070665048e-02
  +7.92930016698e-02+j3.71884120080e-02
  +1.01113432432e-01+j1.16732407413e-02
  +1.15100614983e-01-j2.43935861108e-02
  +1.17917872844e-01-j6.84213983897e-02
  +1.05662195342e-01-j1.16307120243e-01
  +7.55782644350e-02-j1.60961487254e-01
  +2.87669356358e-02-j1.92620713536e-01
  -2.74375162251e-02-j2.01177361500e-01
  -7.83968878772e-02-j1.80098753827e-01
  -1.02903255007e-01-j1.31687115075e-01
  -7.72102871404e-02-j7.43816543745e-02
  +1.15864408006e-02-j5.12190353930e-02
  +1.33878791368e-01-j1.24157473950e-01
  +1.93075236622e-01-j3.17077942522e-01
  +9.88384836101e-02-j5.43748439226e-01
  -1.18199180867e-01-j6.80489333636e-01
  -3.58930864911e-01-j6.93689332880e-01
  -5.61321172838e-01-j6.20670891366e-01
  -7.10589511774e-01-j5.04483534542e-01
  -8.12442078981e-01-j3.72425996022e-01
  -8.76882935573e-01-j2.38724951766e-01
  -9.12891597572e-01-j1.10169373801e-01
  -9.27455814673e-01+j1.02403799786e-02
  -9.25810861148e-01+j1.21375972936e-01
  -9.11867335170e-01+j2.23029693777e-01
  -8.88574218112e-01+j3.15444364208e-01
  -8.58184645483e-01+j3.99077545415e-01
  -8.22442561304e-01+j4.74480768243e-01
  -7.82713182083e-01+j5.42236481863e-01
  -7.40075137714e-01+j6.02924762848e-01
  -6.95386643211e-01+j6.57105809649e-01
  -6.49333923562e-01+j7.05311038143e-01
  -6.02467323101e-01+j7.48038974648e-01
  -5.55228710372e-01+j7.85753872567e-01
  -5.07972611234e-01+j8.18885889152e-01
  -4.60982736797e-01+j8.47832151939e-01
  -4.14485068829e-01+j8.72958318972e-01
  -3.68658328889e-01+j8.94600394198e-01
  -3.23642429221e-01+j9.13066651958e-01
  -2.79545345807e-01+j9.28639580319e-01
  -2.36448743350e-01+j9.41577787510e-01
  -1.94412602787e-01+j9.52117837579e-01
  -1.53479044509e-01+j9.60475995365e-01
  -1.13675498041e-01+j9.66849870094e-01
  -7.50173371445e-02+j9.71419952921e-01
  -3.75100751838e-02+j9.74351047757e-01
  -1.15119702544e-03+j9.75793597319e-01
  +3.40683107258e-02+j9.75884908087e-01
  +6.81626807230e-02+j9.74750278859e-01
  +1.01150295713e-01+j9.72504038278e-01
  +1.33052795067e-01+j9.69250496950e-01
  +1.63894328706e-01+j9.65084819924e-01
  +1.93700934890e-01+j9.60093825212e-01
  +2.22500022208e-01+j9.54356713885e-01
  +2.50319939344e-01+j9.47945737060e-01
  +2.77189618797e-01+j9.40926804811e-01
  +3.03138282966e-01+j9.33360041767e-01
  +3.28195202808e-01+j9.25300293830e-01
  +3.52389500833e-01+j9.16797590165e-01
  +3.75749991447e-01+j9.07897564298e-01
  +3.98305052765e-01+j8.98641837872e-01
  +4.20082524888e-01+j8.89068370329e-01
  +4.41109630422e-01+j8.79211777530e-01
  +4.61412913653e-01+j8.69103622057e-01
  +4.81018195338e-01+j8.58772677738e-01
  +4.99950540537e-01+j8.48245170688e-01
  +5.18234237292e-01+j8.37544998975e-01
  +5.35892784313e-01+j8.26693932844e-01
  +5.52948886087e-01+j8.15711797228e-01
  +5.69424454089e-01+j8.04616638169e-01
  +5.85340612955e-01+j7.93424874566e-01
  +6.00717710683e-01+j7.82151436602e-01
  +6.15575332040e-01+j7.70809892022e-01
  +6.29932314501e-01+j7.59412561373e-01
  +6.43806766156e-01+j7.47970623184e-01
  +6.57216085089e-01+j7.36494209985e-01
  +6.70176979843e-01+j7.24992495989e-01
</dep>
<dep S[2,1] frequency>
  +1.81699671769e-05+j1.39003526250e-05
  +1.99754355020e-05+j1.47088012071e-05
  +2.19786657477e-05+j1.55584292339e-05
  +2.42034740459e-05+j1.64492064351e-05
  +2.66767923934e-05+j1.73804572700e-05
  +2.94291057514e-05+j1.83506735024e-05
  +3.24949539286e-05+j1.93572819979e-05
  +3.59135081987e-05+j2.03963574169e-05
  +3.97292341398e-05+j2.14622670810e-05
  +4.39926539445e-05+j2.25472323064e-05
  +4.87612234588e-05+j2.36407868092e-05
  +5.41003414909e-05+j2.47291081923e-05
  +6.00845115138e-05+j2.57941928178e-05
  +6.67986787715e-05+j2.68128372514e-05
  +7.43397690097e-05+j2.77553805963e-05
  +8.28184585631e-05+j2.85841509432e-05
  +9.23612093012e-05+j2.92515452995e-05
  +1.03112605891e-04+j2.96976549796e-05
  +1.15238036808e-04+j2.98473266428e-05
  +1.28926764293e-04+j2.96065217655e-05
  +1.44395431590e-04+j2.88578028691e-05
  +1.61892057756e-04+j2.74547313821e-05
  +1.81700570166e-04+j2.52149072022e-05
  +2.04145921265e-04+j2.19113107566e-05
  +2.29599827160e-04+j1.72615207162e-05
  +2.58487148535e-04+j1.09142694897e-05
  +2.91292904948e-04+j2.43265781108e-06
  +3.28569866047e-04-j8.72682904190e-06
  +3.70946589053e-04-j2.32405880006e-05
  +4.19135658979e-04-j4.19508213272e-05
  +4.73941718901e-04-j6.59068567840e-05
  +5.36268627385e-04-j9.64170726447e-05
  +6.07124712766e-04-j1.35114229118e-04
  +6.87624558028e-04-j1.84037761730e-04
  +7.78984971169e-04-j2.45737547792e-04
  +8.82511667091e-04-j3.23404864537e-04
  +9.99571553517e-04-j4.21037776474e-04
  +1.13154315070e-03-j5.43650087803e-04
  +1.27973425656e-03-j6.97535345514e-04
  +1.44525101945e-03-j8.90600246512e-04
  +1.62879540382e-03-j1.13278522813e-03
  +1.83035760648e-03-j1.43659397856e-03
  +2.04875479716e-03-j1.81775792016e-03
  +2.28094538837e-03-j2.29606593339e-03
  +2.52101558588e-03-j2.89639268665e-03
  +2.75868732902e-03-j3.64995886408e-03
  +2.97712661335e-03-j4.59584936370e-03
  +3.14972778314e-03-j5.78279365947e-03
  +3.23539672445e-03-j7.27116196127e-03
  +3.17163067737e-03-j9.13502554806e-03
  +2.86436136319e-03-j1.14639214237e-02
  +2.17304592168e-03-j1.43635604734e-02
  +8.88800645125e-04-j1.79539567209e-02
  -1.29757721821e-03-j2.23620173327e-02
  -4.84206153460e-03-j2.77029213621e-02
  -1.04139300043e-02-j3.40394972772e-02
  -1.89883652952e-02-j4.12991506653e-02
  -3.19677521204e-02-j4.91097748637e-02
  -5.13187994301e-02-j5.64828323195e-02
  -7.96616062792e-02-j6.12145682592e-02
  -1.20098270615e-01-j5.87952515061e-02
  -1.75173797878e-01-j4.05815459016e-02
  -2.43458858894e-01+j8.61332690339e-03
  -3.10938158503e-01+j1.11103051943e-01
  -3.36279618750e-01+j2.85798303129e-01
  -2.47600309729e-01+j5.11414390533e-01
  +1.47791032504e-03+j6.87310563852e-01
  +3.43924005016e-01+j6.93539574712e-01
  +6.42771986844e-01+j5.14856651545e-01
  +8.15536301253e-01+j2.28770212185e-01
  +8.53091906791e-01-j8.43006744541e-02
  +7.76749985848e-01-j3.73298730573e-01
  +6.13185536153e-01-j6.08631428260e-01
  +3.88926430820e-01-j7.72469191784e-01
  +1.30389583264e-01-j8.54809591666e-01
  -1.36180333233e-01-j8.52618442756e-01
  -3.85679566849e-01-j7.69734980768e-01
  -5.95730111344e-01-j6.16543864408e-01
  -7.48463213981e-01-j4.08933888899e-01
  -8.31847829831e-01-j1.66330231298e-01
  -8.39696122515e-01+j9.08167858632e-02
  -7.69814830350e-01+j3.42802026398e-01
  -6.20984101927e-01+j5.69647678669e-01
  -3.91942810402e-01+j7.45190003175e-01
  -9.03949802658e-02+j8.27314667117e-01
  +2.37901859698e-01+j7.60857225220e-01
  +4.85414805675e-01+j5.31669610859e-01
  +5.55576741881e-01+j2.36365606216e-01
  +4.76441807647e-01+j8.23169187652e-03
  +3.47054848633e-01-j1.10971454469e-01
  +2.30941613913e-01-j1.52056352268e-01
  +1.45208483225e-01-j1.53104574641e-01
  +8.68242701541e-02-j1.37767756549e-01
  +4.85043437888e-02-j1.17694033875e-01
  +2.38572261172e-02-j9.79258187870e-02
  +8.26155808562e-03-j8.03470212066e-02
  -1.40983569114e-03-j6.54364796905e-02
  -7.22263142015e-03-j5.30918945268e-02
  -1.05313963708e-02-j4.30025753018e-02
  -1.22239978709e-02-j3.48120614108e-02
  -1.28835169841e-02-j2.81845374582e-02
  -1.28936376796e-02-j2.28279005986e-02
  -1.25070143299e-02-j1.84979035750e-02
  -1.18897564623e-02-j1.49946148490e-02
  -1.11505407010e-02-j1.21563007999e-02
  -1.03597901071e-02-j9.85296827187e-03
  -9.56239413824e-03-j7.98047043751e-03
  -8.78619614274e-03-j6.45546686366e-03
  -8.04768612023e-03-j5.21125934451e-03
