<Qucs Dataset 0.0.20>
<indep Vx 101>
  +0.00000000000000000000e+00
  +5.99999999999999977796e-02
  +1.19999999999999995559e-01
  +1.79999999999999993339e-01
  +2.39999999999999991118e-01
  +2.99999999999999988898e-01
  +3.59999999999999986677e-01
  +4.19999999999999984457e-01
  +4.79999999999999982236e-01
  +5.40000000000000035527e-01
  +5.99999999999999977796e-01
  +6.59999999999999920064e-01
  +7.19999999999999973355e-01
  +7.80000000000000026645e-01
  +8.39999999999999968914e-01
  +8.99999999999999911182e-01
  +9.59999999999999964473e-01
  +1.02000000000000001776e+00
  +1.08000000000000007105e+00
  +1.13999999999999990230e+00
  +1.19999999999999995559e+00
  +1.26000000000000000888e+00
  +1.31999999999999984013e+00
  +1.37999999999999989342e+00
  +1.43999999999999994671e+00
  +1.50000000000000000000e+00
  +1.56000000000000005329e+00
  +1.61999999999999988454e+00
  +1.67999999999999993783e+00
  +1.73999999999999999112e+00
  +1.79999999999999982236e+00
  +1.85999999999999987566e+00
  +1.91999999999999992895e+00
  +1.97999999999999998224e+00
  +2.04000000000000003553e+00
  +2.10000000000000008882e+00
  +2.16000000000000014211e+00
  +2.21999999999999975131e+00
  +2.27999999999999980460e+00
  +2.33999999999999985789e+00
  +2.39999999999999991118e+00
  +2.45999999999999996447e+00
  +2.52000000000000001776e+00
  +2.58000000000000007105e+00
  +2.63999999999999968026e+00
  +2.69999999999999973355e+00
  +2.75999999999999978684e+00
  +2.81999999999999984013e+00
  +2.87999999999999989342e+00
  +2.93999999999999994671e+00
  +3.00000000000000000000e+00
  +3.06000000000000005329e+00
  +3.12000000000000010658e+00
  +3.17999999999999971578e+00
  +3.23999999999999976907e+00
  +3.29999999999999982236e+00
  +3.35999999999999987566e+00
  +3.41999999999999992895e+00
  +3.47999999999999998224e+00
  +3.54000000000000003553e+00
  +3.59999999999999964473e+00
  +3.65999999999999969802e+00
  +3.71999999999999975131e+00
  +3.77999999999999980460e+00
  +3.83999999999999985789e+00
  +3.89999999999999991118e+00
  +3.95999999999999996447e+00
  +4.01999999999999957367e+00
  +4.08000000000000007105e+00
  +4.13999999999999968026e+00
  +4.20000000000000017764e+00
  +4.25999999999999978684e+00
  +4.32000000000000028422e+00
  +4.37999999999999989342e+00
  +4.43999999999999950262e+00
  +4.50000000000000000000e+00
  +4.55999999999999960920e+00
  +4.62000000000000010658e+00
  +4.67999999999999971578e+00
  +4.74000000000000021316e+00
  +4.79999999999999982236e+00
  +4.85999999999999943157e+00
  +4.91999999999999992895e+00
  +4.97999999999999953815e+00
  +5.04000000000000003553e+00
  +5.09999999999999964473e+00
  +5.16000000000000014211e+00
  +5.21999999999999975131e+00
  +5.27999999999999936051e+00
  +5.33999999999999985789e+00
  +5.39999999999999946709e+00
  +5.45999999999999996447e+00
  +5.51999999999999957367e+00
  +5.58000000000000007105e+00
  +5.63999999999999968026e+00
  +5.70000000000000017764e+00
  +5.75999999999999978684e+00
  +5.81999999999999939604e+00
  +5.87999999999999989342e+00
  +5.93999999999999950262e+00
  +6.00000000000000000000e+00
</indep>
<dep Rout Vx>
  +1.59628249870627423661e+04
  +1.61186978617050717730e+04
  +1.64366531132688141952e+04
  +1.67674059619694926369e+04
  +1.71117450084197989781e+04
  +1.74705250117248215247e+04
  +1.78446739767566905357e+04
  +1.82352011725623087841e+04
  +1.86432062278401499498e+04
  +1.90698894761629489949e+04
  +1.95165637560086652229e+04
  +1.99846679100442197523e+04
  +2.04757822762083014823e+04
  +2.09916465221625694539e+04
  +2.15341802474428077403e+04
  +2.21055068678077586810e+04
  +2.27079814085882026120e+04
  +2.33442229745025397278e+04
  +2.40171528406200486643e+04
  +2.47300393337718269322e+04
  +2.54865509602760539565e+04
  +2.62908196039336253307e+04
  +2.71475160944792660302e+04
  +2.80619410675564286066e+04
  +2.90401348533352829691e+04
  +3.00890112128022701654e+04
  +3.12165211883806259721e+04
  +3.24318552916509070201e+04
  +3.37456949221771428711e+04
  +3.51705276006562489783e+04
  +3.67210457571672741324e+04
  +3.84146561209163628519e+04
  +4.02721372544055921026e+04
  +4.23184980910339800175e+04
  +4.45841130634307628497e+04
  +4.71062437657913105795e+04
  +4.99311100911294925027e+04
  +5.31167573950226505985e+04
  +5.67371014792641872191e+04
  +6.08877581446815311210e+04
  +6.56946502214705978986e+04
  +7.13270720384313608520e+04
  +7.80181650020111410413e+04
  +8.60982347122695646249e+04
  +9.60514345347644702997e+04
  +1.08617548603300179821e+05
  +1.24987378412615333218e+05
  +1.47211139574499538867e+05
  +1.79154124966935021803e+05
  +2.29117472975387325278e+05
  +3.19016706218392355368e+05
  +5.34884768560804310255e+05
  +2.02430326919812546112e+06
  +1.26002948409111718750e+12
  +2.52005417689128808594e+12
  +2.52005417689128808594e+12
  +2.52005417689128808594e+12
  +2.52005417689128808594e+12
  +2.52005561135243896484e+12
  +2.52005417689127929688e+12
  +2.52005417689127929688e+12
  +2.52005417689128808594e+12
  +2.52005417689128808594e+12
  +2.52005561135243896484e+12
  +2.52005417689128808594e+12
  +2.52005417689128808594e+12
  +2.52005417689127929688e+12
  +2.52005417689128808594e+12
  +2.52005561135243847656e+12
  +2.52005417689128808594e+12
  +2.52005417689128808594e+12
  +2.52005417689128808594e+12
  +2.52005417689128808594e+12
  +2.52005561135241992188e+12
  +2.52005417689128808594e+12
  +2.52005417689128808594e+12
  +2.52005417689128808594e+12
  +2.52005417689128808594e+12
  +2.52005561135243847656e+12
  +2.52005417689128808594e+12
  +2.52005417689126953125e+12
  +2.52005417689128808594e+12
  +2.52005417689128808594e+12
  +2.52005561135243847656e+12
  +2.52005417689128808594e+12
  +2.52005417689128808594e+12
  +2.52005561135243847656e+12
  +2.52005417689126953125e+12
  +2.52005417689128808594e+12
  +2.52005417689128808594e+12
  +2.52005417689128808594e+12
  +2.52005561135243847656e+12
  +2.52005417689128808594e+12
  +2.52005417689128808594e+12
  +2.52005417689128808594e+12
  +2.52005417689128808594e+12
  +2.52005561135241992188e+12
  +2.52005417689128808594e+12
  +2.52005417689128808594e+12
  +2.52005417689128808594e+12
  +2.52005274243015625000e+12
</dep>
<dep Ix Vx>
  -0.00000000000000000000e+00
  +3.75873318467299456755e-06
  +7.44546636934599050209e-06
  +1.10601995540189856860e-05
  +1.46029327386919813899e-05
  +1.80736659233649716845e-05
  +2.14723991080379735105e-05
  +2.47991322927109597628e-05
  +2.80538654773839609346e-05
  +3.12365986620569499209e-05
  +3.43473318467299538266e-05
  +3.73860650314029421587e-05
  +4.03527982160759284697e-05
  +4.32475314007489330882e-05
  +4.60702645854219153569e-05
  +4.88209977700949091569e-05
  +5.14997309547679144883e-05
  +5.41064641394409042460e-05
  +5.66411973241139123114e-05
  +5.91039305087869048030e-05
  +6.14946636934599088261e-05
  +6.38133968781329040517e-05
  +6.60601300628058633749e-05
  +6.82348632474788816633e-05
  +7.03375964321518911543e-05
  +7.23683296168248647428e-05
  +7.43270628014978566389e-05
  +7.62137959861708261852e-05
  +7.80285291708438546966e-05
  +7.97712623555168473055e-05
  +8.14419955401898311171e-05
  +8.30407287248628467888e-05
  +8.45674619095358401106e-05
  +8.60221950942088246349e-05
  +8.74049282788818410195e-05
  +8.87156614635548350541e-05
  +8.99543946482278338438e-05
  +9.11211278329008373886e-05
  +9.22158610175738456885e-05
  +9.32385942022467909809e-05
  +9.41893273869198087911e-05
  +9.50680605715927906987e-05
  +9.58747937562657638090e-05
  +9.66095269409387687794e-05
  +9.72722601256117378474e-05
  +9.78629933102847658806e-05
  +9.83817264949577580113e-05
  +9.88284596796307684497e-05
  +9.92031928643037700906e-05
  +9.95059260489767358291e-05
  +9.97366592336497469803e-05
  +9.98953924183227222290e-05
  +9.99821256029956886803e-05
  +9.99999996102157305989e-05
  +9.99999996340247289915e-05
  +9.99999996578337544892e-05
  +9.99999996816427528818e-05
  +9.99999997054517783795e-05
  +9.99999997292607767721e-05
  +9.99999997530697751647e-05
  +9.99999997768788006624e-05
  +9.99999998006877990550e-05
  +9.99999998244968245527e-05
  +9.99999998483058229453e-05
  +9.99999998721148213379e-05
  +9.99999998959238468356e-05
  +9.99999999197328452282e-05
  +9.99999999435418707259e-05
  +9.99999999673508691185e-05
  +9.99999999911598675111e-05
  +1.00000000014968893009e-04
  +1.00000000038777891401e-04
  +1.00000000062586916899e-04
  +1.00000000086395915292e-04
  +1.00000000110204913684e-04
  +1.00000000134013939182e-04
  +1.00000000157822937575e-04
  +1.00000000181631963072e-04
  +1.00000000205440961465e-04
  +1.00000000229249959858e-04
  +1.00000000253058985355e-04
  +1.00000000276867983748e-04
  +1.00000000300677009245e-04
  +1.00000000324486007638e-04
  +1.00000000348295006031e-04
  +1.00000000372104031528e-04
  +1.00000000395913029921e-04
  +1.00000000419722028314e-04
  +1.00000000443531053811e-04
  +1.00000000467340052204e-04
  +1.00000000491149077702e-04
  +1.00000000514958076094e-04
  +1.00000000538767074487e-04
  +1.00000000562576099985e-04
  +1.00000000586385098377e-04
  +1.00000000610194123875e-04
  +1.00000000634003122267e-04
  +1.00000000657812120660e-04
  +1.00000000681621146158e-04
  +1.00000000705430144550e-04
  +1.00000000729239170048e-04
</dep>
<dep V1.I Vx>
  +0.00000000000000000000e+00
  -3.75873318467299456755e-06
  -7.44546636934599050209e-06
  -1.10601995540189856860e-05
  -1.46029327386919813899e-05
  -1.80736659233649716845e-05
  -2.14723991080379735105e-05
  -2.47991322927109597628e-05
  -2.80538654773839609346e-05
  -3.12365986620569499209e-05
  -3.43473318467299538266e-05
  -3.73860650314029421587e-05
  -4.03527982160759284697e-05
  -4.32475314007489330882e-05
  -4.60702645854219153569e-05
  -4.88209977700949091569e-05
  -5.14997309547679144883e-05
  -5.41064641394409042460e-05
  -5.66411973241139123114e-05
  -5.91039305087869048030e-05
  -6.14946636934599088261e-05
  -6.38133968781329040517e-05
  -6.60601300628058633749e-05
  -6.82348632474788816633e-05
  -7.03375964321518911543e-05
  -7.23683296168248647428e-05
  -7.43270628014978566389e-05
  -7.62137959861708261852e-05
  -7.80285291708438546966e-05
  -7.97712623555168473055e-05
  -8.14419955401898311171e-05
  -8.30407287248628467888e-05
  -8.45674619095358401106e-05
  -8.60221950942088246349e-05
  -8.74049282788818410195e-05
  -8.87156614635548350541e-05
  -8.99543946482278338438e-05
  -9.11211278329008373886e-05
  -9.22158610175738456885e-05
  -9.32385942022467909809e-05
  -9.41893273869198087911e-05
  -9.50680605715927906987e-05
  -9.58747937562657638090e-05
  -9.66095269409387687794e-05
  -9.72722601256117378474e-05
  -9.78629933102847658806e-05
  -9.83817264949577580113e-05
  -9.88284596796307684497e-05
  -9.92031928643037700906e-05
  -9.95059260489767358291e-05
  -9.97366592336497469803e-05
  -9.98953924183227222290e-05
  -9.99821256029956886803e-05
  -9.99999996102157305989e-05
  -9.99999996340247289915e-05
  -9.99999996578337544892e-05
  -9.99999996816427528818e-05
  -9.99999997054517783795e-05
  -9.99999997292607767721e-05
  -9.99999997530697751647e-05
  -9.99999997768788006624e-05
  -9.99999998006877990550e-05
  -9.99999998244968245527e-05
  -9.99999998483058229453e-05
  -9.99999998721148213379e-05
  -9.99999998959238468356e-05
  -9.99999999197328452282e-05
  -9.99999999435418707259e-05
  -9.99999999673508691185e-05
  -9.99999999911598675111e-05
  -1.00000000014968893009e-04
  -1.00000000038777891401e-04
  -1.00000000062586916899e-04
  -1.00000000086395915292e-04
  -1.00000000110204913684e-04
  -1.00000000134013939182e-04
  -1.00000000157822937575e-04
  -1.00000000181631963072e-04
  -1.00000000205440961465e-04
  -1.00000000229249959858e-04
  -1.00000000253058985355e-04
  -1.00000000276867983748e-04
  -1.00000000300677009245e-04
  -1.00000000324486007638e-04
  -1.00000000348295006031e-04
  -1.00000000372104031528e-04
  -1.00000000395913029921e-04
  -1.00000000419722028314e-04
  -1.00000000443531053811e-04
  -1.00000000467340052204e-04
  -1.00000000491149077702e-04
  -1.00000000514958076094e-04
  -1.00000000538767074487e-04
  -1.00000000562576099985e-04
  -1.00000000586385098377e-04
  -1.00000000610194123875e-04
  -1.00000000634003122267e-04
  -1.00000000657812120660e-04
  -1.00000000681621146158e-04
  -1.00000000705430144550e-04
  -1.00000000729239170048e-04
</dep>
<dep V2.I Vx>
  +9.99999999999999912396e-05
  +9.99999999999999912396e-05
  +9.99999999999999912396e-05
  +9.99999999999999912396e-05
  +9.99999999999999912396e-05
  +9.99999999999999912396e-05
  +9.99999999999999912396e-05
  +9.99999999999999912396e-05
  +9.99999999999999912396e-05
  +9.99999999999999912396e-05
  +9.99999999999999912396e-05
  +9.99999999999999912396e-05
  +9.99999999999999912396e-05
  +9.99999999999999912396e-05
  +9.99999999999999912396e-05
  +9.99999999999999912396e-05
  +9.99999999999999912396e-05
  +9.99999999999999912396e-05
  +9.99999999999999912396e-05
  +9.99999999999999912396e-05
  +9.99999999999999912396e-05
  +9.99999999999999912396e-05
  +9.99999999999999912396e-05
  +9.99999999999999912396e-05
  +9.99999999999999912396e-05
  +9.99999999999999912396e-05
  +9.99999999999999912396e-05
  +9.99999999999999912396e-05
  +9.99999999999999912396e-05
  +9.99999999999999912396e-05
  +9.99999999999999912396e-05
  +9.99999999999999912396e-05
  +9.99999999999999912396e-05
  +9.99999999999999912396e-05
  +9.99999999999999912396e-05
  +9.99999999999999912396e-05
  +9.99999999999999912396e-05
  +9.99999999999999912396e-05
  +9.99999999999999912396e-05
  +9.99999999999999912396e-05
  +9.99999999999999912396e-05
  +9.99999999999999912396e-05
  +9.99999999999999912396e-05
  +9.99999999999999912396e-05
  +9.99999999999999912396e-05
  +9.99999999999999912396e-05
  +9.99999999999999912396e-05
  +9.99999999999999912396e-05
  +9.99999999999999912396e-05
  +9.99999999999999912396e-05
  +9.99999999999999912396e-05
  +9.99999999999999912396e-05
  +9.99999999999999912396e-05
  +9.99999999999999912396e-05
  +9.99999999999999912396e-05
  +9.99999999999999912396e-05
  +9.99999999999999912396e-05
  +9.99999999999999912396e-05
  +9.99999999999999912396e-05
  +9.99999999999999912396e-05
  +9.99999999999999912396e-05
  +9.99999999999999912396e-05
  +9.99999999999999912396e-05
  +9.99999999999999912396e-05
  +9.99999999999999912396e-05
  +9.99999999999999912396e-05
  +9.99999999999999912396e-05
  +9.99999999999999912396e-05
  +9.99999999999999912396e-05
  +9.99999999999999912396e-05
  +9.99999999999999912396e-05
  +9.99999999999999912396e-05
  +9.99999999999999912396e-05
  +9.99999999999999912396e-05
  +9.99999999999999912396e-05
  +9.99999999999999912396e-05
  +9.99999999999999912396e-05
  +9.99999999999999912396e-05
  +9.99999999999999912396e-05
  +9.99999999999999912396e-05
  +9.99999999999999912396e-05
  +9.99999999999999912396e-05
  +9.99999999999999912396e-05
  +9.99999999999999912396e-05
  +9.99999999999999912396e-05
  +9.99999999999999912396e-05
  +9.99999999999999912396e-05
  +9.99999999999999912396e-05
  +9.99999999999999912396e-05
  +9.99999999999999912396e-05
  +9.99999999999999912396e-05
  +9.99999999999999912396e-05
  +9.99999999999999912396e-05
  +9.99999999999999912396e-05
  +9.99999999999999912396e-05
  +9.99999999999999912396e-05
  +9.99999999999999912396e-05
  +9.99999999999999912396e-05
  +9.99999999999999912396e-05
  +9.99999999999999912396e-05
  +9.99999999999999912396e-05
</dep>
<dep _net0.V Vx>
  +4.16227763405332140678e+00
  +4.16227763405332140678e+00
  +4.16227763405332140678e+00
  +4.16227763405332140678e+00
  +4.16227763405332140678e+00
  +4.16227763405332140678e+00
  +4.16227763405332140678e+00
  +4.16227763405332140678e+00
  +4.16227763405332140678e+00
  +4.16227763405332140678e+00
  +4.16227763405332140678e+00
  +4.16227763405332140678e+00
  +4.16227763405332140678e+00
  +4.16227763405332140678e+00
  +4.16227763405332140678e+00
  +4.16227763405332140678e+00
  +4.16227763405332140678e+00
  +4.16227763405332140678e+00
  +4.16227763405332140678e+00
  +4.16227763405332140678e+00
  +4.16227763405332140678e+00
  +4.16227763405332140678e+00
  +4.16227763405332140678e+00
  +4.16227763405332140678e+00
  +4.16227763405332140678e+00
  +4.16227763405332140678e+00
  +4.16227763405332140678e+00
  +4.16227763405332140678e+00
  +4.16227763405332140678e+00
  +4.16227763405332140678e+00
  +4.16227763405332140678e+00
  +4.16227763405332140678e+00
  +4.16227763405332140678e+00
  +4.16227763405332140678e+00
  +4.16227763405332140678e+00
  +4.16227763405332140678e+00
  +4.16227763405332140678e+00
  +4.16227763405332140678e+00
  +4.16227763405332140678e+00
  +4.16227763405332140678e+00
  +4.16227763405332140678e+00
  +4.16227763405332140678e+00
  +4.16227763405332140678e+00
  +4.16227763405332140678e+00
  +4.16227763405332140678e+00
  +4.16227763405332140678e+00
  +4.16227763405332140678e+00
  +4.16227763405332140678e+00
  +4.16227763405332140678e+00
  +4.16227763405332140678e+00
  +4.16227763405332140678e+00
  +4.16227763405332140678e+00
  +4.16227763405332140678e+00
  +4.16227763405332140678e+00
  +4.16227763405332140678e+00
  +4.16227763405332140678e+00
  +4.16227763405332140678e+00
  +4.16227763405332140678e+00
  +4.16227763405332140678e+00
  +4.16227763405332140678e+00
  +4.16227763405332140678e+00
  +4.16227763405332140678e+00
  +4.16227763405332140678e+00
  +4.16227763405332140678e+00
  +4.16227763405332140678e+00
  +4.16227763405332140678e+00
  +4.16227763405332140678e+00
  +4.16227763405332140678e+00
  +4.16227763405332140678e+00
  +4.16227763405332140678e+00
  +4.16227763405332140678e+00
  +4.16227763405332140678e+00
  +4.16227763405332140678e+00
  +4.16227763405332140678e+00
  +4.16227763405332140678e+00
  +4.16227763405332140678e+00
  +4.16227763405332140678e+00
  +4.16227763405332140678e+00
  +4.16227763405332140678e+00
  +4.16227763405332140678e+00
  +4.16227763405332140678e+00
  +4.16227763405332140678e+00
  +4.16227763405332140678e+00
  +4.16227763405332140678e+00
  +4.16227763405332140678e+00
  +4.16227763405332140678e+00
  +4.16227763405332140678e+00
  +4.16227763405332140678e+00
  +4.16227763405332140678e+00
  +4.16227763405332140678e+00
  +4.16227763405332140678e+00
  +4.16227763405332140678e+00
  +4.16227763405332140678e+00
  +4.16227763405332140678e+00
  +4.16227763405332140678e+00
  +4.16227763405332140678e+00
  +4.16227763405332140678e+00
  +4.16227763405332140678e+00
  +4.16227763405332140678e+00
  +4.16227763405332140678e+00
  +4.16227763405332140678e+00
</dep>
<dep _net1.V Vx>
  +4.16227763405332140678e+00
  +4.16227763405332140678e+00
  +4.16227763405332140678e+00
  +4.16227763405332140678e+00
  +4.16227763405332140678e+00
  +4.16227763405332140678e+00
  +4.16227763405332140678e+00
  +4.16227763405332140678e+00
  +4.16227763405332140678e+00
  +4.16227763405332140678e+00
  +4.16227763405332140678e+00
  +4.16227763405332140678e+00
  +4.16227763405332140678e+00
  +4.16227763405332140678e+00
  +4.16227763405332140678e+00
  +4.16227763405332140678e+00
  +4.16227763405332140678e+00
  +4.16227763405332140678e+00
  +4.16227763405332140678e+00
  +4.16227763405332140678e+00
  +4.16227763405332140678e+00
  +4.16227763405332140678e+00
  +4.16227763405332140678e+00
  +4.16227763405332140678e+00
  +4.16227763405332140678e+00
  +4.16227763405332140678e+00
  +4.16227763405332140678e+00
  +4.16227763405332140678e+00
  +4.16227763405332140678e+00
  +4.16227763405332140678e+00
  +4.16227763405332140678e+00
  +4.16227763405332140678e+00
  +4.16227763405332140678e+00
  +4.16227763405332140678e+00
  +4.16227763405332140678e+00
  +4.16227763405332140678e+00
  +4.16227763405332140678e+00
  +4.16227763405332140678e+00
  +4.16227763405332140678e+00
  +4.16227763405332140678e+00
  +4.16227763405332140678e+00
  +4.16227763405332140678e+00
  +4.16227763405332140678e+00
  +4.16227763405332140678e+00
  +4.16227763405332140678e+00
  +4.16227763405332140678e+00
  +4.16227763405332140678e+00
  +4.16227763405332140678e+00
  +4.16227763405332140678e+00
  +4.16227763405332140678e+00
  +4.16227763405332140678e+00
  +4.16227763405332140678e+00
  +4.16227763405332140678e+00
  +4.16227763405332140678e+00
  +4.16227763405332140678e+00
