<Qucs Dataset 0.0.18>
<indep time 300>
  +0.00000000000e+00
  +1.00334448161e-04
  +2.00668896321e-04
  +3.01003344482e-04
  +4.01337792642e-04
  +5.01672240803e-04
  +6.02006688963e-04
  +7.02341137124e-04
  +8.02675585284e-04
  +9.03010033445e-04
  +1.00334448161e-03
  +1.10367892977e-03
  +1.20401337793e-03
  +1.30434782609e-03
  +1.40468227425e-03
  +1.50501672241e-03
  +1.60535117057e-03
  +1.70568561873e-03
  +1.80602006689e-03
  +1.90635451505e-03
  +2.00668896321e-03
  +2.10702341137e-03
  +2.20735785953e-03
  +2.30769230769e-03
  +2.40802675585e-03
  +2.50836120401e-03
  +2.60869565217e-03
  +2.70903010033e-03
  +2.80936454849e-03
  +2.90969899666e-03
  +3.01003344482e-03
  +3.11036789298e-03
  +3.21070234114e-03
  +3.31103678930e-03
  +3.41137123746e-03
  +3.51170568562e-03
  +3.61204013378e-03
  +3.71237458194e-03
  +3.81270903010e-03
  +3.91304347826e-03
  +4.01337792642e-03
  +4.11371237458e-03
  +4.21404682274e-03
  +4.31438127090e-03
  +4.41471571906e-03
  +4.51505016722e-03
  +4.61538461538e-03
  +4.71571906355e-03
  +4.81605351171e-03
  +4.91638795987e-03
  +5.01672240803e-03
  +5.11705685619e-03
  +5.21739130435e-03
  +5.31772575251e-03
  +5.41806020067e-03
  +5.51839464883e-03
  +5.61872909699e-03
  +5.71906354515e-03
  +5.81939799331e-03
  +5.91973244147e-03
  +6.02006688963e-03
  +6.12040133779e-03
  +6.22073578595e-03
  +6.32107023411e-03
  +6.42140468227e-03
  +6.52173913043e-03
  +6.62207357860e-03
  +6.72240802676e-03
  +6.82274247492e-03
  +6.92307692308e-03
  +7.02341137124e-03
  +7.12374581940e-03
  +7.22408026756e-03
  +7.32441471572e-03
  +7.42474916388e-03
  +7.52508361204e-03
  +7.62541806020e-03
  +7.72575250836e-03
  +7.82608695652e-03
  +7.92642140468e-03
  +8.02675585284e-03
  +8.12709030100e-03
  +8.22742474916e-03
  +8.32775919732e-03
  +8.42809364548e-03
  +8.52842809365e-03
  +8.62876254181e-03
  +8.72909698997e-03
  +8.82943143813e-03
  +8.92976588629e-03
  +9.03010033445e-03
  +9.13043478261e-03
  +9.23076923077e-03
  +9.33110367893e-03
  +9.43143812709e-03
  +9.53177257525e-03
  +9.63210702341e-03
  +9.73244147157e-03
  +9.83277591973e-03
  +9.93311036789e-03
  +1.00334448161e-02
  +1.01337792642e-02
  +1.02341137124e-02
  +1.03344481605e-02
  +1.04347826087e-02
  +1.05351170569e-02
  +1.06354515050e-02
  +1.07357859532e-02
  +1.08361204013e-02
  +1.09364548495e-02
  +1.10367892977e-02
  +1.11371237458e-02
  +1.12374581940e-02
  +1.13377926421e-02
  +1.14381270903e-02
  +1.15384615385e-02
  +1.16387959866e-02
  +1.17391304348e-02
  +1.18394648829e-02
  +1.19397993311e-02
  +1.20401337793e-02
  +1.21404682274e-02
  +1.22408026756e-02
  +1.23411371237e-02
  +1.24414715719e-02
  +1.25418060201e-02
  +1.26421404682e-02
  +1.27424749164e-02
  +1.28428093645e-02
  +1.29431438127e-02
  +1.30434782609e-02
  +1.31438127090e-02
  +1.32441471572e-02
  +1.33444816054e-02
  +1.34448160535e-02
  +1.35451505017e-02
  +1.36454849498e-02
  +1.37458193980e-02
  +1.38461538462e-02
  +1.39464882943e-02
  +1.40468227425e-02
  +1.41471571906e-02
  +1.42474916388e-02
  +1.43478260870e-02
  +1.44481605351e-02
  +1.45484949833e-02
  +1.46488294314e-02
  +1.47491638796e-02
  +1.48494983278e-02
  +1.49498327759e-02
  +1.50501672241e-02
  +1.51505016722e-02
  +1.52508361204e-02
  +1.53511705686e-02
  +1.54515050167e-02
  +1.55518394649e-02
  +1.56521739130e-02
  +1.57525083612e-02
  +1.58528428094e-02
  +1.59531772575e-02
  +1.60535117057e-02
  +1.61538461538e-02
  +1.62541806020e-02
  +1.63545150502e-02
  +1.64548494983e-02
  +1.65551839465e-02
  +1.66555183946e-02
  +1.67558528428e-02
  +1.68561872910e-02
  +1.69565217391e-02
  +1.70568561873e-02
  +1.71571906355e-02
  +1.72575250836e-02
  +1.73578595318e-02
  +1.74581939799e-02
  +1.75585284281e-02
  +1.76588628763e-02
  +1.77591973244e-02
  +1.78595317726e-02
  +1.79598662207e-02
  +1.80602006689e-02
  +1.81605351171e-02
  +1.82608695652e-02
  +1.83612040134e-02
  +1.84615384615e-02
  +1.85618729097e-02
  +1.86622073579e-02
  +1.87625418060e-02
  +1.88628762542e-02
  +1.89632107023e-02
  +1.90635451505e-02
  +1.91638795987e-02
  +1.92642140468e-02
  +1.93645484950e-02
  +1.94648829431e-02
  +1.95652173913e-02
  +1.96655518395e-02
  +1.97658862876e-02
  +1.98662207358e-02
  +1.99665551839e-02
  +2.00668896321e-02
  +2.01672240803e-02
  +2.02675585284e-02
  +2.03678929766e-02
  +2.04682274247e-02
  +2.05685618729e-02
  +2.06688963211e-02
  +2.07692307692e-02
  +2.08695652174e-02
  +2.09698996656e-02
  +2.10702341137e-02
  +2.11705685619e-02
  +2.12709030100e-02
  +2.13712374582e-02
  +2.14715719064e-02
  +2.15719063545e-02
  +2.16722408027e-02
  +2.17725752508e-02
  +2.18729096990e-02
  +2.19732441472e-02
  +2.20735785953e-02
  +2.21739130435e-02
  +2.22742474916e-02
  +2.23745819398e-02
  +2.24749163880e-02
  +2.25752508361e-02
  +2.26755852843e-02
  +2.27759197324e-02
  +2.28762541806e-02
  +2.29765886288e-02
  +2.30769230769e-02
  +2.31772575251e-02
  +2.32775919732e-02
  +2.33779264214e-02
  +2.34782608696e-02
  +2.35785953177e-02
  +2.36789297659e-02
  +2.37792642140e-02
  +2.38795986622e-02
  +2.39799331104e-02
  +2.40802675585e-02
  +2.41806020067e-02
  +2.42809364548e-02
  +2.43812709030e-02
  +2.44816053512e-02
  +2.45819397993e-02
  +2.46822742475e-02
  +2.47826086957e-02
  +2.48829431438e-02
  +2.49832775920e-02
  +2.50836120401e-02
  +2.51839464883e-02
  +2.52842809365e-02
  +2.53846153846e-02
  +2.54849498328e-02
  +2.55852842809e-02
  +2.56856187291e-02
  +2.57859531773e-02
  +2.58862876254e-02
  +2.59866220736e-02
  +2.60869565217e-02
  +2.61872909699e-02
  +2.62876254181e-02
  +2.63879598662e-02
  +2.64882943144e-02
  +2.65886287625e-02
  +2.66889632107e-02
  +2.67892976589e-02
  +2.68896321070e-02
  +2.69899665552e-02
  +2.70903010033e-02
  +2.71906354515e-02
  +2.72909698997e-02
  +2.73913043478e-02
  +2.74916387960e-02
  +2.75919732441e-02
  +2.76923076923e-02
  +2.77926421405e-02
  +2.78929765886e-02
  +2.79933110368e-02
  +2.80936454849e-02
  +2.81939799331e-02
  +2.82943143813e-02
  +2.83946488294e-02
  +2.84949832776e-02
  +2.85953177258e-02
  +2.86956521739e-02
  +2.87959866221e-02
  +2.88963210702e-02
  +2.89966555184e-02
  +2.90969899666e-02
  +2.91973244147e-02
  +2.92976588629e-02
  +2.93979933110e-02
  +2.94983277592e-02
  +2.95986622074e-02
  +2.96989966555e-02
  +2.97993311037e-02
  +2.98996655518e-02
  +3.00000000000e-02
</indep>
<dep V1.It time>
  +0.00000000000e+00
  -2.55051105632e-02
  -9.93696735682e-03
  +6.49917201782e-10
  +1.69696482758e-02
  +6.28227240655e-02
  +5.07169962613e-02
  +1.93924287738e-02
  -6.55212056579e-10
  -1.28562469291e-02
  -3.14364382546e-02
  -2.51600789640e-02
  -9.35691914100e-03
  +9.18250804499e-10
  +1.72162463801e-02
  +2.09117618629e-02
  +1.65681000565e-02
  +1.81622055776e-02
  -6.38426840981e-10
  -1.30724473963e-02
  -1.57537495103e-02
  -2.47799752300e-02
  -8.75866409264e-03
  +1.15216460697e-09
  +5.01181298934e-09
  +2.08733610325e-02
  +1.62784093685e-02
  +1.69274107443e-02
  +3.50918785630e-10
  -1.20096330154e-05
  -1.57546961743e-02
  -2.43263814593e-02
  -8.15660257754e-03
  +1.02411165921e-09
  +4.01432584103e-10
  +2.08355956336e-02
  +1.59866908598e-02
  +1.56916198313e-02
  -1.64803231300e-09
  +1.36626448380e-10
  -1.57331825199e-02
  -2.43736042257e-02
  -7.52545720217e-03
  +2.06458173514e-09
  -7.17600495486e-10
  +2.07918655484e-02
  +1.56900194365e-02
  +1.44532338406e-02
  -2.36758741819e-09
  -2.59756321421e-09
  -1.57224712962e-02
  -1.92016159917e-02
  -6.87339635984e-03
  -1.23532221681e-09
  -1.06401787674e-09
  +2.87842509898e-02
  +1.53890505315e-02
  +1.32186062778e-02
  -3.02700648855e-09
  -3.21567132943e-09
  -1.56954345183e-02
  -2.15999768116e-02
  -6.33623383895e-03
  +2.78826291599e-09
  -1.49217822358e-09
  +1.16804103833e-08
  +1.50830861362e-02
  +1.19893156484e-02
  +1.26040315399e-09
  -2.60083888998e-09
  -4.79480069208e-03
  -2.23179504199e-02
  -5.73093242752e-03
  +2.46924313255e-09
  -1.18430408365e-09
  +2.89442377203e-09
  +1.47712305851e-02
  +1.07654678600e-02
  -2.93042624571e-09
  +1.60587066366e-09
  +1.13173482871e-09
  -2.08628129495e-02
  -5.12799221748e-03
  +2.90731253978e-09
  +3.03235259484e-09
  +3.22920830259e-09
  +1.44555558947e-02
  +9.55339789524e-03
  -2.94310786602e-09
  -3.07709512404e-09
  +1.33642084919e-09
  -1.46134069776e-02
  -4.54158217053e-03
  +2.58186008435e-09
  +2.69722927361e-09
  +2.84287302943e-09
  +1.41313935099e-02
  +8.35676350360e-03
  -2.36418143602e-09
  +1.05629426990e-09
  +8.41139797318e-10
  -1.12781066665e-02
  -3.94207276780e-03
  -1.10411553635e-09
  -9.96194521829e-10
  -8.79521078675e-10
  +1.38025920492e-02
  +7.18366773858e-03
  -2.30235091956e-09
  +9.98478982103e-10
  +8.26213568743e-10
  -1.04582180715e-02
  -3.36476797036e-03
  -1.48162844995e-09
  +2.75493807929e-09
  -1.28354472806e-09
  +1.34690948938e-02
  +6.03483177878e-03
  +1.38990447345e-09
  -2.69156076497e-09
  +1.13601159772e-09
  -1.05558138590e-02
  -2.65192892500e-03
  +2.11219790617e-09
  -8.38978989850e-10
  +2.29094399567e-09
  +1.31301304287e-02
  +4.93697870112e-03
  -2.18203090073e-09
  +8.81218380103e-10
  -2.40878918955e-09
  -9.90786286429e-03
  -2.27319157680e-03
  +2.05079321254e-09
  -7.75837680654e-10
  +2.21335279104e-09
  +1.27854659185e-02
  +3.90158783524e-03
  +8.24402764329e-10
  +7.26670373330e-10
  +6.17615814454e-10
  -1.07526106435e-02
  -1.77081950172e-03
  -5.60803295371e-10
  -4.73318238663e-10
  -4.11470334260e-10
  +1.24358881871e-02
  +2.94625762529e-03
  +5.48159654686e-10
  +4.54927572759e-10
  +3.58030434356e-10
  -7.40366842816e-03
  -1.31180888649e-03
  +1.46038361937e-09
  -1.81656682838e-10
  +1.59872775692e-09
  +1.20814174539e-02
  +2.08700339211e-03
  +2.47613231010e-10
  -1.55086565062e-09
  -1.63824879727e-09
  -1.23776793401e-02
  -9.15221951325e-04
  +9.26945762789e-11
  +1.72892493741e-10
  +2.21395146790e-10
  +1.17218372679e-02
  +1.37806925821e-03
  -9.06895028432e-11
  -1.76265121909e-10
  -1.29577247435e-09
  -1.06297245113e-02
  -5.75755850998e-04
  +1.48995841284e-09
  -2.06126144088e-10
  +1.60995952873e-09
  +1.13575463876e-02
  +8.25066558209e-04
  +2.86654589780e-10
  +2.04516467724e-10
  -1.66902537434e-09
  -7.26888583970e-03
  -3.39720101494e-04
  +1.32024119309e-09
  -3.35117409180e-11
  +1.43279024835e-09
  +1.09886215139e-02
  +4.37951189344e-04
  -1.31736949867e-09
  +7.41593908024e-12
  -1.46786201787e-09
  -9.62288808189e-03
  -1.70694930565e-04
  +2.73861984648e-10
  +3.44677802560e-10
  +1.05050936092e-09
  +1.06153232155e-02
  +2.04845189697e-04
  -9.74823317106e-10
  -3.37889067185e-10
  -4.04843958942e-10
  -8.03299542023e-03
  -7.72106021157e-05
  +2.89634662539e-10
  +3.57584594216e-10
  +3.89552587980e-10
  +1.02377468394e-02
  +8.28606272314e-05
  -2.91250728355e-10
  -1.02444539016e-09
  -4.29273202084e-10
  -7.30558373549e-03
  -2.81645261674e-05
  +6.56869084380e-11
  +1.22967447071e-09
  +1.25905472028e-09
  +9.85606682696e-03
  +2.84227344268e-05
  -8.48794872508e-11
  -1.23394349453e-09
  -2.18587870438e-10
  -7.29587266601e-03
  -1.01136406144e-05
  +1.10375568177e-09
  +1.16657977960e-09
  +1.19348857818e-09
  +9.47049271210e-03
  +8.26217974951e-06
  -1.11886659354e-09
  -2.03048944577e-10
  -2.64375396836e-10
  -7.46181655945e-03
  -2.69411255957e-06
  +1.27834097124e-09
  +1.33868014476e-09
  +4.88245783449e-11
  +9.08113638990e-03
  +2.02714649976e-06
  +2.33717313382e-11
  -4.29396860103e-11
  -1.03909970099e-10
  -6.60674651231e-03
  -6.43595801059e-07
  +1.09055373214e-09
  +2.14476987644e-10
  +1.17206027845e-09
  +8.68835605430e-03
  +4.21527268529e-07
  -1.73693678264e-10
  -1.15475612626e-09
  -1.21535279826e-09
  -7.73591227979e-03
  -1.25388084438e-07
  +1.74767780622e-10
  +2.30607166393e-10
  +2.52815701167e-10
  +8.29235904752e-03
  +7.41019244842e-08
  -1.78903522764e-10
  -2.40994217600e-10
  -1.21481055278e-09
  -1.05002271774e-02
  -2.02098851995e-08
  -6.23105305999e-11
  +1.37302897060e-09
  +1.39483178548e-09
  +7.89370198193e-03
  +1.12071705164e-08
  -1.32282842091e-09
  -1.38291042623e-09
  -7.57471565652e-11
  -8.86521362863e-03
  -1.89890864068e-09
  -8.75189500343e-11
  +1.40152652787e-09
  +1.42253094206e-09
  +7.49422741320e-03
  +1.59538711825e-09
  +8.13716153217e-11
  -1.41965998069e-09
  -1.48621906589e-09
  -1.06554788975e-02
  -6.34368300226e-10
  +1.38042419268e-09
  -6.33347348152e-11
  +1.44989407371e-09
  +7.10301284058e-03
  +3.64273925229e-10
  -1.38469928531e-09
  +4.31095191978e-11
  -2.53244168566e-11
  -1.17492616123e-02
  +1.48839476255e-09
  +1.64721558708e-09
  +1.69448643299e-09
  +1.71499249369e-09
  +6.76480151512e-03
  -1.52630277807e-09
  +3.62222863662e-10
  +3.07604597100e-10
</dep>
<dep _net3.Vt time>
  +0.00000000000e+00
  +5.89484021371e+00
  +9.52346849460e+00
  +9.49089525655e+00
  +5.80964295276e+00
  -1.05068055189e-01
  -5.97938670783e+00
  -9.55499037974e+00
  -9.45727426154e+00
  -5.72380433042e+00
  +2.10124511285e-01
  +6.06327310152e+00
  +9.58545743208e+00
  +9.42260922119e+00
  +5.63733382292e+00
  -3.15157770473e-01
  -6.14649013405e+00
  -9.61486628817e+00
  -9.38690396239e+00
  -5.55024097626e+00
  +4.20156237501e-01
  +6.22902861861e+00
  +9.64321370139e+00
  +9.35016242685e+00
  +5.46253540516e+00
  -5.25108320957e-01
  -6.31087944326e+00
  -9.67049654231e+00
  -9.31238867070e+00
  -5.37422679194e+00
  +6.30002434550e-01
  +6.39203357201e+00
  +9.69671179900e+00
  +9.27358686401e+00
  +5.28532488553e+00
  -7.34826998388e-01
  -6.47248204577e+00
  -9.72185657741e+00
  -9.23376129034e+00
  -5.19583950035e+00
  +8.39570440259e-01
  +6.55221598333e+00
  +9.74592810166e+00
  +9.19291634627e+00
  +5.10578051523e+00
  -9.44221196904e-01
  -6.63122658241e+00
  -9.76892371434e+00
  -9.15105654093e+00
  -5.01515787231e+00
  +1.04876771530e+00
  +6.70950512053e+00
  +9.79084087682e+00
  +9.10818649546e+00
  +4.92398157598e+00
  -1.15319845392e+00
  -6.78704295607e+00
  -9.81167716955e+00
  -9.06431094256e+00
  -4.83226169174e+00
  +1.25750188404e+00
  +6.86383152915e+00
  +9.83143029228e+00
  +9.01943472590e+00
  +4.74000834509e+00
  -1.36166649096e+00
  -6.93986236262e+00
  -9.85009806434e+00
  -8.97356279965e+00
  -4.64723172044e+00
  +1.46568077534e+00
  +7.01512706299e+00
  +9.86767842489e+00
  +8.92670022788e+00
  +4.55394205995e+00
  -1.56953325441e+00
  -7.08961732132e+00
  -9.88416943311e+00
  -8.87885218402e+00
  -4.46014966243e+00
  +1.67321246328e+00
  +7.16332491420e+00
  +9.89956926849e+00
  +8.83002395033e+00
  +4.36586488219e+00
  -1.77670695617e+00
  -7.23624170459e+00
  -9.91387623092e+00
  -8.78022091722e+00
  -4.27109812789e+00
  +1.88000530770e+00
  +7.30835964278e+00
  +9.92708874098e+00
  +8.72944858277e+00
  +4.17585986141e+00
  -1.98309611414e+00
  -7.37967076723e+00
  -9.93920534006e+00
  -8.67771255204e+00
  -4.08016059666e+00
  +2.08596799469e+00
  +7.45016720549e+00
  +9.95022469055e+00
  +8.62501853647e+00
  +3.98401089846e+00
  -2.18860959270e+00
  -7.51984117501e+00
  -9.96014557593e+00
  -8.57137235328e+00
  -3.88742138136e+00
  +2.29100957695e+00
  +7.58868498408e+00
  +9.96896690100e+00
  +8.51677992479e+00
  +3.79040270846e+00
  -2.39315664288e+00
  -7.65669103262e+00
  -9.97668769191e+00
  -8.46124727779e+00
  -3.69296559022e+00
  +2.49503951386e+00
  +7.72385181302e+00
  +9.98330709631e+00
  +8.40478054285e+00
  +3.59512078333e+00
  -2.59664694245e+00
  -7.79015991101e+00
  -9.98882438345e+00
  -8.34738595369e+00
  -3.49687908944e+00
  +2.69796771157e+00
  +7.85560800644e+00
  +9.99323894424e+00
  +8.28906984643e+00
  +3.39825135406e+00
  -2.79899063583e+00
  -7.92018887409e+00
  -9.99655029134e+00
  -8.22983865894e+00
  -3.29924846529e+00
  +2.89970456269e+00
  +7.98389538450e+00
  +9.99875805918e+00
  +8.16969893010e+00
  +3.19988135266e+00
  -3.00009837374e+00
  -8.04672050472e+00
  -9.99986200404e+00
  -8.10865729912e+00
  -3.10016098590e+00
  +3.10016098590e+00
  +8.10865729912e+00
  +9.99986200404e+00
  +8.04672050472e+00
  +3.00009837374e+00
  -3.19988135266e+00
  -8.16969893010e+00
  -9.99875805918e+00
  -7.98389538450e+00
  -2.89970456269e+00
  +3.29924846529e+00
  +8.22983865894e+00
  +9.99655029134e+00
  +7.92018887409e+00
  +2.79899063583e+00
  -3.39825135406e+00
  -8.28906984643e+00
  -9.99323894424e+00
  -7.85560800644e+00
  -2.69796771157e+00
  +3.49687908944e+00
  +8.34738595369e+00
  +9.98882438345e+00
  +7.79015991101e+00
  +2.59664694245e+00
  -3.59512078332e+00
  -8.40478054285e+00
  -9.98330709631e+00
  -7.72385181302e+00
  -2.49503951386e+00
  +3.69296559022e+00
  +8.46124727779e+00
  +9.97668769191e+00
  +7.65669103262e+00
  +2.39315664288e+00
  -3.79040270846e+00
  -8.51677992479e+00
  -9.96896690100e+00
  -7.58868498408e+00
  -2.29100957695e+00
  +3.88742138136e+00
  +8.57137235328e+00
  +9.96014557593e+00
  +7.51984117501e+00
  +2.18860959270e+00
  -3.98401089846e+00
  -8.62501853647e+00
  -9.95022469055e+00
  -7.45016720549e+00
  -2.08596799469e+00
  +4.08016059666e+00
  +8.67771255204e+00
  +9.93920534006e+00
  +7.37967076723e+00
  +1.98309611414e+00
  -4.17585986141e+00
  -8.72944858277e+00
  -9.92708874098e+00
  -7.30835964278e+00
  -1.88000530770e+00
  +4.27109812789e+00
  +8.78022091722e+00
  +9.91387623092e+00
  +7.23624170459e+00
  +1.77670695617e+00
  -4.36586488219e+00
  -8.83002395033e+00
  -9.89956926849e+00
  -7.16332491420e+00
  -1.67321246328e+00
  +4.46014966243e+00
  +8.87885218402e+00
  +9.88416943311e+00
  +7.08961732132e+00
  +1.56953325442e+00
  -4.55394205995e+00
  -8.92670022788e+00
  -9.86767842489e+00
  -7.01512706299e+00
  -1.46568077534e+00
  +4.64723172044e+00
  +8.97356279965e+00
  +9.85009806434e+00
  +6.93986236262e+00
  +1.36166649096e+00
  -4.74000834509e+00
  -9.01943472590e+00
  -9.83143029228e+00
  -6.86383152915e+00
  -1.25750188404e+00
  +4.83226169174e+00
  +9.06431094256e+00
  +9.81167716955e+00
  +6.78704295607e+00
  +1.15319845392e+00
  -4.92398157598e+00
  -9.10818649546e+00
  -9.79084087682e+00
  -6.70950512053e+00
  -1.04876771530e+00
  +5.01515787231e+00
  +9.15105654093e+00
  +9.76892371434e+00
  +6.63122658241e+00
  +9.44221196904e-01
  -5.10578051523e+00
  -9.19291634627e+00
  -9.74592810166e+00
  -6.55221598333e+00
  -8.39570440260e-01
  +5.19583950035e+00
  +9.23376129034e+00
  +9.72185657741e+00
  +6.47248204577e+00
  +7.34826998389e-01
  -5.28532488553e+00
  -9.27358686401e+00
  -9.69671179900e+00
  -6.39203357201e+00
  -6.30002434550e-01
  +5.37422679194e+00
  +9.31238867070e+00
  +9.67049654231e+00
  +6.31087944326e+00
  +5.25108320957e-01
  -5.46253540516e+00
  -9.35016242685e+00
  -9.64321370139e+00
  -6.22902861861e+00
  -4.20156237501e-01
  +5.55024097626e+00
  +9.38690396239e+00
  +9.61486628817e+00
  +6.14649013405e+00
  +3.15157770473e-01
  -5.63733382292e+00
  -9.42260922119e+00
  -9.58545743208e+00
  -6.06327310152e+00
  -2.10124511285e-01
  +5.72380433042e+00
  +9.45727426154e+00
  +9.55499037974e+00
  +5.97938670783e+00
  +1.05068055190e-01
  -5.80964295276e+00
  -9.49089525655e+00
  -9.52346849460e+00
  -5.89484021371e+00
  -2.15587355101e-13
</dep>
<dep Input.Vt time>
  +0.00000000000e+00
  +5.86933510315e+00
  +9.51353152724e+00
  +9.49089525720e+00
  +5.82661260104e+00
  -4.22453311239e-02
  -5.92866971157e+00
  -9.53559795097e+00
  -9.45727426219e+00
  -5.73666057735e+00
  +1.78688073030e-01
  +6.03811302255e+00
  +9.57610051294e+00
  +9.42260922211e+00
  +5.65455006930e+00
  -2.94246008610e-01
  -6.12992203399e+00
  -9.59670408259e+00
  -9.38690396303e+00
  -5.56331342366e+00
  +4.04402487990e-01
  +6.20424864338e+00
  +9.63445503730e+00
  +9.35016242801e+00
  +5.46253541017e+00
  -5.04234959924e-01
  -6.29460103389e+00
  -9.65356913157e+00
  -9.31238867035e+00
  -5.37423880157e+00
  +6.14247738375e-01
  +6.36770719055e+00
  +9.68855519643e+00
  +9.27358686503e+00
  +5.28532488594e+00
  -7.13991402755e-01
  -6.45649535491e+00
  -9.70616495758e+00
  -9.23376129199e+00
  -5.19583950022e+00
  +8.23837257739e-01
  +6.52784237911e+00
  +9.73840264446e+00
  +9.19291634833e+00
  +5.10578051451e+00
  -9.23429331356e-01
