<Qucs Dataset 0.0.17>
<indep time 300>
  +0.00000000000e+00
  +1.00334448161e-04
  +2.00668896321e-04
  +3.01003344482e-04
  +4.01337792642e-04
  +5.01672240803e-04
  +6.02006688963e-04
  +7.02341137124e-04
  +8.02675585284e-04
  +9.03010033445e-04
  +1.00334448161e-03
  +1.10367892977e-03
  +1.20401337793e-03
  +1.30434782609e-03
  +1.40468227425e-03
  +1.50501672241e-03
  +1.60535117057e-03
  +1.70568561873e-03
  +1.80602006689e-03
  +1.90635451505e-03
  +2.00668896321e-03
  +2.10702341137e-03
  +2.20735785953e-03
  +2.30769230769e-03
  +2.40802675585e-03
  +2.50836120401e-03
  +2.60869565217e-03
  +2.70903010033e-03
  +2.80936454849e-03
  +2.90969899666e-03
  +3.01003344482e-03
  +3.11036789298e-03
  +3.21070234114e-03
  +3.31103678930e-03
  +3.41137123746e-03
  +3.51170568562e-03
  +3.61204013378e-03
  +3.71237458194e-03
  +3.81270903010e-03
  +3.91304347826e-03
  +4.01337792642e-03
  +4.11371237458e-03
  +4.21404682274e-03
  +4.31438127090e-03
  +4.41471571906e-03
  +4.51505016722e-03
  +4.61538461538e-03
  +4.71571906355e-03
  +4.81605351171e-03
  +4.91638795987e-03
  +5.01672240803e-03
  +5.11705685619e-03
  +5.21739130435e-03
  +5.31772575251e-03
  +5.41806020067e-03
  +5.51839464883e-03
  +5.61872909699e-03
  +5.71906354515e-03
  +5.81939799331e-03
  +5.91973244147e-03
  +6.02006688963e-03
  +6.12040133779e-03
  +6.22073578595e-03
  +6.32107023411e-03
  +6.42140468227e-03
  +6.52173913043e-03
  +6.62207357860e-03
  +6.72240802676e-03
  +6.82274247492e-03
  +6.92307692308e-03
  +7.02341137124e-03
  +7.12374581940e-03
  +7.22408026756e-03
  +7.32441471572e-03
  +7.42474916388e-03
  +7.52508361204e-03
  +7.62541806020e-03
  +7.72575250836e-03
  +7.82608695652e-03
  +7.92642140468e-03
  +8.02675585284e-03
  +8.12709030100e-03
  +8.22742474916e-03
  +8.32775919732e-03
  +8.42809364548e-03
  +8.52842809365e-03
  +8.62876254181e-03
  +8.72909698997e-03
  +8.82943143813e-03
  +8.92976588629e-03
  +9.03010033445e-03
  +9.13043478261e-03
  +9.23076923077e-03
  +9.33110367893e-03
  +9.43143812709e-03
  +9.53177257525e-03
  +9.63210702341e-03
  +9.73244147157e-03
  +9.83277591973e-03
  +9.93311036789e-03
  +1.00334448161e-02
  +1.01337792642e-02
  +1.02341137124e-02
  +1.03344481605e-02
  +1.04347826087e-02
  +1.05351170569e-02
  +1.06354515050e-02
  +1.07357859532e-02
  +1.08361204013e-02
  +1.09364548495e-02
  +1.10367892977e-02
  +1.11371237458e-02
  +1.12374581940e-02
  +1.13377926421e-02
  +1.14381270903e-02
  +1.15384615385e-02
  +1.16387959866e-02
  +1.17391304348e-02
  +1.18394648829e-02
  +1.19397993311e-02
  +1.20401337793e-02
  +1.21404682274e-02
  +1.22408026756e-02
  +1.23411371237e-02
  +1.24414715719e-02
  +1.25418060201e-02
  +1.26421404682e-02
  +1.27424749164e-02
  +1.28428093645e-02
  +1.29431438127e-02
  +1.30434782609e-02
  +1.31438127090e-02
  +1.32441471572e-02
  +1.33444816054e-02
  +1.34448160535e-02
  +1.35451505017e-02
  +1.36454849498e-02
  +1.37458193980e-02
  +1.38461538462e-02
  +1.39464882943e-02
  +1.40468227425e-02
  +1.41471571906e-02
  +1.42474916388e-02
  +1.43478260870e-02
  +1.44481605351e-02
  +1.45484949833e-02
  +1.46488294314e-02
  +1.47491638796e-02
  +1.48494983278e-02
  +1.49498327759e-02
  +1.50501672241e-02
  +1.51505016722e-02
  +1.52508361204e-02
  +1.53511705686e-02
  +1.54515050167e-02
  +1.55518394649e-02
  +1.56521739130e-02
  +1.57525083612e-02
  +1.58528428094e-02
  +1.59531772575e-02
  +1.60535117057e-02
  +1.61538461538e-02
  +1.62541806020e-02
  +1.63545150502e-02
  +1.64548494983e-02
  +1.65551839465e-02
  +1.66555183946e-02
  +1.67558528428e-02
  +1.68561872910e-02
  +1.69565217391e-02
  +1.70568561873e-02
  +1.71571906355e-02
  +1.72575250836e-02
  +1.73578595318e-02
  +1.74581939799e-02
  +1.75585284281e-02
  +1.76588628763e-02
  +1.77591973244e-02
  +1.78595317726e-02
  +1.79598662207e-02
  +1.80602006689e-02
  +1.81605351171e-02
  +1.82608695652e-02
  +1.83612040134e-02
  +1.84615384615e-02
  +1.85618729097e-02
  +1.86622073579e-02
  +1.87625418060e-02
  +1.88628762542e-02
  +1.89632107023e-02
  +1.90635451505e-02
  +1.91638795987e-02
  +1.92642140468e-02
  +1.93645484950e-02
  +1.94648829431e-02
  +1.95652173913e-02
  +1.96655518395e-02
  +1.97658862876e-02
  +1.98662207358e-02
  +1.99665551839e-02
  +2.00668896321e-02
  +2.01672240803e-02
  +2.02675585284e-02
  +2.03678929766e-02
  +2.04682274247e-02
  +2.05685618729e-02
  +2.06688963211e-02
  +2.07692307692e-02
  +2.08695652174e-02
  +2.09698996656e-02
  +2.10702341137e-02
  +2.11705685619e-02
  +2.12709030100e-02
  +2.13712374582e-02
  +2.14715719064e-02
  +2.15719063545e-02
  +2.16722408027e-02
  +2.17725752508e-02
  +2.18729096990e-02
  +2.19732441472e-02
  +2.20735785953e-02
  +2.21739130435e-02
  +2.22742474916e-02
  +2.23745819398e-02
  +2.24749163880e-02
  +2.25752508361e-02
  +2.26755852843e-02
  +2.27759197324e-02
  +2.28762541806e-02
  +2.29765886288e-02
  +2.30769230769e-02
  +2.31772575251e-02
  +2.32775919732e-02
  +2.33779264214e-02
  +2.34782608696e-02
  +2.35785953177e-02
  +2.36789297659e-02
  +2.37792642140e-02
  +2.38795986622e-02
  +2.39799331104e-02
  +2.40802675585e-02
  +2.41806020067e-02
  +2.42809364548e-02
  +2.43812709030e-02
  +2.44816053512e-02
  +2.45819397993e-02
  +2.46822742475e-02
  +2.47826086957e-02
  +2.48829431438e-02
  +2.49832775920e-02
  +2.50836120401e-02
  +2.51839464883e-02
  +2.52842809365e-02
  +2.53846153846e-02
  +2.54849498328e-02
  +2.55852842809e-02
  +2.56856187291e-02
  +2.57859531773e-02
  +2.58862876254e-02
  +2.59866220736e-02
  +2.60869565217e-02
  +2.61872909699e-02
  +2.62876254181e-02
  +2.63879598662e-02
  +2.64882943144e-02
  +2.65886287625e-02
  +2.66889632107e-02
  +2.67892976589e-02
  +2.68896321070e-02
  +2.69899665552e-02
  +2.70903010033e-02
  +2.71906354515e-02
  +2.72909698997e-02
  +2.73913043478e-02
  +2.74916387960e-02
  +2.75919732441e-02
  +2.76923076923e-02
  +2.77926421405e-02
  +2.78929765886e-02
  +2.79933110368e-02
  +2.80936454849e-02
  +2.81939799331e-02
  +2.82943143813e-02
  +2.83946488294e-02
  +2.84949832776e-02
  +2.85953177258e-02
  +2.86956521739e-02
  +2.87959866221e-02
  +2.88963210702e-02
  +2.89966555184e-02
  +2.90969899666e-02
  +2.91973244147e-02
  +2.92976588629e-02
  +2.93979933110e-02
  +2.94983277592e-02
  +2.95986622074e-02
  +2.96989966555e-02
  +2.97993311037e-02
  +2.98996655518e-02
  +3.00000000000e-02
</indep>
<dep V1.It time>
  +0.00000000000e+00
  -2.55051105632e-02
  -9.93696735682e-03
  +6.49917639947e-10
  +1.69696482758e-02
  +6.28227240655e-02
  +5.07169962612e-02
  +1.93924287738e-02
  -6.55210252637e-10
  -1.28562469291e-02
  -3.14364382546e-02
  -2.51600789640e-02
  -9.35691914100e-03
  +9.18248681397e-10
  +1.72162463801e-02
  +2.09117618629e-02
  +1.65681000565e-02
  +1.81622055776e-02
  -6.38421356483e-10
  -1.30724473969e-02
  -1.57537495153e-02
  -2.47799752425e-02
  -8.75866409105e-03
  +1.15216234404e-09
  +5.01181215530e-09
  +2.08733610329e-02
  +1.62784093669e-02
  +1.69274104315e-02
  +3.50914981918e-10
  -1.20095078793e-05
  -1.57546372929e-02
  -2.43263716051e-02
  -8.15658863065e-03
  +1.02378438087e-09
  +4.01765722159e-10
  +2.08360703164e-02
  +1.59868123651e-02
  +1.56921210282e-02
  -1.62212046985e-09
  +1.10574896155e-10
  -1.57403359703e-02
  -2.56090453585e-02
  -7.55493254870e-03
  -3.06981216978e-10
  +1.65433665693e-09
  +2.07920738456e-02
  +1.56911373979e-02
  +1.44545426378e-02
  -1.92440715065e-09
  -2.15438975502e-09
  -1.57230538082e-02
  -2.35126462559e-02
  -6.94421255155e-03
  +1.27018363294e-09
  +1.43962794850e-09
  +3.38439121028e-02
  +1.53888974725e-02
  +1.32194321931e-02
  -5.94699011494e-10
  -7.83762537339e-10
  -1.56958625639e-02
  -2.41960184829e-02
  -6.33719376385e-03
  +4.84436908483e-10
  +8.10738360799e-10
  +1.15509034015e-08
  +1.50830873867e-02
  +1.19894931308e-02
  -1.16784897618e-09
  -1.33203892109e-09
  -8.58563102843e-03
  -2.25042643572e-02
  -5.73130331564e-03
  +1.34536169126e-09
  +1.48039869214e-09
  +1.77423404529e-09
  +1.47716111462e-02
  +1.07655116245e-02
  -1.57376928534e-09
  +2.49202587088e-10
  -2.24671880592e-10
  -2.08750061469e-02
  -5.12763467828e-03
  +1.55576464266e-09
  -2.77138997424e-10
  -8.26903836640e-11
  +1.44542993593e-02
  +9.55298222390e-03
  +7.03562203538e-10
  -2.01795014097e-09
  +2.73078637001e-10
  -1.46535618659e-02
  -4.53026226385e-03
  +1.32602080246e-09
  -5.05724548231e-11
  +1.58637108468e-09
  +1.41309041518e-02
  +8.35553097222e-03
  +8.95173312636e-11
  -1.39743096433e-09
  -1.61293010872e-09
  -1.09579649695e-02
  -3.94654528907e-03
  +8.16531099609e-10
  +4.56699594757e-10
  +5.73710091266e-10
  +1.38034335263e-02
  +7.17895888696e-03
  -2.50549931209e-10
  -1.05335934866e-09
  -5.39102261038e-10
  -1.03765771335e-02
  -3.36687055402e-03
  +8.24654681763e-10
  +4.48112155835e-10
  +5.45967126180e-10
  +1.34688610276e-02
  +6.03477603637e-03
  -2.92454088784e-10
  -1.00920384536e-09
  -5.45937290119e-10
  -1.05905909370e-02
  -2.71322922826e-03
  -2.05426011637e-10
  +1.47848497543e-09
  -2.66913086547e-11
  +1.31297797832e-02
  +4.94080363859e-03
  +1.24757591342e-10
  -1.42553125946e-09
  -1.01240463206e-10
  -9.43502149454e-03
  -2.27088786210e-03
  -3.33880155380e-10
  +1.60884187041e-09
  -1.71337343930e-10
  +1.27858047360e-02
  +3.89771145011e-03
  +3.70722786714e-10
  -1.67162380663e-09
  -1.77963413085e-09
  -9.85029924770e-03
  -1.76984052746e-03
  -4.45327246137e-10
  -3.57254638083e-10
  +1.78372741979e-09
  +1.24360399814e-02
  +2.93967759306e-03
  +4.45463946876e-10
  +3.52237103985e-10
  +2.54858713481e-10
  -7.98280411077e-03
  -1.31794353244e-03
  -1.31965824101e-10
  -4.83501485557e-11
  +1.46507337993e-09
  +1.20814720842e-02
  +2.07971964029e-03
  -1.32100950889e-09
  +1.77738045442e-11
  -7.02018603356e-11
  -7.29803502401e-03
  -9.14535909209e-04
  +1.08828504643e-09
  +1.92890766714e-10
  +1.21690926177e-09
  +1.17218263930e-02
  +1.36729416781e-03
  -1.09953766827e-09
  -2.05629512696e-10
  -2.86245593681e-10
  -9.63623999054e-03
  -5.79821293116e-04
  +4.87339229902e-10
  +7.96593957164e-10
  +6.07281966862e-10
  +1.13575451134e-02
  +8.20752023022e-04
  -7.17284353576e-10
  -5.90059409343e-10
  -8.74866798790e-10
  -7.23666436463e-03
  -3.39917138639e-04
  +3.03926094044e-10
  +9.82801537936e-10
  +4.16472959736e-10
  +1.09886242748e-02
  +4.38296686235e-04
  -9.31599163479e-10
  -3.78415665694e-10
  -1.08200090793e-09
  -8.58927542625e-03
  -1.77383031767e-04
  +5.07666274297e-10
  +7.82060746005e-10
  +6.13627562951e-10
  +1.06153150274e-02
  +2.02334952021e-04
  -5.02149619356e-10
  -8.10551646674e-10
  -6.45926926810e-10
  -5.89367925963e-03
  -6.98796495599e-05
  +4.93833460047e-10
  +7.98075397637e-10
  +8.30402524779e-10
  +1.02377205028e-02
  +8.30595765296e-05
  -7.38214988484e-10
  -8.11683205228e-10
  -8.76046047175e-10
  -8.75757637198e-03
  -2.90910014096e-05
  +6.17753958442e-10
  +6.83095492985e-10
  +7.12366478530e-10
  +9.85605602570e-03
  +2.84293196942e-05
  -6.27128910142e-10
  -6.98004452250e-10
  -7.60209327842e-10
  -7.48574792808e-03
  -9.32309508951e-06
  +5.48158603257e-10
  +6.11025753200e-10
  +7.77934146591e-10
  +9.47050937318e-03
  +8.26252253026e-06
  -5.64150166502e-10
  -7.57750010489e-10
  -6.94176365040e-10
  -6.61702782918e-03
  -2.71787106466e-06
  +7.30647635826e-10
  +7.91360813987e-10
  +8.16480844832e-10
  +9.08114581886e-03
  +2.02630124942e-06
  -5.14834824139e-10
  -5.81143410793e-10
  -6.42088261825e-10
  -6.61817584566e-03
  -6.43027010378e-07
  +5.51319285111e-10
  +7.53703054556e-10
  +6.32803774565e-10
  +8.68834903071e-03
  +4.20860194129e-07
  -7.13663294396e-10
  -6.14771892496e-10
  -6.75308035695e-10
  -7.77179544334e-03
  -1.24755655417e-07
  +7.22488473849e-10
  +7.78319577757e-10
  +6.08007588569e-10
  +8.29244487442e-03
  +7.35187518600e-08
  -5.38340589549e-10
  -6.00403988374e-10
  -8.54361543369e-10
  -9.13370330853e-03
  -2.00830257675e-08
  +3.89949543078e-10
  +9.20845818603e-10
  +9.42284400853e-10
  +7.89366065299e-03
  +1.07694027192e-08
  -8.76389371424e-10
  -4.58623071708e-10
  -5.21795651120e-10
  -1.06844290458e-02
  -2.44329423620e-09
  +9.07416678611e-10
  +9.58837055936e-10
  +4.27653828445e-10
  +7.49412193504e-03
  +5.91203806771e-10
  -9.20892619713e-10
  -9.79103246316e-10
  -1.04517143788e-09
  -1.06637776623e-02
  -4.30762299165e-10
  +9.37272419177e-11
  +1.42985784326e-10
  +1.24400678020e-09
  +7.10296639854e-03
  +1.65655216699e-10
  -9.91544064572e-11
  -1.55550555149e-10
  -2.24890145886e-10
  -1.05388932359e-02
  +8.63403767653e-10
  +1.02275638071e-09
  +1.06996962348e-09
  +1.09077079946e-09
  +6.76478476808e-03
  -8.98175906816e-10
  -1.02442920131e-09
  -3.20451227007e-10
</dep>
<dep _net3.Vt time>
  +0.00000000000e+00
  +5.89484021371e+00
  +9.52346849460e+00
  +9.49089525655e+00
  +5.80964295276e+00
  -1.05068055189e-01
  -5.97938670783e+00
  -9.55499037974e+00
  -9.45727426154e+00
  -5.72380433042e+00
  +2.10124511285e-01
  +6.06327310152e+00
  +9.58545743208e+00
  +9.42260922119e+00
  +5.63733382292e+00
  -3.15157770473e-01
  -6.14649013405e+00
  -9.61486628817e+00
  -9.38690396239e+00
  -5.55024097626e+00
  +4.20156237501e-01
  +6.22902861861e+00
  +9.64321370139e+00
  +9.35016242685e+00
  +5.46253540516e+00
  -5.25108320957e-01
  -6.31087944326e+00
  -9.67049654231e+00
  -9.31238867070e+00
  -5.37422679194e+00
  +6.30002434550e-01
  +6.39203357201e+00
  +9.69671179900e+00
  +9.27358686401e+00
  +5.28532488553e+00
  -7.34826998388e-01
  -6.47248204577e+00
  -9.72185657741e+00
  -9.23376129034e+00
  -5.19583950035e+00
  +8.39570440259e-01
  +6.55221598333e+00
  +9.74592810166e+00
  +9.19291634627e+00
  +5.10578051523e+00
  -9.44221196904e-01
  -6.63122658241e+00
  -9.76892371434e+00
  -9.15105654093e+00
  -5.01515787231e+00
  +1.04876771530e+00
  +6.70950512053e+00
  +9.79084087682e+00
  +9.10818649546e+00
  +4.92398157598e+00
  -1.15319845392e+00
  -6.78704295607e+00
  -9.81167716955e+00
  -9.06431094256e+00
  -4.83226169174e+00
  +1.25750188404e+00
  +6.86383152915e+00
  +9.83143029228e+00
  +9.01943472590e+00
  +4.74000834509e+00
  -1.36166649096e+00
  -6.93986236262e+00
  -9.85009806434e+00
  -8.97356279965e+00
  -4.64723172044e+00
  +1.46568077534e+00
  +7.01512706299e+00
  +9.86767842489e+00
  +8.92670022788e+00
  +4.55394205995e+00
  -1.56953325441e+00
  -7.08961732132e+00
  -9.88416943311e+00
  -8.87885218402e+00
  -4.46014966243e+00
  +1.67321246328e+00
  +7.16332491420e+00
  +9.89956926849e+00
  +8.83002395033e+00
  +4.36586488219e+00
  -1.77670695617e+00
  -7.23624170459e+00
  -9.91387623092e+00
  -8.78022091722e+00
  -4.27109812789e+00
  +1.88000530770e+00
  +7.30835964278e+00
  +9.92708874098e+00
  +8.72944858277e+00
  +4.17585986141e+00
  -1.98309611414e+00
  -7.37967076723e+00
  -9.93920534006e+00
  -8.67771255204e+00
  -4.08016059666e+00
  +2.08596799469e+00
  +7.45016720549e+00
  +9.95022469055e+00
  +8.62501853647e+00
  +3.98401089846e+00
  -2.18860959270e+00
  -7.51984117501e+00
  -9.96014557593e+00
  -8.57137235328e+00
  -3.88742138136e+00
  +2.29100957695e+00
  +7.58868498408e+00
  +9.96896690100e+00
  +8.51677992479e+00
  +3.79040270846e+00
  -2.39315664288e+00
  -7.65669103262e+00
  -9.97668769191e+00
  -8.46124727779e+00
  -3.69296559022e+00
  +2.49503951386e+00
  +7.72385181302e+00
  +9.98330709631e+00
  +8.40478054285e+00
  +3.59512078333e+00
  -2.59664694245e+00
  -7.79015991101e+00
  -9.98882438345e+00
  -8.34738595369e+00
  -3.49687908944e+00
  +2.69796771157e+00
  +7.85560800644e+00
  +9.99323894424e+00
  +8.28906984643e+00
  +3.39825135406e+00
  -2.79899063583e+00
  -7.92018887409e+00
  -9.99655029134e+00
  -8.22983865894e+00
  -3.29924846529e+00
  +2.89970456269e+00
  +7.98389538450e+00
  +9.99875805918e+00
  +8.16969893010e+00
  +3.19988135266e+00
  -3.00009837374e+00
  -8.04672050472e+00
  -9.99986200404e+00
  -8.10865729912e+00
  -3.10016098590e+00
  +3.10016098590e+00
  +8.10865729912e+00
  +9.99986200404e+00
  +8.04672050472e+00
  +3.00009837374e+00
  -3.19988135266e+00
  -8.16969893010e+00
  -9.99875805918e+00
  -7.98389538450e+00
  -2.89970456269e+00
  +3.29924846529e+00
  +8.22983865894e+00
  +9.99655029134e+00
  +7.92018887409e+00
  +2.79899063583e+00
  -3.39825135406e+00
  -8.28906984643e+00
  -9.99323894424e+00
  -7.85560800644e+00
  -2.69796771157e+00
  +3.49687908944e+00
  +8.34738595369e+00
  +9.98882438345e+00
  +7.79015991101e+00
  +2.59664694245e+00
  -3.59512078332e+00
  -8.40478054285e+00
  -9.98330709631e+00
  -7.72385181302e+00
  -2.49503951386e+00
  +3.69296559022e+00
  +8.46124727779e+00
  +9.97668769191e+00
  +7.65669103262e+00
  +2.39315664288e+00
  -3.79040270846e+00
  -8.51677992479e+00
  -9.96896690100e+00
  -7.58868498408e+00
  -2.29100957695e+00
  +3.88742138136e+00
  +8.57137235328e+00
  +9.96014557593e+00
  +7.51984117501e+00
  +2.18860959270e+00
  -3.98401089846e+00
  -8.62501853647e+00
  -9.95022469055e+00
  -7.45016720549e+00
  -2.08596799469e+00
  +4.08016059666e+00
  +8.67771255204e+00
  +9.93920534006e+00
  +7.37967076723e+00
  +1.98309611414e+00
  -4.17585986141e+00
  -8.72944858277e+00
  -9.92708874098e+00
  -7.30835964278e+00
  -1.88000530770e+00
  +4.27109812789e+00
  +8.78022091722e+00
  +9.91387623092e+00
  +7.23624170459e+00
  +1.77670695617e+00
  -4.36586488219e+00
  -8.83002395033e+00
  -9.89956926849e+00
  -7.16332491420e+00
  -1.67321246328e+00
  +4.46014966243e+00
  +8.87885218402e+00
  +9.88416943311e+00
  +7.08961732132e+00
  +1.56953325442e+00
  -4.55394205995e+00
  -8.92670022788e+00
  -9.86767842489e+00
  -7.01512706299e+00
  -1.46568077534e+00
  +4.64723172044e+00
  +8.97356279965e+00
  +9.85009806434e+00
  +6.93986236262e+00
  +1.36166649096e+00
  -4.74000834509e+00
  -9.01943472590e+00
  -9.83143029228e+00
  -6.86383152915e+00
  -1.25750188404e+00
  +4.83226169174e+00
  +9.06431094256e+00
  +9.81167716955e+00
  +6.78704295607e+00
  +1.15319845392e+00
  -4.92398157598e+00
  -9.10818649546e+00
  -9.79084087682e+00
  -6.70950512053e+00
  -1.04876771530e+00
  +5.01515787231e+00
  +9.15105654093e+00
  +9.76892371434e+00
  +6.63122658241e+00
  +9.44221196904e-01
  -5.10578051523e+00
  -9.19291634627e+00
  -9.74592810166e+00
  -6.55221598333e+00
  -8.39570440260e-01
  +5.19583950035e+00
  +9.23376129034e+00
  +9.72185657741e+00
  +6.47248204577e+00
  +7.34826998389e-01
  -5.28532488553e+00
  -9.27358686401e+00
  -9.69671179900e+00
  -6.39203357201e+00
  -6.30002434550e-01
  +5.37422679194e+00
  +9.31238867070e+00
  +9.67049654231e+00
  +6.31087944326e+00
  +5.25108320957e-01
  -5.46253540516e+00
  -9.35016242685e+00
  -9.64321370139e+00
  -6.22902861861e+00
  -4.20156237501e-01
  +5.55024097626e+00
  +9.38690396239e+00
  +9.61486628817e+00
  +6.14649013405e+00
  +3.15157770473e-01
  -5.63733382292e+00
  -9.42260922119e+00
  -9.58545743208e+00
  -6.06327310152e+00
  -2.10124511285e-01
  +5.72380433042e+00
  +9.45727426154e+00
  +9.55499037974e+00
  +5.97938670783e+00
  +1.05068055190e-01
  -5.80964295276e+00
  -9.49089525655e+00
  -9.52346849460e+00
  -5.89484021371e+00
  -2.15587355101e-13
</dep>
<dep Input.Vt time>
  +0.00000000000e+00
  +5.86933510315e+00
  +9.51353152724e+00
  +9.49089525720e+00
  +5.82661260104e+00
  -4.22453311239e-02
  -5.92866971157e+00
  -9.53559795097e+00
  -9.45727426219e+00
  -5.73666057735e+00
  +1.78688073030e-01
  +6.03811302255e+00
  +9.57610051294e+00
  +9.42260922211e+00
  +5.65455006930e+00
  -2.94246008610e-01
  -6.12992203399e+00
  -9.59670408259e+00
  -9.38690396303e+00
  -5.56331342366e+00
  +4.04402487985e-01
  +6.20424864336e+00
  +9.63445503730e+00
  +9.35016242801e+00
  +5.46253541017e+00
  -5.04234959924e-01
  -6.29460103389e+00
  -9.65356913188e+00
  -9.31238867035e+00
  -5.37423880145e+00
  +6.14247797257e-01
  +6.36770720041e+00
  +9.68855521037e+00
  +9.27358686503e+00
  +5.28532488594e+00
  -7.13990928072e-01
  -6.45649523340e+00
  -9.70616445639e+00
  -9.23376129196e+00
  -5.19583950024e+00
  +8.23830104289e-01
  +6.52660693798e+00
  +9.73837316911e+00
  +9.19291634596e+00
  +5.10578051688e+00
  -9.23429123058e-01
