<Qucs Dataset 0.0.17>
<indep time 200>
  +0.00000000000e+00
  +2.51256281407e-04
  +5.02512562814e-04
  +7.53768844221e-04
  +1.00502512563e-03
  +1.25628140704e-03
  +1.50753768844e-03
  +1.75879396985e-03
  +2.01005025126e-03
  +2.26130653266e-03
  +2.51256281407e-03
  +2.76381909548e-03
  +3.01507537688e-03
  +3.26633165829e-03
  +3.51758793970e-03
  +3.76884422111e-03
  +4.02010050251e-03
  +4.27135678392e-03
  +4.52261306533e-03
  +4.77386934673e-03
  +5.02512562814e-03
  +5.27638190955e-03
  +5.52763819095e-03
  +5.77889447236e-03
  +6.03015075377e-03
  +6.28140703518e-03
  +6.53266331658e-03
  +6.78391959799e-03
  +7.03517587940e-03
  +7.28643216080e-03
  +7.53768844221e-03
  +7.78894472362e-03
  +8.04020100503e-03
  +8.29145728643e-03
  +8.54271356784e-03
  +8.79396984925e-03
  +9.04522613065e-03
  +9.29648241206e-03
  +9.54773869347e-03
  +9.79899497487e-03
  +1.00502512563e-02
  +1.03015075377e-02
  +1.05527638191e-02
  +1.08040201005e-02
  +1.10552763819e-02
  +1.13065326633e-02
  +1.15577889447e-02
  +1.18090452261e-02
  +1.20603015075e-02
  +1.23115577889e-02
  +1.25628140704e-02
  +1.28140703518e-02
  +1.30653266332e-02
  +1.33165829146e-02
  +1.35678391960e-02
  +1.38190954774e-02
  +1.40703517588e-02
  +1.43216080402e-02
  +1.45728643216e-02
  +1.48241206030e-02
  +1.50753768844e-02
  +1.53266331658e-02
  +1.55778894472e-02
  +1.58291457286e-02
  +1.60804020101e-02
  +1.63316582915e-02
  +1.65829145729e-02
  +1.68341708543e-02
  +1.70854271357e-02
  +1.73366834171e-02
  +1.75879396985e-02
  +1.78391959799e-02
  +1.80904522613e-02
  +1.83417085427e-02
  +1.85929648241e-02
  +1.88442211055e-02
  +1.90954773869e-02
  +1.93467336683e-02
  +1.95979899497e-02
  +1.98492462312e-02
  +2.01005025126e-02
  +2.03517587940e-02
  +2.06030150754e-02
  +2.08542713568e-02
  +2.11055276382e-02
  +2.13567839196e-02
  +2.16080402010e-02
  +2.18592964824e-02
  +2.21105527638e-02
  +2.23618090452e-02
  +2.26130653266e-02
  +2.28643216080e-02
  +2.31155778894e-02
  +2.33668341709e-02
  +2.36180904523e-02
  +2.38693467337e-02
  +2.41206030151e-02
  +2.43718592965e-02
  +2.46231155779e-02
  +2.48743718593e-02
  +2.51256281407e-02
  +2.53768844221e-02
  +2.56281407035e-02
  +2.58793969849e-02
  +2.61306532663e-02
  +2.63819095477e-02
  +2.66331658291e-02
  +2.68844221106e-02
  +2.71356783920e-02
  +2.73869346734e-02
  +2.76381909548e-02
  +2.78894472362e-02
  +2.81407035176e-02
  +2.83919597990e-02
  +2.86432160804e-02
  +2.88944723618e-02
  +2.91457286432e-02
  +2.93969849246e-02
  +2.96482412060e-02
  +2.98994974874e-02
  +3.01507537688e-02
  +3.04020100503e-02
  +3.06532663317e-02
  +3.09045226131e-02
  +3.11557788945e-02
  +3.14070351759e-02
  +3.16582914573e-02
  +3.19095477387e-02
  +3.21608040201e-02
  +3.24120603015e-02
  +3.26633165829e-02
  +3.29145728643e-02
  +3.31658291457e-02
  +3.34170854271e-02
  +3.36683417085e-02
  +3.39195979899e-02
  +3.41708542714e-02
  +3.44221105528e-02
  +3.46733668342e-02
  +3.49246231156e-02
  +3.51758793970e-02
  +3.54271356784e-02
  +3.56783919598e-02
  +3.59296482412e-02
  +3.61809045226e-02
  +3.64321608040e-02
  +3.66834170854e-02
  +3.69346733668e-02
  +3.71859296482e-02
  +3.74371859296e-02
  +3.76884422111e-02
  +3.79396984925e-02
  +3.81909547739e-02
  +3.84422110553e-02
  +3.86934673367e-02
  +3.89447236181e-02
  +3.91959798995e-02
  +3.94472361809e-02
  +3.96984924623e-02
  +3.99497487437e-02
  +4.02010050251e-02
  +4.04522613065e-02
  +4.07035175879e-02
  +4.09547738693e-02
  +4.12060301508e-02
  +4.14572864322e-02
  +4.17085427136e-02
  +4.19597989950e-02
  +4.22110552764e-02
  +4.24623115578e-02
  +4.27135678392e-02
  +4.29648241206e-02
  +4.32160804020e-02
  +4.34673366834e-02
  +4.37185929648e-02
  +4.39698492462e-02
  +4.42211055276e-02
  +4.44723618090e-02
  +4.47236180905e-02
  +4.49748743719e-02
  +4.52261306533e-02
  +4.54773869347e-02
  +4.57286432161e-02
  +4.59798994975e-02
  +4.62311557789e-02
  +4.64824120603e-02
  +4.67336683417e-02
  +4.69849246231e-02
  +4.72361809045e-02
  +4.74874371859e-02
  +4.77386934673e-02
  +4.79899497487e-02
  +4.82412060302e-02
  +4.84924623116e-02
  +4.87437185930e-02
  +4.89949748744e-02
  +4.92462311558e-02
  +4.94974874372e-02
  +4.97487437186e-02
  +5.00000000000e-02
</indep>
<dep V1.It time>
  +0.00000000000e+00
  -2.07129148225e-09
  -5.25468794338e-02
  -1.76202495443e-01
  -1.72827214424e-01
  -1.68370070629e-01
  -1.62867138176e-01
  -1.56352484194e-01
  -1.48868945913e-01
  -1.40466008392e-01
  -1.31199734868e-01
  -1.21132841449e-01
  -1.10335001102e-01
  -9.88835989273e-02
  -8.68653931614e-02
  -7.43800704703e-02
  -6.15480012425e-02
  -4.85279841527e-02
  -3.55604983016e-02
  -2.30788327753e-02
  -1.19808446355e-02
  -4.00768529212e-03
  -5.86784234788e-04
  -2.58862056525e-05
  -3.03043921118e-07
  -9.53038570122e-10
  -2.60833352997e-13
  +6.27820028856e-13
  +6.28938288556e-13
  +6.32946702490e-13
  +6.38351788953e-13
  +5.87283516667e-13
  +6.50243766674e-13
  +5.98976865586e-13
  +6.61260579627e-13
  +6.09032041480e-13
  +6.70176935321e-13
  +6.16705686875e-13
  +6.76558207233e-13
  +6.21789315665e-13
  +6.80380382930e-13
  +6.24429773825e-13
  +6.81969777299e-13
  +6.25163716950e-13
  +6.82132690803e-13
  +6.25168415391e-13
  +6.82587707425e-13
  +6.26996581994e-13
  +6.87247984664e-13
  +6.36929027264e-13
  +7.06868012155e-13
  +7.32319762782e-13
  +8.42412958485e-13
  +1.11678894788e-09
  +6.63462879927e-06
  +9.73645003376e-03
  +5.82349852488e-02
  +4.59185334783e-02
  +3.29995477024e-02
  +2.07012301250e-02
  +1.00539162059e-02
  +2.95498353399e-03
  +3.48407937164e-04
  +1.18206517710e-05
  +1.06141003837e-07
  +2.57342860483e-10
  -3.96761894082e-13
  -6.29473444838e-13
  -6.31230453641e-13
  -6.35641471329e-13
  -6.41219939349e-13
  -6.47193171388e-13
  -6.53129426366e-13
  -6.58771006344e-13
  -6.03532441023e-13
  -6.08152901781e-13
  -6.12158588119e-13
  -6.15518995205e-13
  -6.18226293341e-13
  -6.20293125133e-13
  -6.82498827532e-13
  -6.22710019411e-13
  -6.83897468621e-13
  -6.23301275868e-13
  -6.83987250020e-13
  -6.23334388077e-13
  -6.84622222150e-13
  -6.25576705286e-13
  -6.90076088003e-13
  -6.36960012012e-13
  -7.12393075804e-13
  -7.41603079502e-13
  -1.19236342983e-12
  -6.99115141949e-09
  -3.24873962522e-05
  -2.62545931439e-02
  -5.61383348335e-02
  -4.33164031970e-02
  -3.04669045529e-02
  -1.83910103024e-02
  -8.27903549350e-03
  -2.10074314470e-03
  -1.96651711567e-04
  -5.11814858344e-06
  -3.52883483679e-08
  -6.56811856618e-11
  +5.98722863307e-13
  +6.31614128199e-13
  +5.69515904711e-13
  +6.38766964026e-13
  +6.44468723941e-13
  +5.85897787094e-13
  +5.92613907124e-13
  +5.97592703183e-13
  +6.02566718811e-13
  +6.06832829571e-13
  +6.10376933204e-13
  +6.13912754151e-13
  +6.16043024118e-13
  +6.18882833569e-13
  +6.19595228299e-13
  +6.21743737018e-13
  +6.21756620701e-13
  +6.21763878387e-13
  +6.21045681658e-13
  +6.21024307629e-13
  +6.21749556006e-13
  +6.25278493709e-13
  +6.27429572105e-13
  +6.36651705328e-13
  +6.54448399965e-13
  +6.87711492909e-13
  +4.22646132564e-12
  +4.17295772370e-08
  +1.51041770144e-04
  +4.61122173506e-02
  +5.36808113491e-02
  +4.07199484838e-02
  +2.79725608459e-02
  +1.61681452394e-02
  +6.69226146132e-03
  +1.43792373974e-03
  +1.05610102445e-04
  +2.10594898552e-06
  +1.11631323032e-08
  +1.56121907338e-11
  -6.27588059978e-13
  -6.33180287352e-13
  -6.36224615325e-13
  -5.73957532096e-13
  -6.47023952384e-13
  -6.53709737896e-13
  -6.58683719946e-13
  -6.64368748227e-13
  -6.69354658040e-13
  -6.74328306557e-13
  -6.79283345950e-13
  -6.79996978513e-13
  -6.84260309928e-13
  -6.85675209326e-13
  -6.85677979513e-13
  -6.86396976612e-13
  -6.87832701605e-13
  -6.87845440790e-13
  -6.87858449839e-13
  -6.86495659189e-13
  -6.87952384693e-13
  -6.90819958516e-13
  -6.95873096020e-13
  -7.03114828147e-13
  -7.24615809276e-13
  -7.64616739754e-13
  -2.53969992083e-11
  -2.37758693754e-07
  -6.66160338445e-04
  -5.68155523040e-02
  -5.11147832129e-02
  -3.81341149313e-02
  -2.54933208512e-02
  -1.40286052343e-02
  -5.25655993473e-03
  -9.40459343968e-04
  -5.37086771197e-05
  -8.20418086243e-07
  -3.34771248222e-09
  -3.21042450928e-12
  +6.32988775688e-13
  +6.34126103328e-13
  +5.69313904400e-13
  +6.42906805056e-13
  +6.50173316684e-13
  +6.55150723155e-13
  +6.60142941947e-13
  +6.65138231106e-13
  +6.70096548109e-13
  +6.75778611303e-13
  +6.79314847320e-13
  +6.81433767458e-13
  +6.84974546347e-13
  +6.85673740008e-13
</dep>
<dep dc_voltage.Vt time>
  +0.00000000000e+00
  +1.02854255560e-09
  +1.82840589232e-02
  +8.42532758217e-01
  +1.71671476088e+00
  +2.56903684827e+00
  +3.39421575446e+00
  +4.18714881414e+00
  +4.94294389700e+00
  +5.65695295404e+00
  +6.32480450310e+00
  +6.94243608973e+00
  +7.50612756705e+00
  +8.01253684639e+00
  +8.45874139998e+00
  +8.84229224714e+00
  +9.16129497540e+00
  +9.41455141826e+00
  +9.60184557132e+00
  +9.72459377525e+00
  +9.78741756237e+00
  +9.80127347881e+00
  +9.78638881383e+00
  +9.76282497153e+00
  +9.73835841464e+00
  +9.71392121464e+00
  +9.68954501369e+00
  +9.66522998188e+00
  +9.64097596685e+00
  +9.61678281492e+00
  +9.59265037282e+00
  +9.56857848579e+00
  +9.54456700780e+00
  +9.52061578349e+00
  +9.49672466260e+00
  +9.47289349431e+00
  +9.44912212817e+00
  +9.42541041412e+00
  +9.40175820246e+00
  +9.37816534388e+00
  +9.35463168943e+00
  +9.33115709056e+00
  +9.30774139906e+00
  +9.28438446711e+00
  +9.26108614726e+00
  +9.23784629243e+00
  +9.21466475591e+00
  +9.19154139134e+00
  +9.16847605276e+00
  +9.14546859456e+00
  +9.12251887148e+00
  +9.09962673984e+00
  +9.07679205456e+00
  +9.05401467133e+00
  +9.03130048126e+00
  +9.01619052143e+00
  +9.21788109049e+00
  +9.45727354731e+00
  +9.63148197545e+00
  +9.74173128826e+00
  +9.79366592849e+00
  +9.79988437503e+00
  +9.78197866594e+00
  +9.75798311555e+00
  +9.73351044189e+00
  +9.70908519288e+00
  +9.68472112651e+00
  +9.66041820001e+00
  +9.63617625973e+00
  +9.61199515199e+00
  +9.58787472398e+00
  +9.56381482399e+00
  +9.53981530014e+00
  +9.51587600090e+00
  +9.49199677291e+00
  +9.46817746737e+00
  +9.44441793423e+00
  +9.42071802348e+00
  +9.39707758551e+00
  +9.37349647108e+00
  +9.34997453352e+00
  +9.32651162212e+00
  +9.30310758877e+00
  +9.27976228571e+00
  +9.25647556557e+00
  +9.23324728134e+00
  +9.21007728637e+00
  +9.18696543440e+00
  +9.16391157953e+00
  +9.14091557621e+00
  +9.11797727927e+00
  +9.09509654437e+00
  +9.07227322735e+00
  +9.04950718755e+00
  +9.02682738355e+00
  +9.02896964978e+00
  +9.27072713331e+00
  +9.49735280092e+00
  +9.65854167032e+00
  +9.75650224322e+00
  +9.79802188830e+00
  +9.79752556868e+00
  +9.77736656999e+00
  +9.75312202643e+00
  +9.72865356867e+00
  +9.70424043493e+00
  +9.67988852618e+00
  +9.65559772676e+00
  +9.63136788302e+00
  +9.60719884125e+00
  +9.58309044945e+00
  +9.55904255391e+00
  +9.53505500354e+00
  +9.51112764776e+00
  +9.48726033550e+00
  +9.46345291610e+00
  +9.43970523926e+00
  +9.41601715507e+00
  +9.39238851397e+00
  +9.36881916680e+00
  +9.34530896478e+00
  +9.32185775947e+00
  +9.29846540284e+00
  +9.27513174720e+00
  +9.25185664526e+00
  +9.22863995007e+00
  +9.20548151507e+00
  +9.18238119407e+00
  +9.15933884123e+00
  +9.13635431108e+00
  +9.11342745853e+00
  +9.09055814124e+00
  +9.06774621293e+00
  +9.04499155689e+00
  +9.02243241936e+00
  +9.06114510886e+00
  +9.32124343073e+00
  +9.53480121074e+00
  +9.68304211818e+00
  +9.76894947010e+00
  +9.80046787090e+00
  +9.79427501773e+00
  +9.77251431602e+00
  +9.74813889887e+00
  +9.72367924661e+00
  +9.69927856761e+00
  +9.67493910998e+00
  +9.65066073073e+00
  +9.62644327588e+00
  +9.60228659213e+00
  +9.57819052572e+00
  +9.55415492528e+00
  +9.53017964001e+00
  +9.50626451854e+00
  +9.48240940989e+00
  +9.45861416348e+00
  +9.43487862908e+00
  +9.41120265686e+00
  +9.38758609733e+00
  +9.36402880143e+00
  +9.34053062042e+00
  +9.31709140596e+00
  +9.29371101009e+00
  +9.27038928520e+00
  +9.24712608406e+00
  +9.22392125982e+00
  +9.20077466598e+00
  +9.17768615642e+00
  +9.15465558537e+00
  +9.13168280746e+00
  +9.10876767765e+00
  +9.08591005410e+00
  +9.06310978973e+00
  +9.04036693589e+00
  +9.01813503795e+00
  +9.10917623450e+00
  +9.36921120032e+00
  +9.56962666164e+00
  +9.70507334919e+00
  +9.77920801668e+00
  +9.80153233790e+00
  +9.79053239259e+00
  +9.76767772087e+00
  +9.74323825960e+00
  +9.71878942773e+00
  +9.69440101143e+00
  +9.67007379371e+00
  +9.64580762367e+00
  +9.62160234683e+00
  +9.59745780958e+00
  +9.57337385969e+00
  +9.54935034630e+00
  +9.52538711773e+00
  +9.50148402271e+00
  +9.47764091035e+00
  +9.45385763010e+00
  +9.43013403185e+00
  +9.40646996581e+00
  +9.38286528260e+00
  +9.35931983320e+00
</dep>
<dep _net3.Vt time>
  +0.00000000000e+00
  +1.81360854437e+01
  +3.61592298825e+01
  +5.39571956422e+01
  +7.14191473311e+01
  +8.84363420574e+01
  +1.04902806618e+02
  +1.20715997436e+02
  +1.35777439145e+02
  +1.49993337836e+02
  +1.63275165150e+02
  +1.75540209581e+02
  +1.86712091557e+02
  +1.96721239087e+02
  +2.05505321014e+02
  +2.13009635180e+02
  +2.19187449074e+02
  +2.24000290860e+02
  +2.27418188955e+02
  +2.29419858676e+02
  +2.29992834786e+02
  +2.29133549122e+02
  +2.26847352818e+02
  +2.23148482974e+02
  +2.18059974005e+02
  +2.11613514188e+02
  +2.03849248329e+02
  +1.94815527768e+02
  +1.84568609266e+02
  +1.73172304682e+02
  +1.60697583578e+02
  +1.47222131273e+02
  +1.32829865055e+02
  +1.17610411598e+02
  +1.01658548816e+02
  +8.50736156458e+01
  +6.79588934160e+01
  +5.04209626750e+01
  +3.25690394677e+01
  +1.45142952019e+01
  -3.63083566314e+00
  -2.17533557928e+01
  -3.97404086590e+01
  -5.74799813452e+01
  -7.48616020973e+01
  -9.17770282784e+01
  -1.08120920440e+02
  -1.23791498317e+02
  -1.38691174651e+02
  -1.52727162915e+02
  -1.65812055127e+02
  -1.77864366180e+02
  -1.88809041280e+02
  -1.98577923349e+02
  -2.07110177465e+02
  -2.14352669705e+02
  -2.20260298035e+02
  -2.24796273176e+02
  -2.27932347712e+02
  -2.29648991991e+02
  -2.29935515749e+02
  -2.28790134685e+02
  -2.26219981564e+02
  -2.22241061809e+02
  -2.16878153820e+02
  -2.10164654672e+02
  -2.02142372138e+02
  -1.92861264335e+02
  -1.82379128609e+02
  -1.70761241614e+02
  -1.58079952800e+02
  -1.44414233868e+02
  -1.29849186978e+02
  -1.14475514779e+02
  -9.83889555733e+01
  -8.16896871057e+01
  -6.44817027199e+01
  -4.68721637467e+01
  -2.89707321656e+01
  -1.08888876935e+01
  +7.26076644591e+00
  +2.53652047496e+01
  +4.33116832926e+01
  +6.09884418317e+01
  +7.82853997829e+01
  +9.50948417400e+01
  +1.11312088263e+02
  +1.26836147761e+02
  +1.41570345409e+02
  +1.55422925183e+02
  +1.68307621264e+02
  +1.80144195249e+02
  +1.90858935831e+02
  +2.00385117830e+02
  +2.08663417717e+02
  +2.15642283051e+02
  +2.21278253512e+02
  +2.25536231549e+02
  +2.28389700949e+02
  +2.29820891962e+02
  +2.29820891962e+02
  +2.28389700949e+02
  +2.25536231549e+02
  +2.21278253512e+02
  +2.15642283051e+02
  +2.08663417717e+02
  +2.00385117830e+02
  +1.90858935831e+02
  +1.80144195249e+02
  +1.68307621264e+02
  +1.55422925183e+02
  +1.41570345409e+02
  +1.26836147761e+02
  +1.11312088263e+02
  +9.50948417400e+01
  +7.82853997829e+01
  +6.09884418317e+01
  +4.33116832926e+01
  +2.53652047496e+01
  +7.26076644591e+00
  -1.08888876935e+01
  -2.89707321656e+01
  -4.68721637467e+01
  -6.44817027199e+01
  -8.16896871057e+01
  -9.83889555733e+01
  -1.14475514779e+02
  -1.29849186978e+02
  -1.44414233868e+02
  -1.58079952800e+02
  -1.70761241614e+02
  -1.82379128609e+02
  -1.92861264335e+02
  -2.02142372138e+02
  -2.10164654672e+02
  -2.16878153820e+02
  -2.22241061809e+02
  -2.26219981564e+02
  -2.28790134685e+02
  -2.29935515749e+02
  -2.29648991991e+02
  -2.27932347712e+02
  -2.24796273176e+02
  -2.20260298035e+02
  -2.14352669705e+02
  -2.07110177465e+02
  -1.98577923349e+02
  -1.88809041280e+02
  -1.77864366180e+02
  -1.65812055127e+02
  -1.52727162915e+02
  -1.38691174651e+02
  -1.23791498317e+02
  -1.08120920440e+02
  -9.17770282784e+01
  -7.48616020973e+01
  -5.74799813452e+01
  -3.97404086590e+01
  -2.17533557928e+01
  -3.63083566314e+00
  +1.45142952019e+01
  +3.25690394677e+01
  +5.04209626750e+01
  +6.79588934160e+01
  +8.50736156458e+01
  +1.01658548816e+02
  +1.17610411598e+02
  +1.32829865055e+02
  +1.47222131273e+02
  +1.60697583578e+02
  +1.73172304682e+02
  +1.84568609266e+02
  +1.94815527768e+02
  +2.03849248329e+02
  +2.11613514188e+02
  +2.18059974005e+02
  +2.23148482974e+02
  +2.26847352818e+02
  +2.29133549122e+02
  +2.29992834786e+02
  +2.29419858676e+02
  +2.27418188955e+02
  +2.24000290860e+02
  +2.19187449074e+02
  +2.13009635180e+02
  +2.05505321014e+02
  +1.96721239087e+02
  +1.86712091557e+02
  +1.75540209581e+02
  +1.63275165150e+02
  +1.49993337836e+02
  +1.35777439145e+02
  +1.20715997436e+02
  +1.04902806618e+02
  +8.84363420574e+01
  +7.14191473311e+01
  +5.39571956422e+01
  +3.61592298825e+01
  +1.81360854437e+01
  -2.67727691160e-13
</dep>
<dep _net2.Vt time>
  +0.00000000000e+00
  +1.81360854427e+01
  +3.61329564428e+01
  +5.38690943945e+01
  +7.13327337238e+01
  +8.83521570220e+01
  +1.04821373049e+02
  +1.20637821194e+02
  +1.35703004672e+02
  +1.49923104832e+02
  +1.63209565283e+02
  +1.75479643160e+02
  +1.86656924056e+02
  +1.96671797287e+02
  +2.05461888318e+02
  +2.12972445145e+02
  +2.19156675073e+02
  +2.23976026868e+02
  +2.27400408706e+02
  +2.29408319259e+02
  +2.29986844363e+02
  +2.29131545280e+02
  +2.26847059426e+02
  +2.23148470031e+02
  +2.18059973854e+02
  +2.11613514187e+02
  +2.03849248329e+02
  +1.94815527768e+02
  +1.84568609266e+02
  +1.73172304682e+02
  +1.60697583578e+02
  +1.47222131273e+02
  +1.32829865055e+02
  +1.17610411598e+02
  +1.01658548816e+02
  +8.50736156458e+01
  +6.79588934160e+01
  +5.04209626750e+01
  +3.25690394677e+01
  +1.45142952019e+01
  -3.63083566314e+00
  -2.17533557928e+01
  -3.97404086590e+01
  -5.74799813452e+01
  -7.48616020973e+01
  -9.17770282784e+01
  -1.08120920440e+02
  -1.23791498317e+02
  -1.38691174651e+02
  -1.52727162915e+02
  -1.65812055127e+02
  -1.77864366180e+02
  -1.88809041280e+02
  -1.98577923349e+02
  -2.07110174148e+02
  -2.14347801480e+02
  -2.20231180542e+02
  -2.24773313910e+02
  -2.27915847938e+02
  -2.29638641376e+02
  -2.29930488791e+02
  -2.28788657193e+02
  -2.26219807360e+02
  -2.22241055899e+02
  -2.16878153766e+02
  -2.10164654671e+02
  -2.02142372138e+02
  -1.92861264335e+02
  -1.82379128609e+02
  -1.70761241614e+02
  -1.58079952800e+02
  -1.44414233868e+02
  -1.29849186978e+02
  -1.14475514779e+02
  -9.83889555733e+01
  -8.16896871057e+01
  -6.44817027199e+01
  -4.68721637467e+01
  -2.89707321656e+01
  -1.08888876935e+01
  +7.26076644591e+00
  +2.53652047496e+01
  +4.33116832926e+01
  +6.09884418317e+01
  +7.82853997829e+01
  +9.50948417400e+01
  +1.11312088263e+02
  +1.26836147761e+02
  +1.41570345409e+02
  +1.55422925183e+02
  +1.68307621264e+02
  +1.80144195249e+02
  +1.90858935831e+02
  +2.00385117826e+02
  +2.08663401474e+02
  +2.15629155755e+02
  +2.21250184344e+02
  +2.25514573347e+02
  +2.28374467497e+02
  +2.29811696457e+02
  +2.29816752445e+02
  +2.28388650578e+02
  +2.25536133223e+02
  +2.21278250953e+02
  +2.15642283034e+02
  +2.08663417717e+02
  +2.00385117830e+02
  +1.90858935831e+02
  +1.80144195249e+02
  +1.68307621264e+02
  +1.55422925183e+02
  +1.41570345409e+02
  +1.26836147761e+02
  +1.11312088263e+02
  +9.50948417400e+01
  +7.82853997829e+01
  +6.09884418317e+01
  +4.33116832926e+01
  +2.53652047496e+01
  +7.26076644591e+00
  -1.08888876935e+01
  -2.89707321656e+01
  -4.68721637467e+01
  -6.44817027199e+01
  -8.16896871057e+01
  -9.83889555733e+01
  -1.14475514779e+02
  -1.29849186978e+02
  -1.44414233868e+02
  -1.58079952800e+02
  -1.70761241614e+02
  -1.82379128609e+02
  -1.92861264335e+02
  -2.02142372117e+02
  -2.10164579151e+02
  -2.16855097711e+02
  -2.22214221403e+02
  -2.26199621590e+02
  -2.28776148404e+02
  -2.29927431677e+02
  -2.29645645860e+02
  -2.27931628750e+02
  -2.24796220371e+02
  -2.20260296982e+02
  -2.14352669699e+02
