<Qucs Dataset 0.0.20>
<indep time 101>
  +0.00000000000000000000e+00
  +1.00000000000000005551e-01
  +2.00000000000000011102e-01
  +3.00000000000000044409e-01
  +4.00000000000000022204e-01
  +5.00000000000000000000e-01
  +6.00000000000000088818e-01
  +7.00000000000000066613e-01
  +8.00000000000000044409e-01
  +9.00000000000000022204e-01
  +1.00000000000000000000e+00
  +1.10000000000000008882e+00
  +1.20000000000000017764e+00
  +1.30000000000000004441e+00
  +1.40000000000000013323e+00
  +1.50000000000000000000e+00
  +1.60000000000000008882e+00
  +1.70000000000000017764e+00
  +1.80000000000000004441e+00
  +1.90000000000000013323e+00
  +2.00000000000000000000e+00
  +2.10000000000000008882e+00
  +2.20000000000000017764e+00
  +2.30000000000000026645e+00
  +2.40000000000000035527e+00
  +2.50000000000000000000e+00
  +2.60000000000000008882e+00
  +2.70000000000000017764e+00
  +2.80000000000000026645e+00
  +2.90000000000000035527e+00
  +3.00000000000000000000e+00
  +3.10000000000000008882e+00
  +3.20000000000000017764e+00
  +3.30000000000000026645e+00
  +3.40000000000000035527e+00
  +3.50000000000000000000e+00
  +3.60000000000000008882e+00
  +3.70000000000000017764e+00
  +3.80000000000000026645e+00
  +3.90000000000000035527e+00
  +4.00000000000000000000e+00
  +4.10000000000000053291e+00
  +4.20000000000000017764e+00
  +4.29999999999999982236e+00
  +4.40000000000000035527e+00
  +4.50000000000000000000e+00
  +4.60000000000000053291e+00
  +4.70000000000000017764e+00
  +4.80000000000000071054e+00
  +4.90000000000000035527e+00
  +5.00000000000000000000e+00
  +5.10000000000000053291e+00
  +5.20000000000000017764e+00
  +5.30000000000000071054e+00
  +5.40000000000000035527e+00
  +5.50000000000000000000e+00
  +5.60000000000000053291e+00
  +5.70000000000000017764e+00
  +5.80000000000000071054e+00
  +5.90000000000000035527e+00
  +6.00000000000000000000e+00
  +6.10000000000000053291e+00
  +6.20000000000000017764e+00
  +6.30000000000000071054e+00
  +6.40000000000000035527e+00
  +6.50000000000000000000e+00
  +6.60000000000000053291e+00
  +6.70000000000000017764e+00
  +6.80000000000000071054e+00
  +6.90000000000000035527e+00
  +7.00000000000000000000e+00
  +7.10000000000000053291e+00
  +7.20000000000000017764e+00
  +7.30000000000000071054e+00
  +7.40000000000000035527e+00
  +7.50000000000000000000e+00
  +7.60000000000000053291e+00
  +7.70000000000000017764e+00
  +7.80000000000000071054e+00
  +7.90000000000000035527e+00
  +8.00000000000000000000e+00
  +8.09999999999999964473e+00
  +8.20000000000000106581e+00
  +8.30000000000000071054e+00
  +8.40000000000000035527e+00
  +8.50000000000000000000e+00
  +8.59999999999999964473e+00
  +8.70000000000000106581e+00
  +8.80000000000000071054e+00
  +8.90000000000000035527e+00
  +9.00000000000000000000e+00
  +9.09999999999999964473e+00
  +9.20000000000000106581e+00
  +9.30000000000000071054e+00
  +9.40000000000000035527e+00
  +9.50000000000000000000e+00
  +9.60000000000000142109e+00
  +9.70000000000000106581e+00
  +9.80000000000000071054e+00
  +9.90000000000000035527e+00
  +1.00000000000000000000e+01
</indep>
<indep R_load 11>
  +1.00000000000000000000e+03
  +1.40000000000000000000e+03
  +1.80000000000000000000e+03
  +2.20000000000000000000e+03
  +2.60000000000000000000e+03
  +3.00000000000000000000e+03
  +3.40000000000000000000e+03
  +3.80000000000000000000e+03
  +4.20000000000000000000e+03
  +4.60000000000000000000e+03
  +5.00000000000000000000e+03
</indep>
<indep R_adjust 5>
  +0.00000000000000000000e+00
  +1.25000000000000000000e+05
  +2.50000000000000000000e+05
  +3.75000000000000000000e+05
  +5.00000000000000000000e+05
</indep>
<dep Voltage R_load R_adjust>
  +6.28647679462569830555e-01
  +6.28648435246266679144e-01
  +6.28648872034286765320e-01
  +6.28649157179623996328e-01
  +6.28649358165028870893e-01
  +6.28649507534374873963e-01
  +6.28649622942510699630e-01
  +6.28649714806063575345e-01
  +6.28649789673751402397e-01
  +6.28649851866603270878e-01
  +6.28649904355404576251e-01
  +1.11197208114498067744e+02
  +1.11202347150973665180e+02
  +1.11205241452656480305e+02
  +1.11207144089578605417e+02
  +1.11208500327622687109e+02
  +1.11209521174183379344e+02
  +1.11210320423104619181e+02
  +1.11210965137184231821e+02
  +1.11211497504572534467e+02
  +1.11211945461452415884e+02
  +1.11212328275502216002e+02
  +2.07639758816840924283e+02
  +2.13091033387311426850e+02
  +2.13118305148515219116e+02
  +2.13124349550513585427e+02
  +2.13128262377705198105e+02
  +2.13131158461407579807e+02
  +2.13133410604667972166e+02
  +2.13135219250211775943e+02
  +2.13136707449763775912e+02
  +2.13137955871186676404e+02
  +2.13139019879063823737e+02
  +2.17439827843452803791e+02
  +2.92975974344684743755e+02
  +3.07604289341627520571e+02
  +3.07848591040939936647e+02
  +3.07866987435194289446e+02
  +3.07874270447949697882e+02
  +3.07879294804673122599e+02
  +3.07883217550175004362e+02
  +3.07886415240784629077e+02
  +3.07889086142643748190e+02
  +3.07891356716027587481e+02
  +2.17591626480538735677e+02
  +2.99240669482650218924e+02
  +3.70496427331837480779e+02
  +3.92095472222037869869e+02
  +3.93089545500699045988e+02
  +3.93164797236237063771e+02
  +3.93182913596906814746e+02
  +3.93192775640097579526e+02
  +3.93200038941891875766e+02
  +3.93205915951007284548e+02
  +3.93210852512060512254e+02
</dep>
<dep Pwr2 R_load R_adjust>
  +6.16389417017097892768e-04
  +6.76816707433412095320e-04
  +7.49789459869843323385e-04
  +8.28464793757054552420e-04
  +9.10210739540427433286e-04
  +9.93799080797658348704e-04
  +1.07857944040292211274e-03
  +1.16417548202771216521e-03
  +1.25035409756914846907e-03
  +1.33696338207745435075e-03
  +1.42390005703506490088e-03
  +3.14059430550592422193e+00
  +2.25768060814223403554e+00
  +1.76713815117708916702e+00
  +1.45497832784828329267e+00
  +1.23887992366071997274e+00
  +1.08042269254434741832e+00
  +9.59264172562451888915e-01
  +8.63627027057952356692e-01
  +7.86219750877940271039e-01
  +7.22287371644826925454e-01
  +6.68596028640963235823e-01
  +1.08501894506040965638e+01
  +8.19928938659845307768e+00
  +6.39916923747302757164e+00
  +5.25258638314148385007e+00
  +4.45873214116593352685e+00
  +3.87655519635901280040e+00
  +3.43135796663971648357e+00
  +3.07988949872789286033e+00
  +2.79537285965071236049e+00
  +2.56034460725934964742e+00
  +2.36292804677572387817e+00
  +1.18449832604736471353e+01
  +1.54182084898188822564e+01
  +1.32673589008035062164e+01
  +1.08958740826222015841e+01
  +9.24024182072446187419e+00
  +8.02553639089886239333e+00
  +7.09655496188332257645e+00
  +6.36311969893108120289e+00
  +5.76937237734163588243e+00
  +5.27887720977987218163e+00
  +4.86686114132856584291e+00
  +1.18457830582144865161e+01
  +1.60428427831795268332e+01
  +1.91806854302417377767e+01
  +1.76226419323900564962e+01
  +1.50122298316433067100e+01
  +1.30363617221194694196e+01
  +1.15220193816032452361e+01
  +1.03260660512996018667e+01
  +9.35779757221818364599e+00
  +8.55787549737075359246e+00
  +7.88591510843078680182e+00
</dep>
<dep Current2 R_load R_adjust>
  +7.85104717230190830499e-04
  +6.95298860425917915860e-04
  +6.45406615962131838954e-04
  +6.13656993974000621907e-04
  +5.91676477197966002239e-04
  +5.75557434376349754887e-04
  +5.63231077957644329403e-04
  +5.53499746119780157080e-04
  +5.45621990542979277278e-04
  +5.39114286116681171515e-04
  +5.33647834631616364842e-04
  +5.60410055718660732316e-02
  +4.01575522886527744304e-02
  +3.13327850233681773351e-02
  +2.57167996723072708742e-02
  +2.18287030840369940254e-02
  +1.89773785733115020469e-02
  +1.67969199956985448807e-02
  +1.50754857393852661346e-02
  +1.36819289130027995499e-02
  +1.25307219997824528801e-02
  +1.15637020771114928941e-02
  +1.04164242668029302652e-01
  +7.65286565682539027256e-02
  +5.96246091879716125228e-02
  +4.88624525076700455539e-02
  +4.14113146056909534054e-02
  +3.59469757483575277912e-02
  +3.17682692535275271184e-02
  +2.84692331562924304256e-02
  +2.57985458230401594470e-02
  +2.35923007303660940692e-02
  +2.17390342323467711250e-02
  +1.08834660198273452947e-01
  +1.04942870477971697540e-01
  +8.58531009625793095630e-02
  +7.03752089698890109792e-02
  +5.96149239856690604800e-02
  +5.17221306305752220878e-02
  +4.56861253293901273254e-02
  +4.09207182724012283326e-02
  +3.70629206868973923306e-02
  +3.38759797220103894833e-02
  +3.11989138956104243572e-02
  +1.08838334506801817647e-01
  +1.07047528773703159999e-01
  +1.03227594906276393116e-01
  +8.95002334491370316050e-02
  +7.59864103023168285800e-02
  +6.59200569430363619849e-02
  +5.82136515766130888117e-02
  +5.21285507469139153258e-02
  +4.72021931800242697252e-02
  +4.31324439003834894657e-02
  +3.97137636303354843448e-02
</dep>
<dep Pwr1 R_load R_adjust>
  +6.16389410698040094046e-04
  +6.76816610352251493525e-04
  +7.49789414884743368392e-04
  +8.28464705891856362241e-04
  +9.10210587916596429621e-04
  +9.93798801339430956311e-04
  +1.07857923387009524765e-03
  +1.16417530600517642528e-03
  +1.25035403468059646420e-03
  +1.33696335209962770610e-03
  +1.42389983519886445008e-03
  +3.14059396339246488239e+00
  +2.25768045247755422267e+00
  +1.76713803250708934023e+00
  +1.45497801251929748112e+00
  +1.23887987304500035712e+00
  +1.08042235304424583120e+00
  +9.59263937958353074542e-01
  +8.63626717223622941688e-01
  +7.86219718681893109391e-01
  +7.22287259543826443142e-01
  +6.68595762650827984963e-01
  +1.08501894521749182587e+01
  +8.19928869045275732219e+00
  +6.39916684093118970367e+00
  +5.25258553913859493889e+00
  +4.45873108655227756714e+00
  +3.87655436987727375353e+00
  +3.43135715756150005973e+00
  +3.07988824351812295887e+00
  +2.79537165004805920887e+00
  +2.56034303865739554240e+00
  +2.36292713354283900884e+00
  +1.18449832638398504514e+01
  +1.54182084920852311427e+01
  +1.32673593412533001867e+01
  +1.08958774228571417808e+01
  +9.24024278582711033891e+00
  +8.02553863525644040067e+00
  +7.09655895851192486390e+00
  +6.36312111973171745660e+00
  +5.76937203671297904606e+00
  +5.27888000610240926136e+00
  +4.86686369206886393357e+00
  +1.18457830605812208802e+01
  +1.60428427938766269278e+01
  +1.91806854163950895042e+01
  +1.76226417528975005666e+01
  +1.50122313286974744528e+01
  +1.30363599416196880298e+01
  +1.15220228854379396211e+01
  +1.03260637479706520736e+01
  +9.35779840124853734551e+00
  +8.55787716548293175833e+00
  +7.88591470944357642026e+00
</dep>
<dep Current1 R_load R_adjust>
  +7.85104713205850074029e-04
  +6.95298810559815349229e-04
  +6.45406596600909036009e-04
  +6.13656961432427778408e-04
  +5.91676427916929177121e-04
  +5.75557353452411089335e-04
  +5.63231024032218030584e-04
  +5.53499704275387297524e-04
  +5.45621976821515316559e-04
  +5.39114280072583440528e-04
  +5.33647793061840423033e-04
  +5.60410025195165889533e-02
  +4.01575509042424588779e-02
  +3.13327839713107431097e-02
  +2.57167968855809524198e-02
  +2.18287026381198782932e-02
  +1.89773755916902778229e-02
  +1.67969179417145481059e-02
  +1.50754830351487803530e-02
  +1.36819286328622707199e-02
  +1.25307210273810348128e-02
  +1.15636997768951785975e-02
  +1.04164242675569423957e-01
  +7.65286533194909079914e-02
  +5.96245980230157707203e-02
  +4.88624485819799461717e-02
  +4.14113097082291770068e-02
  +3.59469719164089152041e-02
  +3.17682655082149739689e-02
  +2.84692273549701328761e-02
  +2.57985402413173602054e-02
  +2.35922935034219953543e-02
  +2.17390300314565035333e-02
  +1.08834660213738207424e-01
  +1.04942870485684569548e-01
  +8.58531023876549642670e-02
  +7.03752197569865872717e-02
  +5.96149270989273852295e-02
  +5.17221378626742389617e-02
  +4.56861381941146629804e-02
  +4.09207228409290968418e-02
  +3.70629195927841825764e-02
  +3.38759886943873975151e-02
  +3.11989220713436328503e-02
  +1.08838334517674523161e-01
  +1.07047528809391903626e-01
  +1.03227594869016087165e-01
  +8.95002329933419771280e-02
  +7.59864140910867374989e-02
  +6.59200524413719596284e-02
  +5.82136604279693409270e-02
  +5.21285449330247674382e-02
  +4.72021952709035449991e-02
  +4.31324481040992052661e-02
  +3.97137626256782103051e-02
</dep>
<dep Current R_load R_adjust>
  +2.23060338682224117840e-03
  +2.05099396964674839799e-03
  +1.95121086498732773835e-03
  +1.88771249149492282605e-03
  +1.84375206406445636513e-03
  +1.81151440966207657665e-03
  +1.78686208150920710844e-03
  +1.76739971462061681504e-03
  +1.75164446358423838909e-03
  +1.73862925512044668580e-03
  +1.72769647929743976403e-03
  +1.12594386348127351027e-01
  +8.08276170355796824696e-02
  +6.31781628305246728550e-02
  +5.19462432625147282894e-02
  +4.41700901722175548469e-02
  +3.84674670528716705631e-02
  +3.41065730971441619102e-02
  +3.06637218915705341005e-02
  +2.78766255069210940054e-02
  +2.55742234720248810820e-02
  +2.36401929756606503374e-02
  +2.08703899416168153769e-01
  +1.53433638522875309684e-01
  +1.19625652389936470987e-01
  +9.81014325113194335382e-02
  +8.31992188857834796822e-02
  +7.22705899970066123483e-02
  +6.39132145152171704527e-02
  +5.73151704143016471615e-02
  +5.19738207881494107543e-02
  +4.75613497900554405007e-02
  +4.38548376109340748430e-02
  +2.18019098604926769847e-01
  +2.10145988667064409494e-01
  +1.71956289462625200315e-01
  +1.41000467175316474000e-01
  +1.19479956967980457949e-01
  +1.03694433838644337054e-01
  +9.16224770222770767969e-02
  +8.20916938287059305690e-02
  +7.43761254569147295390e-02
  +6.80022808627779029589e-02
  +6.26481716831131241197e-02
  +2.18026229627945405953e-01
  +2.14341969495076889451e-01
  +2.06614837180644078662e-01
  +1.79137656282683355169e-01
  +1.52109143918386258143e-01
  +1.31976423213465976492e-01
  +1.16563667787389316222e-01
  +1.04393492224049491690e-01
  +9.45408202113463269622e-02
  +8.64013538599275460195e-02
  +7.95640139243498495381e-02
</dep>
<dep V1.It time>
  -7.95640139337632779082e-02
  -7.95742035196648211937e-02
  -7.95935788026378987503e-02
  -7.96106481354039441367e-02
  -7.96160480684038746046e-02
  -7.96058023708872269930e-02
  -7.95825079887556435798e-02
  -7.95541302602036787261e-02
  -7.95308491245646925760e-02
  -7.95211216675446863622e-02
  -7.95283944310233026354e-02
  -7.95497088290757492501e-02
  -7.95767718182310984654e-02
  -7.95991220779455194156e-02
  -7.96081517790420134517e-02
  -7.96003928042386260655e-02
  -7.95787980667921751587e-02
  -7.95515814571967905255e-02
  -7.95290947674688747382e-02
  -7.95199127167716540709e-02
  -7.95275611437671059445e-02
  -7.95491350952707565458e-02
  -7.95763774303036297564e-02
  -7.95988514624688253685e-02
  -7.96079663155833811006e-02
  -7.96002657293406606920e-02
  -7.95787108882432814294e-02
  -7.95515215540372327974e-02
  -7.95290535659045200179e-02
  -7.95198842864556776355e-02
  -7.95275415604896895871e-02
  -7.95491216125788352942e-02
  -7.95763681698186814417e-02
  -7.95988451348545594799e-02
  -7.96079619844953928487e-02
  -7.96002627327175027450e-02
  -7.95787088544125942313e-02
  -7.95515201264367366463e-02
  -7.95290525982857293696e-02
  -7.95198836057031122060e-02
  -7.95275411028716350259e-02
  -7.95491212804435576800e-02
  -7.95763679450542382732e-02
  -7.95988449797657288132e-02
  -7.96079618841478431346e-02
  -7.96002627097370796250e-02
  -7.95787087720481733921e-02
  -7.95515200913191333765e-02
  -7.95290525748392068683e-02
  -7.95198836262532293695e-02
  -7.95275411007861920965e-02
  -7.95491212672780195758e-02
  -7.95763679244361754606e-02
  -7.95988449577099549392e-02
  -7.96079618589771165205e-02
  -7.96002626824530851168e-02
  -7.95787088099987466316e-02
  -7.95515200787559328965e-02
  -7.95290525612470794448e-02
  -7.95198836090545702060e-02
  -7.95275411124761744119e-02
  -7.95491212773394851254e-02
  -7.95763679090013276163e-02
  -7.95988449842412876256e-02
  -7.96079618653994652844e-02
  -7.96002626775228067091e-02
  -7.95787088395022157439e-02
  -7.95515201194461618606e-02
  -7.95290525732553765792e-02
  -7.95198835796529779341e-02
  -7.95275410628488721443e-02
  -7.95491212639296285669e-02
  -7.95763679180426647397e-02
  -7.95988449746073967184e-02
  -7.96079618987813319997e-02
  -7.96002627135579676754e-02
  -7.95787088205343190461e-02
  -7.95515201089308787719e-02
  -7.95290525598934538998e-02
  -7.95198836016714483144e-02
  -7.95275411043333685379e-02
  -7.95491212779108614050e-02
  -7.95763679223323860956e-02
  -7.95988449773954581667e-02
  -7.96079618840325603513e-02
  -7.96002626816808694921e-02
  -7.95787087964059947076e-02
  -7.95515201227826596053e-02
  -7.95290525793977409741e-02
  -7.95198835953421362399e-02
  -7.95275411178284763469e-02
  -7.95491212925351076635e-02
  -7.95763679180129801516e-02
  -7.95988449875344172835e-02
  -7.96079618435778652019e-02
  -7.96002626654297718023e-02
  -7.95787087913044643983e-02
  -7.95515201050681075579e-02
  -7.95290525507434814534e-02
  -7.95198836025939187477e-02
  -7.95275411025249401309e-02
</dep>
<dep V2.It time>
  -7.95640139337632779082e-02
  -7.95742035196648211937e-02
  -7.95935788026378987503e-02
  -7.96106481354039441367e-02
  -7.96160480684038746046e-02
  -7.96058023708872269930e-02
  -7.95825079887556435798e-02
  -7.95541302602036787261e-02
  -7.95308491245646925760e-02
  -7.95211216675446863622e-02
  -7.95283944310233026354e-02
  -7.95497088290757492501e-02
  -7.95767718182310984654e-02
  -7.95991220779455194156e-02
  -7.96081517790420134517e-02
  -7.96003928042386260655e-02
  -7.95787980667921751587e-02
  -7.95515814571967905255e-02
  -7.95290947674688747382e-02
  -7.95199127167716540709e-02
  -7.95275611437671059445e-02
  -7.95491350952707565458e-02
  -7.95763774303036297564e-02
  -7.95988514624688253685e-02
  -7.96079663155833811006e-02
  -7.96002657293406606920e-02
  -7.95787108882432814294e-02
  -7.95515215540372327974e-02
  -7.95290535659045200179e-02
  -7.95198842864556776355e-02
  -7.95275415604896895871e-02
  -7.95491216125788352942e-02
  -7.95763681698186814417e-02
  -7.95988451348545594799e-02
  -7.96079619844953928487e-02
  -7.96002627327175027450e-02
  -7.95787088544125942313e-02
  -7.95515201264367366463e-02
  -7.95290525982857293696e-02
  -7.95198836057031122060e-02
  -7.95275411028716350259e-02
  -7.95491212804435576800e-02
  -7.95763679450542382732e-02
  -7.95988449797657288132e-02
  -7.96079618841478431346e-02
  -7.96002627097370796250e-02
  -7.95787087720481733921e-02
  -7.95515200913191333765e-02
  -7.95290525748392068683e-02
  -7.95198836262532293695e-02
  -7.95275411007861920965e-02
  -7.95491212672780195758e-02
  -7.95763679244361754606e-02
  -7.95988449577099549392e-02
  -7.96079618589771165205e-02
  -7.96002626824530851168e-02
  -7.95787088099987466316e-02
  -7.95515200787559328965e-02
  -7.95290525612470794448e-02
  -7.95198836090545702060e-02
  -7.95275411124761744119e-02
  -7.95491212773394851254e-02
  -7.95763679090013276163e-02
  -7.95988449842412876256e-02
  -7.96079618653994652844e-02
  -7.96002626775228067091e-02
  -7.95787088395022157439e-02
  -7.95515201194461618606e-02
  -7.95290525732553765792e-02
  -7.95198835796529779341e-02
  -7.95275410628488721443e-02
  -7.95491212639296285669e-02
  -7.95763679180426647397e-02
  -7.95988449746073967184e-02
  -7.96079618987813319997e-02
  -7.96002627135579676754e-02
  -7.95787088205343190461e-02
  -7.95515201089308787719e-02
  -7.95290525598934538998e-02
  -7.95198836016714483144e-02
  -7.95275411043333685379e-02
  -7.95491212779108614050e-02
  -7.95763679223323860956e-02
  -7.95988449773954581667e-02
  -7.96079618840325603513e-02
  -7.96002626816808694921e-02
  -7.95787087964059947076e-02
  -7.95515201227826596053e-02
  -7.95290525793977409741e-02
  -7.95198835953421362399e-02
  -7.95275411178284763469e-02
  -7.95491212925351076635e-02
  -7.95763679180129801516e-02
  -7.95988449875344172835e-02
  -7.96079618435778652019e-02
  -7.96002626654297718023e-02
  -7.95787087913044643983e-02
  -7.95515201050681075579e-02
  -7.95290525507434814534e-02
  -7.95198836025939187477e-02
  -7.95275411025249401309e-02
</dep>
<dep Iload.It time>
  +7.86421705024079875646e-02
  +7.86504722053238403134e-02
  +7.86686063672793617352e-02
  +7.86855774046288092283e-02
