<Qucs Dataset 0.0.20>
<indep time 300>
  +0.00000000000000000000e+00
  +1.00334448160535109310e-04
  +2.00668896321070218619e-04
  +3.01003344481605341482e-04
  +4.01337792642140437239e-04
  +5.01672240802675532996e-04
  +6.02006688963210682963e-04
  +7.02341137123745724510e-04
  +8.02675585284280874478e-04
  +9.03010033444816024445e-04
  +1.00334448160535106599e-03
  +1.10367892976588610754e-03
  +1.20401337792642136593e-03
  +1.30434782608695640747e-03
  +1.40468227424749144902e-03
  +1.50501672240802670741e-03
  +1.60535117056856174896e-03
  +1.70568561872909679050e-03
  +1.80602006688963204889e-03
  +1.90635451505016709044e-03
  +2.00668896321070213198e-03
  +2.10702341137123739037e-03
  +2.20735785953177221508e-03
  +2.30769230769230747347e-03
  +2.40802675585284273185e-03
  +2.50836120401337755656e-03
  +2.60869565217391281495e-03
  +2.70903010033444807333e-03
  +2.80936454849498289804e-03
  +2.90969899665551815643e-03
  +3.01003344481605341482e-03
  +3.11036789297658823952e-03
  +3.21070234113712349791e-03
  +3.31103678929765875630e-03
  +3.41137123745819358100e-03
  +3.51170568561872883939e-03
  +3.61204013377926409778e-03
  +3.71237458193979892249e-03
  +3.81270903010033418087e-03
  +3.91304347826086900558e-03
  +4.01337792642140426397e-03
  +4.11371237458193952236e-03
  +4.21404682274247478074e-03
  +4.31438127090301003913e-03
  +4.41471571906354443016e-03
  +4.51505016722407968854e-03
  +4.61538461538461494693e-03
  +4.71571906354515020532e-03
  +4.81605351170568546371e-03
  +4.91638795986622072209e-03
  +5.01672240802675511312e-03
  +5.11705685618729037151e-03
  +5.21739130434782562989e-03
  +5.31772575250836088828e-03
  +5.41806020066889614667e-03
  +5.51839464882943140506e-03
  +5.61872909698996579608e-03
  +5.71906354515050105447e-03
  +5.81939799331103631286e-03
  +5.91973244147157157125e-03
  +6.02006688963210682963e-03
  +6.12040133779264208802e-03
  +6.22073578595317647905e-03
  +6.32107023411371173743e-03
  +6.42140468227424699582e-03
  +6.52173913043478225421e-03
  +6.62207357859531751260e-03
  +6.72240802675585190362e-03
  +6.82274247491638716201e-03
  +6.92307692307692242040e-03
  +7.02341137123745767878e-03
  +7.12374581939799293717e-03
  +7.22408026755852819556e-03
  +7.32441471571906258659e-03
  +7.42474916387959784497e-03
  +7.52508361204013310336e-03
  +7.62541806020066836175e-03
  +7.72575250836120362014e-03
  +7.82608695652173801116e-03
  +7.92642140468227326955e-03
  +8.02675585284280852794e-03
  +8.12709030100334378632e-03
  +8.22742474916387904471e-03
  +8.32775919732441430310e-03
  +8.42809364548494956149e-03
  +8.52842809364548481987e-03
  +8.62876254180602007826e-03
  +8.72909698996655533665e-03
  +8.82943143812708886031e-03
  +8.92976588628762411870e-03
  +9.03010033444815937709e-03
  +9.13043478260869463548e-03
  +9.23076923076922989386e-03
  +9.33110367892976515225e-03
  +9.43143812709030041064e-03
  +9.53177257525083566903e-03
  +9.63210702341137092741e-03
  +9.73244147157190618580e-03
  +9.83277591973244144419e-03
  +9.93311036789297496785e-03
  +1.00334448160535102262e-02
  +1.01337792642140454846e-02
  +1.02341137123745807430e-02
  +1.03344481605351160014e-02
  +1.04347826086956512598e-02
  +1.05351170568561865182e-02
  +1.06354515050167217766e-02
  +1.07357859531772570350e-02
  +1.08361204013377922933e-02
  +1.09364548494983275517e-02
  +1.10367892976588628101e-02
  +1.11371237458193963338e-02
  +1.12374581939799315922e-02
  +1.13377926421404668506e-02
  +1.14381270903010021089e-02
  +1.15384615384615373673e-02
  +1.16387959866220726257e-02
  +1.17391304347826078841e-02
  +1.18394648829431431425e-02
  +1.19397993311036784009e-02
  +1.20401337792642136593e-02
  +1.21404682274247489177e-02
  +1.22408026755852841760e-02
  +1.23411371237458176997e-02
  +1.24414715719063529581e-02
  +1.25418060200668882165e-02
  +1.26421404682274234749e-02
  +1.27424749163879587333e-02
  +1.28428093645484939916e-02
  +1.29431438127090292500e-02
  +1.30434782608695645084e-02
  +1.31438127090300997668e-02
  +1.32441471571906350252e-02
  +1.33444816053511702836e-02
  +1.34448160535117038072e-02
  +1.35451505016722390656e-02
  +1.36454849498327743240e-02
  +1.37458193979933095824e-02
  +1.38461538461538448408e-02
  +1.39464882943143800992e-02
  +1.40468227424749153576e-02
  +1.41471571906354506160e-02
  +1.42474916387959858743e-02
  +1.43478260869565211327e-02
  +1.44481605351170563911e-02
  +1.45484949832775916495e-02
  +1.46488294314381251732e-02
  +1.47491638795986604316e-02
  +1.48494983277591956899e-02
  +1.49498327759197309483e-02
  +1.50501672240802662067e-02
  +1.51505016722408014651e-02
  +1.52508361204013367235e-02
  +1.53511705685618719819e-02
  +1.54515050167224072403e-02
  +1.55518394648829424987e-02
  +1.56521739130434760223e-02
  +1.57525083612040130154e-02
  +1.58528428093645465391e-02
  +1.59531772575250835322e-02
  +1.60535117056856170559e-02
  +1.61538461538461540490e-02
  +1.62541806020066875726e-02
  +1.63545150501672210963e-02
  +1.64548494983277580894e-02
  +1.65551839464882916131e-02
  +1.66555183946488286062e-02
  +1.67558528428093621299e-02
  +1.68561872909698991230e-02
  +1.69565217391304326466e-02
  +1.70568561872909696397e-02
  +1.71571906354515031634e-02
  +1.72575250836120401565e-02
  +1.73578595317725736802e-02
  +1.74581939799331106733e-02
  +1.75585284280936441970e-02
  +1.76588628762541777206e-02
  +1.77591973244147147137e-02
  +1.78595317725752482374e-02
  +1.79598662207357852305e-02
  +1.80602006688963187542e-02
  +1.81605351170568557473e-02
  +1.82608695652173892710e-02
  +1.83612040133779262641e-02
  +1.84615384615384597877e-02
  +1.85618729096989967808e-02
  +1.86622073578595303045e-02
  +1.87625418060200638282e-02
  +1.88628762541806008213e-02
  +1.89632107023411343449e-02
  +1.90635451505016713381e-02
  +1.91638795986622048617e-02
  +1.92642140468227418548e-02
  +1.93645484949832753785e-02
  +1.94648829431438123716e-02
  +1.95652173913043458953e-02
  +1.96655518394648828884e-02
  +1.97658862876254164120e-02
  +1.98662207357859499357e-02
  +1.99665551839464869288e-02
  +2.00668896321070204525e-02
  +2.01672240802675574456e-02
  +2.02675585284280909693e-02
  +2.03678929765886279624e-02
  +2.04682274247491614860e-02
  +2.05685618729096984791e-02
  +2.06688963210702320028e-02
  +2.07692307692307689959e-02
  +2.08695652173913025196e-02
  +2.09698996655518395127e-02
  +2.10702341137123730364e-02
  +2.11705685618729065600e-02
  +2.12709030100334435531e-02
  +2.13712374581939770768e-02
  +2.14715719063545140699e-02
  +2.15719063545150475936e-02
  +2.16722408026755845867e-02
  +2.17725752508361181103e-02
  +2.18729096989966551035e-02
  +2.19732441471571886271e-02
  +2.20735785953177256202e-02
  +2.21739130434782591439e-02
  +2.22742474916387926676e-02
  +2.23745819397993296607e-02
  +2.24749163879598631843e-02
  +2.25752508361204001774e-02
  +2.26755852842809337011e-02
  +2.27759197324414706942e-02
  +2.28762541806020042179e-02
  +2.29765886287625412110e-02
  +2.30769230769230747347e-02
  +2.31772575250836117278e-02
  +2.32775919732441452514e-02
  +2.33779264214046787751e-02
  +2.34782608695652157682e-02
  +2.35785953177257492919e-02
  +2.36789297658862862850e-02
  +2.37792642140468198086e-02
  +2.38795986622073568018e-02
  +2.39799331103678903254e-02
  +2.40802675585284273185e-02
  +2.41806020066889608422e-02
  +2.42809364548494978353e-02
  +2.43812709030100313590e-02
  +2.44816053511705683521e-02
  +2.45819397993311018757e-02
  +2.46822742474916353994e-02
  +2.47826086956521723925e-02
  +2.48829431438127059162e-02
  +2.49832775919732429093e-02
  +2.50836120401337764330e-02
  +2.51839464882943134261e-02
  +2.52842809364548469497e-02
  +2.53846153846153839428e-02
  +2.54849498327759174665e-02
  +2.55852842809364544596e-02
  +2.56856187290969879833e-02
  +2.57859531772575215069e-02
  +2.58862876254180585001e-02
  +2.59866220735785920237e-02
  +2.60869565217391290168e-02
  +2.61872909698996625405e-02
  +2.62876254180601995336e-02
  +2.63879598662207330573e-02
  +2.64882943143812700504e-02
  +2.65886287625418035740e-02
  +2.66889632107023405672e-02
  +2.67892976588628740908e-02
  +2.68896321070234076145e-02
  +2.69899665551839446076e-02
  +2.70903010033444781313e-02
  +2.71906354515050151244e-02
  +2.72909698996655486480e-02
  +2.73913043478260856411e-02
  +2.74916387959866191648e-02
  +2.75919732441471561579e-02
  +2.76923076923076896816e-02
  +2.77926421404682266747e-02
  +2.78929765886287601984e-02
  +2.79933110367892971915e-02
  +2.80936454849498307151e-02
  +2.81939799331103642388e-02
  +2.82943143812709012319e-02
  +2.83946488294314347556e-02
  +2.84949832775919717487e-02
  +2.85953177257525052724e-02
  +2.86956521739130422655e-02
  +2.87959866220735757891e-02
  +2.88963210702341127822e-02
  +2.89966555183946463059e-02
  +2.90969899665551832990e-02
  +2.91973244147157168227e-02
  +2.92976588628762503463e-02
  +2.93979933110367873395e-02
  +2.94983277591973208631e-02
  +2.95986622073578578562e-02
  +2.96989966555183913799e-02
  +2.97993311036789283730e-02
  +2.98996655518394618967e-02
  +2.99999999999999988898e-02
</indep>
<dep V1.It time>
  +0.00000000000000000000e+00
  -2.54935207596555107878e-02
  -9.91744210219835421738e-03
  +6.49908227114707848533e-10
  +1.69810308535484136283e-02
  +6.28232499086619766704e-02
  +5.07353950661675531797e-02
  +1.93933137468901145573e-02
  -8.42651463332647171734e-10
  -1.28420701283732709153e-02
  -3.14048271210266294329e-02
  -2.51030200788746951646e-02
  -9.30260512468679759412e-03
  +4.95493108047011592469e-10
  +1.72541282790667008240e-02
  +2.09409112529822839799e-02
  +1.65876528470771944512e-02
  +1.81620183535799555041e-02
  -4.32470959105342586633e-10
  -1.30359418874958898210e-02
  -1.56993553536358305955e-02
  -2.46806049880585152978e-02
  -8.69107137095571045948e-03
  +1.78767606020762951872e-10
  +2.36728109419463641613e-09
  +2.09151692391973467733e-02
  +1.63133024937350511185e-02
  +1.69280155944726527772e-02
  -5.98419788429918225040e-10
  -8.63487832706392538395e-09
  -1.56825728880341276616e-02
  -2.44595393920104056673e-02
  -8.07558750039396450182e-03
  +1.38444615825909310844e-09
  +1.65292945625483314494e-09
  +2.08819769200737914705e-02
  +1.60328560844326777068e-02
  +1.56923170727042982087e-02
  -1.54433868393892920838e-09
  +6.05628028941350774594e-11
  -1.56707714241333916083e-02
  -2.40778940466768870410e-02
  -7.45965616047262244231e-03
  +1.13788762192953054138e-09
  +1.33684685175337848649e-09
  +2.08537723314275169617e-02
  +1.57471617420918766350e-02
  +1.44540403458269309245e-02
  -5.31044069850845886860e-10
  -7.46621545995978199359e-10
  -1.56393008584787725213e-02
  -2.19318813386099736862e-02
  -6.83583124423590461627e-03
  +6.83322208516029006385e-11
  +2.35321162140609543738e-10
  +2.71527022950594811024e-02
  +1.54567924900618006157e-02
  +1.32195825974074990250e-02
  -1.68837397205470334070e-09
  +3.39676213568709846693e-10
  -1.29657904173294587918e-02
  -2.30418779694806161173e-02
  -6.22423698117458446682e-03
  +1.28522163136482408057e-09
  +2.78478563664850338481e-12
  +1.87494111761206664100e-09
  +1.51561927797121548389e-02
  +1.19879512386166352939e-02
  +3.21195803057718828195e-10
  -1.64446179176131034066e-09
  -2.30347142591048157483e-09
  -2.23728134401756234562e-02
  -5.61725556624005813167e-03
  +1.27766040410631174572e-09
  +1.40945051862520903853e-09
  +1.64513621605829400790e-09
  +1.48461236296175986410e-02
  +1.07633925223692798745e-02
  -8.97021623982483340906e-11
  -2.26108291648078546050e-10
  -5.12012770273652343567e-10
  -1.73102690173051777800e-02
  -5.01062805920255479458e-03
  +5.49226152010037708908e-10
  +6.69866134518424372883e-10
  +8.27786445734198042655e-10
  +1.45359268891233628374e-02
  +9.54926832522504619172e-03
  -4.08435073157040322972e-10
  -5.32087997469299183893e-10
  -1.08348499362029570696e-09
  -1.08869586573965247689e-02
  -4.40999191189909555549e-03
  +4.55483539616346201928e-11
  +1.57059694916108851286e-10
  +2.74019839928565728177e-10
  +1.42153461597449414650e-02
  +8.35223346932984292423e-03
  -2.05509400103865643612e-10
  -1.08376836135748300739e-09
  -4.62960473147729059683e-10
  -1.04927453318158728918e-02
  -3.81927401737298336665e-03
  +1.10650350094599966220e-09
  +1.58222395467121548757e-10
  +1.30154302155168520461e-09
  +1.38892360152438401610e-02
  +7.17702508310837962446e-03
  -1.09271640720616424890e-09
  -1.19771461443349664699e-09
  -1.31000325640984224000e-09
  -9.36821947356387789430e-03
  -3.24135868769060558892e-03
  +7.81497159541973348983e-10
  +4.82344912787170458579e-10
  +9.51726072197234948540e-10
  +1.35584893962305413906e-02
  +6.03221183283397799357e-03
  -4.30578125043925201218e-10
  -8.50864102026321041113e-10
  -6.17984436530561732336e-10
  -9.10326090523573897006e-03
  -2.68794640518152773770e-03
  +6.42056846171924015731e-10
  +6.20795892945436470704e-10
  +6.80387974047471270883e-10
  +1.32210557250900147264e-02
  +4.92906530478222880409e-03
  -5.41417394395750099131e-10
  -7.38339890126388319513e-10
  -8.10477784858937927088e-10
  -5.37496458257601290864e-03
  -2.12549080050660789409e-03
  +3.32921223587175722404e-10
  +9.31462719555965234464e-10
  +4.68360533511450777298e-10
  +1.28786478644741745475e-02
  +3.88493436476129152743e-03
  -8.32888990601883346065e-10
  -9.19365160314358151087e-10
  -9.78369723439265609998e-10
  -7.53337043252325783138e-03
  -1.68987042233769411449e-03
  +2.44571222594364641326e-10
  +3.26852850906672454397e-10
  +3.66335029078310059165e-10
  +1.25286637118900475579e-02
  +2.92918811701934874228e-03
  -2.57511385481857563556e-10
  -1.02135053400459132241e-09
  -1.06965294713080144902e-09
  -9.45840771933916663050e-03
  -1.20547542843903025302e-03
  +1.26739549019792256239e-09
  -1.77325962751470635246e-13
  +1.37750676695989971463e-09
  +9.20582496453897780597e-03
  +2.09124345937452020203e-03
  -1.00379692066423417365e-11
  -1.26938538097548623114e-09
  -1.30867259028716107342e-09
  -6.14928825299630287676e-03
  -8.24329131330980217733e-04
  +1.39345071044757072050e-09
  +1.46751079549825364503e-09
  +1.49269093675089224102e-09
  +1.94354902646327111796e-04
  +1.36195864070877805177e-03
  -1.39947254278361606901e-09
  -1.47270685268749554479e-09
  +8.75423064454151906798e-11
  -1.37147638163056303368e-03
  -4.90472440991193475365e-04
  +1.61018503331160371375e-09
  -3.39021480101612376084e-10
  +1.70060262209293816388e-09
  +2.27691113009888357362e-06
  +8.15344163891101392574e-04
  -1.61581944769606535832e-09
  +3.34283257773609986616e-10
  +3.09439449501332667403e-10
  -4.96508185653726167707e-05
  -2.65379885670237176780e-04
  -4.97455055093673501926e-10
  +1.77093154812762941256e-09
  -4.15957451516300068666e-10
  +7.64137427918202186495e-08
  +4.37343217195026534670e-04
  +4.89058557735070357759e-10
  +4.23009724879424400319e-10
  -1.79111060347380683081e-09
  -1.60003442229189482099e-06
  -1.39359355132383141420e-04
  -5.15786811502656601564e-10
  +1.79155762751891182329e-09
  -4.41837023696661221503e-10
  +8.40015971325661526635e-09
  +1.93276274419895943398e-04
  -1.73462755694836644584e-09
  -1.79747327848474318364e-09
  -1.81131042898883692043e-09
  -1.48133211826929644116e-07
  -6.18742340357002543454e-05
  +1.86024481643467490020e-09
  -5.81692437885492568812e-10
  -5.76230809639766228726e-10
  +8.75088679747164219488e-10
  +8.12616755141195559655e-05
  -1.86506606892464630312e-09
  +5.78417646119309277098e-10
  +5.69461382637047100210e-10
  -2.83921527748203503063e-08
  -2.02793800494215396227e-05
  +1.97354759318715367064e-09
  +2.03183851353940995720e-09
  +2.03341406853656658417e-09
  +2.89162651277239284679e-09
  +2.79601572219862234525e-05
  -1.97790791715461913651e-09
  -2.03452927698184014843e-09
  -2.03865279814444471978e-09
  -9.23598750112965088769e-09
  -7.11951400842891479737e-06
  +2.07865804063011547278e-09
  -7.95277100501209695858e-10
  -7.97555801421811482537e-10
  -2.86622216107919954898e-10
  +7.94905759240197912945e-06
  +8.42053753291086400030e-10
  +7.88231325108135238008e-10
  +7.87686562676782906938e-10
  -7.56273300467671594564e-09
  -1.80030036272599022871e-06
  -9.13342220773096272685e-10
  +2.19898713402292457171e-09
  -8.66327809811329625702e-10
  +2.83898451230747706630e-09
  +1.95657554927962650196e-06
  -2.14815221505115730920e-09
  -2.19903835967213995605e-09
  -2.19588950621981607711e-09
  -1.06919815038340894532e-08
  -4.24551223331660107412e-07
  -8.35947524520056604819e-10
  -7.86246655341917006499e-10
  -7.95034915205777482203e-10
  +1.23717700265137730704e-10
  +3.99598378310870459228e-07
  +8.27264617499426700459e-10
  -2.12190039464274615813e-09
  -2.11527450114498884657e-09
  -1.68970971808103530171e-08
  -7.50273049117196276058e-08
  -7.51461367131906229969e-10
  +2.04195877643902943432e-09
  +2.03015307579707724854e-09
  +1.51261982779412433378e-09
  +6.74298116166034224930e-08
  +7.46643876565705985097e-10
  +7.00742509775532459312e-10
  -2.03338943409557624004e-09
  -3.19405859539892645931e-08
  -1.38780485645355502696e-08
  -6.78078686921543493209e-10
  -6.33524809387520032981e-10
  +1.95602188754612195238e-09
  +4.70355794641598936784e-09
  +1.09668637664438859785e-08
  -1.92981149165586028033e-09
  +6.31125413288112517427e-10
  +6.44148104355513836727e-10
  -8.95607182389301139268e-08
  -5.09274348904156921215e-11
  +1.84724373556700988725e-09
  -5.52157169394600356093e-10
  +1.87170456376481588626e-09
  +1.74293536063274787064e-08
  -4.80884972121058708613e-10
  -1.84791667179637657411e-09
  -1.88888509142411252873e-09
  +5.63049545440358981668e-10
  -2.80672986932363645448e-07
  +1.44956458861327418074e-09
  -5.12194662879014160641e-10
  +1.80939825000437706500e-09
  -4.92737453288165885171e-10
  +6.39680043203726450456e-08
  +7.43003432670949236608e-10
  -1.77257349003614846174e-09
  -1.81102028919465847249e-09
  -1.79251392421259215088e-09
  -1.04609612605715350131e-06
  -6.16955151036819521916e-10
  -4.85987814022132908843e-10
  -4.48967060219467027784e-10
  -4.72081478891525829208e-10
  +2.17123351671085444452e-07
  -1.64306981127278505739e-09
  -1.75373790034590825598e-09
  +4.49286550599985989048e-10
</dep>
<dep Output.Vt time>
  +0.00000000000000000000e+00
  +2.60361543040598197862e+00
  +4.44450309643823882055e+00
  +4.72464911900504169751e+00
  +3.80325666284612173840e+00
  +2.29953674728155466056e+00
  +2.27827262655954188020e+00
  +2.27268702528432697818e+00
  +2.27162867582439886860e+00
  +3.70272141164811019465e+00
  +6.71387350629292978255e+00
  +9.65680588608238110737e+00
  +1.14411111477520073265e+01
  +1.16882833461436561606e+01
  +1.11141109666403625766e+01
  +9.13114697184957968545e+00
  +7.18255206554138236896e+00
  +6.98965521208893125760e+00
  +6.98644550818759135780e+00
  +7.87658482642422441700e+00
  +1.08571132603048852161e+01
  +1.38168540303319797857e+01
  +1.55506051229306070383e+01
  +1.57665598901908499130e+01
  +1.57633962593677967590e+01
  +1.39210958958464079416e+01
  +1.19866704182082930430e+01
  +1.13751315524799974099e+01
  +1.13700927351604104132e+01
  +1.13678114669536238779e+01
  +1.41722064510263230375e+01
  +1.71036386430308446904e+01
  +1.87852862326020257910e+01
  +1.89726890382553996517e+01
  +1.89688821105813296697e+01
  +1.77853159490732082304e+01
  +1.58660638781261127406e+01
  +1.51636929941837657054e+01
  +1.51575966936555612818e+01
  +1.51545554076629187534e+01
  +1.69712082073769323642e+01
  +1.98737407117593676276e+01
  +2.15026401851362898299e+01
  +2.16640017417170653857e+01
  +2.16596548079991038094e+01
  +2.10365151812044750557e+01
  +1.91333725536546488399e+01
  +1.83999408076901573850e+01
  +1.83931399955173660032e+01
  +1.83894494961633263586e+01
  +1.93656470092631280977e+01
  +2.22423685499043486402e+01
  +2.38147851338219531669e+01
  +2.39509234593378756983e+01
  +2.39461176589569895157e+01
  +2.37967626322981971043e+01
  +2.19062470604059846835e+01
  +2.11589938462603903702e+01
  +2.11516519280828632077e+01
  +2.11474079338598599520e+01
  +2.14235750113267044981e+01
  +2.42560452572294629192e+01
  +2.57823748278547029145e+01
