<Qucs Dataset 0.0.20>
<indep Vx 101>
  +0.00000000000000000000e+00
  +2.99999999999999988898e-02
  +5.99999999999999977796e-02
  +8.99999999999999966693e-02
  +1.19999999999999995559e-01
  +1.49999999999999994449e-01
  +1.79999999999999993339e-01
  +2.09999999999999992228e-01
  +2.39999999999999991118e-01
  +2.70000000000000017764e-01
  +2.99999999999999988898e-01
  +3.29999999999999960032e-01
  +3.59999999999999986677e-01
  +3.90000000000000013323e-01
  +4.19999999999999984457e-01
  +4.49999999999999955591e-01
  +4.79999999999999982236e-01
  +5.10000000000000008882e-01
  +5.40000000000000035527e-01
  +5.69999999999999951150e-01
  +5.99999999999999977796e-01
  +6.30000000000000004441e-01
  +6.59999999999999920064e-01
  +6.89999999999999946709e-01
  +7.19999999999999973355e-01
  +7.50000000000000000000e-01
  +7.80000000000000026645e-01
  +8.09999999999999942268e-01
  +8.39999999999999968914e-01
  +8.69999999999999995559e-01
  +8.99999999999999911182e-01
  +9.29999999999999937828e-01
  +9.59999999999999964473e-01
  +9.89999999999999991118e-01
  +1.02000000000000001776e+00
  +1.05000000000000004441e+00
  +1.08000000000000007105e+00
  +1.10999999999999987566e+00
  +1.13999999999999990230e+00
  +1.16999999999999992895e+00
  +1.19999999999999995559e+00
  +1.22999999999999998224e+00
  +1.26000000000000000888e+00
  +1.29000000000000003553e+00
  +1.31999999999999984013e+00
  +1.34999999999999986677e+00
  +1.37999999999999989342e+00
  +1.40999999999999992006e+00
  +1.43999999999999994671e+00
  +1.46999999999999997335e+00
  +1.50000000000000000000e+00
  +1.53000000000000002665e+00
  +1.56000000000000005329e+00
  +1.58999999999999985789e+00
  +1.61999999999999988454e+00
  +1.64999999999999991118e+00
  +1.67999999999999993783e+00
  +1.70999999999999996447e+00
  +1.73999999999999999112e+00
  +1.77000000000000001776e+00
  +1.79999999999999982236e+00
  +1.82999999999999984901e+00
  +1.85999999999999987566e+00
  +1.88999999999999990230e+00
  +1.91999999999999992895e+00
  +1.94999999999999995559e+00
  +1.97999999999999998224e+00
  +2.00999999999999978684e+00
  +2.04000000000000003553e+00
  +2.06999999999999984013e+00
  +2.10000000000000008882e+00
  +2.12999999999999989342e+00
  +2.16000000000000014211e+00
  +2.18999999999999994671e+00
  +2.21999999999999975131e+00
  +2.25000000000000000000e+00
  +2.27999999999999980460e+00
  +2.31000000000000005329e+00
  +2.33999999999999985789e+00
  +2.37000000000000010658e+00
  +2.39999999999999991118e+00
  +2.42999999999999971578e+00
  +2.45999999999999996447e+00
  +2.48999999999999976907e+00
  +2.52000000000000001776e+00
  +2.54999999999999982236e+00
  +2.58000000000000007105e+00
  +2.60999999999999987566e+00
  +2.63999999999999968026e+00
  +2.66999999999999992895e+00
  +2.69999999999999973355e+00
  +2.72999999999999998224e+00
  +2.75999999999999978684e+00
  +2.79000000000000003553e+00
  +2.81999999999999984013e+00
  +2.85000000000000008882e+00
  +2.87999999999999989342e+00
  +2.90999999999999969802e+00
  +2.93999999999999994671e+00
  +2.96999999999999975131e+00
  +3.00000000000000000000e+00
</indep>
<dep Rout Vx>
  +6.70445312670789609375e+13
  +4.40367257525018437500e+13
  +1.38090902766162812500e+13
  +4.32682949814451318359e+12
  +1.35563955293585156250e+12
  +4.24788524329238098145e+11
  +1.33105299881810928345e+11
  +4.17078836126414794922e+10
  +1.30689582873895492554e+10
  +4.09509220821869421005e+09
  +1.28317695986509728432e+09
  +4.02077288504944086075e+08
  +1.25989108334609493613e+08
  +3.94782583508188724518e+07
  +1.23705157977988552302e+07
  +3.87644020650791469961e+06
  +1.21486409603746281937e+06
  +3.80872559361146879382e+05
  +1.19545582186228304636e+05
  +3.76604042528072750429e+04
  +1.20031281867695524852e+04
  +3.96686473187329738721e+03
  +1.45941288179699449756e+03
  +7.08163292848041464822e+02
  +5.83454148886139819297e+02
  +8.97959585456980448726e+02
  +2.12438203298495136551e+03
  +6.10753038109252884169e+03
  +1.88406905964654615673e+04
  +5.94836072030054056086e+04
  +1.89192302930913690943e+05
  +6.03141468279087566771e+05
  +1.92420682759743882343e+06
  +6.14021583277159184217e+06
  +1.95950639204763583839e+07
  +6.25344811370369046926e+07
  +1.99569798322858035564e+08
  +6.36902327738672852516e+08
  +2.03258384740601277351e+09
  +6.48670197715569877625e+09
  +2.07021351185384368896e+10
  +6.60609862688883666992e+10
  +2.10979128191151062012e+11
  +6.72056182070111572266e+11
  +2.14139478495488012695e+12
  +6.92946317638288378906e+12
  +2.21907771186328828125e+13
  +7.08265535036524375000e+13
  +2.27008659062218906250e+14
  +2.50973540978117312500e+14
  -7.03061978047792656250e+13
  +1.13810087466010760000e+16
  +2.57190181796911200000e+16
  +3.58918549850456600000e+16
  +2.14248656144025920000e+16
  -5.11036572677784375000e+12
  +8.66173909094281750000e+14
  +7.26697132615842250000e+14
  -1.50688502938198375000e+14
  +3.62768287723798850000e+15
  +9.76707970474046800000e+15
  +5.56817878114798300000e+15
  -2.96329819913836250000e+13
  +5.14799122327564125000e+14
  +1.16559230073333640625e+14
  -7.32744308730635937500e+12
  -1.50672615196186281250e+14
  +3.64155156686567800000e+15
  +4.18307636583760350000e+15
  +6.14549594814714600000e+15
  +5.74842223859664600000e+15
  +1.19521251804007578125e+14
  +5.14918873817623500000e+14
  +1.17147504357717656250e+14
  -8.29115411451121875000e+12
  +5.98723168495843000000e+15
  +6.11446698988501600000e+15
  +1.18979263168030812500e+14
  -4.32106517180226625000e+14
  -2.03332604298967312500e+14
  -1.93819692690222625000e+14
  -2.86016638318219687500e+13
  -3.08662158995829062500e+13
  -3.26690977606890312500e+13
  +1.14494561358161781250e+14
  +1.21986125546011000000e+14
  -2.98931126557687500000e+13
  -3.37530144477791250000e+13
  +5.26460803717332100000e+15
  +1.00620682978146760000e+16
  +1.09726438999722920000e+16
  +6.05134050883971500000e+15
  -1.60128925397056250000e+14
  +8.49143582441127200000e+15
  +9.03877728939524000000e+15
  +1.14653322816393765625e+14
  +1.22253724152858578125e+14
  +3.80966462951387800000e+15
  +3.40966855454693400000e+15
  -4.92732608921583437500e+13
  +1.77017935933239875000e+14
</dep>
<dep Ix Vx>
  -9.99999999998977238697e-05
  -9.99999999994502600806e-05
  -9.99999999980236533095e-05
  -9.99999999934707902317e-05
  -9.99999999789387135178e-05
  -9.99999999325622908504e-05
  -9.99999997845578522844e-05
  -9.99999993122208661375e-05
  -9.99999978048188612693e-05
  -9.99999929941394185770e-05
  -9.99999776414817426011e-05
  -9.99999286454791207548e-05
  -9.99997722812424714870e-05
  -9.99992732666973047160e-05
  -9.99976807433686015140e-05
  -9.99925985843415452304e-05
  -9.99763812934861844815e-05
  -9.99246438449695950027e-05
  -9.97597129262776152183e-05
  -9.92352083157917348732e-05
  -9.75799427951419459095e-05
  -9.24798759863565926617e-05
  -7.78560988230104789867e-05
  -4.32688702580738353796e-05
  +1.13804775578588816018e-05
  +5.99277885479512171249e-05
  +8.53954323370992990621e-05
  +9.51648773690132827527e-05
  +9.84456232725068310172e-05
  +9.94968856569860063670e-05
  +9.98286336214121948745e-05
  +9.99328167437023512712e-05
  +9.99654847948641743331e-05
  +9.99757234048881610403e-05
  +9.99789318421588662405e-05
  +9.99799372114540732797e-05
  +9.99802522409411079194e-05
  +9.99803509542409576862e-05
  +9.99803818854484770227e-05
  +9.99803915776454460700e-05
  +9.99803946146573586408e-05
  +9.99803955662486492154e-05
  +9.99803958644717382341e-05
  +9.99803959578242828956e-05
  +9.99803959871569660964e-05
  +9.99803959963593082182e-05
  +9.99803959991897941723e-05
  +9.99803960000778235142e-05
  +9.99803960003559349240e-05
  +9.99803960004426033352e-05
  +9.99803960006351576410e-05
  +9.99803960005339473682e-05
  +9.99803960005352484108e-05
  +9.99803960005363055079e-05
  +9.99803960005369966868e-05
  +9.99803960004828814459e-05
  +9.99803960005380131263e-05
  +9.99803960005632614844e-05
  +9.99803960006763844286e-05
  +9.99803960006234347050e-05
  +9.99803960006272700702e-05
  +9.99803960006298314978e-05
  +9.99803960005777355834e-05
  +9.99803960006358081623e-05
  +9.99803960006942873170e-05
  +9.99803960005871003797e-05
  +9.99803960007002097713e-05
  +9.99803960006472600477e-05
  +9.99803960006510818604e-05
  +9.99803960007091679918e-05
  +9.99803960007117158669e-05
  +9.99803960006036751204e-05
  +9.99803960006617341467e-05
  +9.99803960007201997489e-05
  +9.99803960006126062358e-05
  +9.99803960007270031175e-05
  +9.99803960007295645452e-05
  +9.99803960007876235715e-05
  +9.99803960006800029534e-05
  +9.99803960006287608482e-05
  +9.99803960007965546869e-05
  +9.99803960007435914108e-05
  +9.99803960008025042463e-05
  +9.99803960007499610985e-05
  +9.99803960008092940624e-05
  +9.99803960007008467401e-05
  +9.99803960007584720856e-05
  +9.99803960007067827470e-05
  +9.99803960007652754542e-05
  +9.99803960007682705627e-05
  +9.99803960007712385662e-05
  +9.99803960007737728887e-05
  +9.99803960008868958329e-05
  +9.99803960008356537277e-05
  +9.99803960008373613462e-05
  +9.99803960008962741817e-05
  +9.99803960007891007970e-05
  +9.99803960008463060141e-05
  +9.99803960008505344026e-05
  +9.99803960007416669519e-05
  +9.99803960009111413040e-05
</dep>
<dep V1.I Vx>
  +9.99999999998977238697e-05
  +9.99999999994502600806e-05
  +9.99999999980236533095e-05
  +9.99999999934707902317e-05
  +9.99999999789387135178e-05
  +9.99999999325622908504e-05
  +9.99999997845578522844e-05
  +9.99999993122208661375e-05
  +9.99999978048188612693e-05
  +9.99999929941394185770e-05
  +9.99999776414817426011e-05
  +9.99999286454791207548e-05
  +9.99997722812424714870e-05
  +9.99992732666973047160e-05
  +9.99976807433686015140e-05
  +9.99925985843415452304e-05
  +9.99763812934861844815e-05
  +9.99246438449695950027e-05
  +9.97597129262776152183e-05
  +9.92352083157917348732e-05
  +9.75799427951419459095e-05
  +9.24798759863565926617e-05
  +7.78560988230104789867e-05
  +4.32688702580738353796e-05
  -1.13804775578588816018e-05
  -5.99277885479512171249e-05
  -8.53954323370992990621e-05
  -9.51648773690132827527e-05
  -9.84456232725068310172e-05
  -9.94968856569860063670e-05
  -9.98286336214121948745e-05
  -9.99328167437023512712e-05
  -9.99654847948641743331e-05
  -9.99757234048881610403e-05
  -9.99789318421588662405e-05
  -9.99799372114540732797e-05
  -9.99802522409411079194e-05
  -9.99803509542409576862e-05
  -9.99803818854484770227e-05
  -9.99803915776454460700e-05
  -9.99803946146573586408e-05
  -9.99803955662486492154e-05
  -9.99803958644717382341e-05
  -9.99803959578242828956e-05
  -9.99803959871569660964e-05
  -9.99803959963593082182e-05
  -9.99803959991897941723e-05
  -9.99803960000778235142e-05
  -9.99803960003559349240e-05
  -9.99803960004426033352e-05
  -9.99803960006351576410e-05
  -9.99803960005339473682e-05
  -9.99803960005352484108e-05
  -9.99803960005363055079e-05
  -9.99803960005369966868e-05
  -9.99803960004828814459e-05
  -9.99803960005380131263e-05
  -9.99803960005632614844e-05
  -9.99803960006763844286e-05
  -9.99803960006234347050e-05
  -9.99803960006272700702e-05
  -9.99803960006298314978e-05
  -9.99803960005777355834e-05
  -9.99803960006358081623e-05
  -9.99803960006942873170e-05
  -9.99803960005871003797e-05
  -9.99803960007002097713e-05
  -9.99803960006472600477e-05
  -9.99803960006510818604e-05
  -9.99803960007091679918e-05
  -9.99803960007117158669e-05
  -9.99803960006036751204e-05
  -9.99803960006617341467e-05
  -9.99803960007201997489e-05
  -9.99803960006126062358e-05
  -9.99803960007270031175e-05
  -9.99803960007295645452e-05
  -9.99803960007876235715e-05
  -9.99803960006800029534e-05
  -9.99803960006287608482e-05
  -9.99803960007965546869e-05
  -9.99803960007435914108e-05
  -9.99803960008025042463e-05
  -9.99803960007499610985e-05
  -9.99803960008092940624e-05
  -9.99803960007008467401e-05
  -9.99803960007584720856e-05
  -9.99803960007067827470e-05
  -9.99803960007652754542e-05
  -9.99803960007682705627e-05
  -9.99803960007712385662e-05
  -9.99803960007737728887e-05
  -9.99803960008868958329e-05
  -9.99803960008356537277e-05
  -9.99803960008373613462e-05
  -9.99803960008962741817e-05
  -9.99803960007891007970e-05
  -9.99803960008463060141e-05
  -9.99803960008505344026e-05
  -9.99803960007416669519e-05
  -9.99803960009111413040e-05
</dep>
<dep V2.I Vx>
  +1.00000000017297034356e-18
  +2.22328423253883644693e-16
  +9.28669430065724602495e-16
  +3.18286530133708851416e-15
  +1.03768395669015895360e-14
  +3.33354770048174094933e-14
  +1.06604995797786126250e-13
  +3.40435177881066845315e-13
  +1.08667392183357492766e-12
  +3.46819817885861768327e-12
  +1.10685237212143193776e-11
  +3.53239706953997466855e-11
  +1.12732008230063915480e-10
  +3.59768912165814539056e-10
  +1.14814679775830458234e-09
  +3.66406710729857814193e-09
  +1.16924289170309994549e-08
  +3.73050271935713616549e-08
  +1.18953996842739303835e-07
  +3.78609744608451451342e-07
  +1.19804812116725340286e-06
  +3.72283367007128641513e-06
  +1.09623273152917301515e-05
  +2.80847176939728591948e-05
  +5.51388502761180615140e-05
  +7.91721725484428802714e-05
  +9.17799169985157256308e-05
  +9.66162759251969546900e-05
  +9.82404075605870395413e-05
  +9.87608344835949597930e-05
  +9.89250661491697657083e-05
  +9.89766419522479604662e-05
  +9.89928142548790479267e-05
  +9.89978828736843310910e-05
  +9.89994712089242072731e-05
  +9.89999689165213211158e-05
  +9.90001248717598312079e-05
  +9.90001737396563905123e-05
  +9.90001890521786503388e-05
  +9.90001938502816188807e-05
  +9.90001953537418170155e-05
  +9.90001958248448049073e-05
  +9.90001959724624272432e-05
  +9.90001960187175683451e-05
  +9.90001960332103562827e-05
  +9.90001960377527432571e-05
  +9.90001960391752029549e-05
  +9.90001960396220433277e-05
  +9.90001960397619189605e-05
  +9.90001960398052463898e-05
  +9.90001960398177147148e-05
  +9.90001960398230137529e-05
  +9.90001960398232034883e-05
  +9.90001960398239488773e-05
  +9.90001960398245180834e-05
  +9.90001960398258597836e-05
  +9.90001960398254532078e-05
  +9.90001960398534933865e-05
  +9.90001960398556346858e-05
  +9.90001960398582096659e-05
  +9.90001960398620721362e-05
  +9.90001960398646742214e-05
  +9.90001960398681165633e-05
  +9.90001960398706915435e-05
  +9.90001960398737002045e-05
  +9.90001960398775626747e-05
  +9.90001960398797039740e-05
  +9.90001960398822789542e-05
  +9.90001960398861414244e-05
  +9.90001960398887299571e-05
  +9.90001960398913049373e-05
  +9.90001960398943000458e-05
  +9.90001960398968885784e-05
  +9.90001960398998836869e-05
  +9.90001960399033260288e-05
  +9.90001960399067548182e-05
  +9.90001960399093297984e-05
  +9.90001960399119183311e-05
  +9.90001960399153471204e-05
  +9.90001960399196432715e-05
  +9.90001960399209307616e-05
  +9.90001960399235057418e-05
  +9.90001960399269480837e-05
  +9.90001960399299431922e-05
  +9.90001960399338192149e-05
  +9.90001960399363941951e-05
  +9.90001960399385354944e-05
  +9.90001960399423979646e-05
  +9.90001960399454066257e-05
  +9.90001960399484152867e-05
  +9.90001960399514239477e-05
  +9.90001960399539989279e-05
  +9.90001960399561402272e-05
  +9.90001960399604363783e-05
  +9.90001960399621575492e-05
  +9.90001960399655863386e-05
  +9.90001960399694623614e-05
  +9.90001960399711699798e-05
  +9.90001960399754661309e-05
  +9.90001960399776209827e-05
  +9.90001960399806160912e-05
</dep>
<dep _net2.V Vx>
  +2.57236251552627349232e-04
  +3.02572362514936070432e-02
  +6.02572362513055237443e-02
  +9.02572362507052111669e-02
  +1.20257236248789506350e-01
  +1.50257236242675507043e-01
  +1.80257236223163752609e-01
  +2.10257236160894339649e-01
  +2.40257235962169884980e-01
  +2.70257235327966360838e-01
  +3.00257233303988013695e-01
  +3.30257226844724582904e-01
  +3.60257206230832571769e-01
  +3.90257140444379480027e-01
  +4.20256930496595015878e-01
  +4.50256260487268800130e-01
  +4.80254122359890844862e-01
  +5.10247300031545947263e-01
  +5.40225539953865241394e-01
  +5.70156222447790850261e-01
  +5.99936286605920132686e-01
  +6.29247097178694314579e-01
  +6.57166759269702693835e-01
  +6.81487340037922773028e-01
  +6.98927868660514706178e-01
  +7.08280365973076642128e-01
  +7.12100484876883155216e-01
  +7.13428082533772878193e-01
  +7.13859046166425481594e-01
  +7.13995635393715688544e-01
  +7.14038589624694908231e-01
  +7.14052064386992868528e-01
  +7.14056288138084194195e-01
  +7.14057611776896417055e-01
  +7.14058026546984470073e-01
  +7.14058156514541297888e-01
  +7.14058197239365144426e-01
  +7.14058210000298676512e-01
  +7.14058213998875035422e-01
  +7.14058215251809236257e-01
  +7.14058215644409188805e-01
  +7.14058215767428894338e-01
  +7.14058215805976392865e-01
  +7.14058215818055064261e-01
  +7.14058215821839592508e-01
  +7.14058215823025754787e-01
  +7.14058215823397346433e-01
  +7.14058215823513919851e-01
  +7.14058215823550335166e-01
  +7.14058215823561881486e-01
  +7.14058215823565323177e-01
  +7.14058215823567321578e-01
  +7.14058215823566322378e-01
  +7.14058215823566655445e-01
  +7.14058215823566655445e-01
  +7.14058215823566988512e-01
  +7.14058215823567099534e-01
  +7.14058215823574315984e-01
  +7.14058215823574982117e-01
  +7.14058215823575648251e-01
  +7.14058215823576536430e-01
  +7.14058215823577313586e-01
  +7.14058215823578090742e-01
  +7.14058215823578756876e-01
  +7.14058215823579534032e-01
  +7.14058215823580644255e-01
  +7.14058215823581088344e-01
  +7.14058215823581976522e-01
  +7.14058215823582864701e-01
  +7.14058215823583419812e-01
  +7.14058215823584085946e-01
  +7.14058215823585085147e-01
  +7.14058215823585751281e-01
  +7.14058215823586528437e-01
  +7.14058215823587416615e-01
  +7.14058215823588304794e-01
  +7.14058215823588970927e-01
  +7.14058215823589748084e-01
  +7.14058215823590747284e-01
  +7.14058215823591746485e-01
  +7.14058215823592190574e-01
  +7.14058215823593189775e-01
  +7.14058215823594299998e-01
  +7.14058215823595521243e-01
  +7.14058215823597075556e-01
  +7.14058215823598629868e-01
  +7.14058215823596631466e-01
  +7.14058215823597630667e-01
  +7.14058215823598296801e-01
  +7.14058215823598962935e-01
  +7.14058215823599851113e-01
  +7.14058215823600517247e-01
  +7.14058215823601183381e-01
  +7.14058215823602182581e-01
  +7.14058215823602737693e-01
  +7.14058215823603625871e-01
  +7.14058215823604625072e-01
  +7.14058215823605069161e-01
  +7.14058215823606179384e-01
  +7.14058215823606845518e-01
  +7.14058215823607622674e-01
</dep>
<dep _net3.V Vx>
  +2.57236251552627349232e-04
  +3.02572362514936070432e-02
  +6.02572362513055237443e-02
  +9.02572362507052111669e-02
  +1.20257236248789506350e-01
  +1.50257236242675507043e-01
  +1.80257236223163752609e-01
  +2.10257236160894339649e-01
  +2.40257235962169884980e-01
  +2.70257235327966360838e-01
  +3.00257233303988013695e-01
  +3.30257226844724582904e-01
  +3.60257206230832571769e-01
  +3.90257140444379480027e-01
  +4.20256930496595015878e-01
  +4.50256260487268800130e-01
  +4.80254122359890844862e-01
  +5.10247300031545947263e-01
  +5.40225539953865241394e-01
  +5.70156222447790850261e-01
  +5.99936286605920132686e-01
  +6.29247097178694314579e-01
  +6.57166759269702693835e-01
  +6.81487340037922773028e-01
  +6.98927868660514706178e-01
  +7.08280365973076642128e-01
  +7.12100484876883155216e-01
  +7.13428082533772878193e-01
  +7.13859046166425481594e-01
  +7.13995635393715688544e-01
  +7.14038589624694908231e-01
  +7.14052064386992868528e-01
  +7.14056288138084194195e-01
  +7.14057611776896417055e-01
  +7.14058026546984470073e-01
  +7.14058156514541297888e-01
  +7.14058197239365144426e-01
  +7.14058210000298676512e-01
  +7.14058213998875035422e-01
  +7.14058215251809236257e-01
  +7.14058215644409188805e-01
  +7.14058215767428894338e-01
  +7.14058215805976392865e-01
  +7.14058215818055064261e-01
  +7.14058215821839592508e-01
  +7.14058215823025754787e-01
  +7.14058215823397346433e-01
  +7.14058215823513919851e-01
  +7.14058215823550335166e-01
  +7.14058215823561881486e-01
  +7.14058215823565323177e-01
  +7.14058215823567321578e-01
  +7.14058215823566322378e-01
  +7.14058215823566655445e-01
  +7.14058215823566655445e-01
