<Qucs Dataset 0.0.18>
<indep acfrequency 100>
  +5.00000000000e+00
  +5.23807876395e+00
  +5.48749382747e+00
  +5.74878497699e+00
  +6.02251770129e+00
  +6.30928441533e+00
  +6.60970574233e+00
  +6.92443185697e+00
  +7.25414389248e+00
  +7.59955541476e+00
  +7.96141396671e+00
  +8.34050268600e+00
  +8.73764200004e+00
  +9.15369140148e+00
  +9.58955130836e+00
  +1.00461650128e+01
  +1.05245207226e+01
  +1.10256536995e+01
  +1.15506485004e+01
  +1.21006413240e+01
  +1.26768224699e+01
  +1.32804389147e+01
  +1.39127970110e+01
  +1.45752653141e+01
  +1.52692775442e+01
  +1.59963356890e+01
  +1.67580132547e+01
  +1.75559586711e+01
  +1.83918988591e+01
  +1.92676429686e+01
  +2.01850862930e+01
  +2.11462143719e+01
  +2.21531072879e+01
  +2.32079441681e+01
  +2.43130079003e+01
  +2.54706900741e+01
  +2.66834961560e+01
  +2.79540509126e+01
  +2.92851040903e+01
  +3.06795363671e+01
  +3.21403655864e+01
  +3.36707532888e+01
  +3.52740115536e+01
  +3.69536101676e+01
  +3.87131841341e+01
  +4.05565415395e+01
  +4.24876717954e+01
  +4.45107542723e+01
  +4.66301673442e+01
  +4.88504978650e+01
  +5.11765510950e+01
  +5.36133611005e+01
  +5.61662016489e+01
  +5.88405976217e+01
  +6.16423369721e+01
  +6.45774832507e+01
  +6.76523887290e+01
  +7.08737081463e+01
  +7.42484131127e+01
  +7.77838071965e+01
  +8.14875417310e+01
  +8.53676323735e+01
  +8.94324764529e+01
  +9.36908711430e+01
  +9.81520325020e+01
  +1.02825615417e+02
  +1.07721734502e+02
  +1.12850985982e+02
  +1.18224470632e+02
  +1.23853817800e+02
  +1.29751210570e+02
  +1.35929412137e+02
  +1.42401793422e+02
  +1.49182362014e+02
  +1.56285792484e+02
  +1.63727458144e+02
  +1.71523464316e+02
  +1.79690683190e+02
  +1.88246790340e+02
  +1.97210302972e+02
  +2.06600620006e+02
  +2.16438064054e+02
  +2.26743925406e+02
  +2.37540508105e+02
  +2.48851178217e+02
  +2.60700414400e+02
  +2.73113860884e+02
  +2.86118382968e+02
  +2.99742125159e+02
  +3.14014572092e+02
  +3.28966612329e+02
  +3.44630605217e+02
  +3.61040450919e+02
  +3.78231663777e+02
  +3.96241449177e+02
  +4.15108784066e+02
  +4.34874501309e+02
  +4.55581378058e+02
  +4.77274228331e+02
  +5.00000000000e+02
</indep>
<dep Gain acfrequency>
  -4.16663997389e-01
  -4.56078288698e-01
  -4.99102822821e-01
  -5.46046468527e-01
  -5.97240681846e-01
  -6.53040529390e-01
  -7.13825664756e-01
  -7.80001245820e-01
  -8.51998782459e-01
  -9.30276907254e-01
  -1.01532206648e+00
  -1.10764913544e+00
  -1.20780197144e+00
  -1.31635392962e+00
  -1.43390838235e+00
  -1.56109930133e+00
  -1.69859198474e+00
  -1.84708403838e+00
  -2.00730675161e+00
  -2.18002704532e+00
  -2.36605021131e+00
  -2.56622371132e+00
  -2.78144236006e+00
  -3.01265528425e+00
  -3.26087513016e+00
  -3.52719009380e+00
  -3.81277947802e+00
  -4.11893365312e+00
  -4.44707953247e+00
  -4.79881300065e+00
  -5.17594019402e+00
  -5.58053019853e+00
  -6.01498270186e+00
  -6.48211558002e+00
  -6.98527957815e+00
  -7.52851060351e+00
  -8.11673544088e+00
  -8.75605526586e+00
  -9.45414562266e+00
  -1.02208362404e+01
  -1.10689785790e+01
  -1.20157931906e+01
  -1.30850576969e+01
  -1.43108587222e+01
  -1.57444807243e+01
  -1.74682288746e+01
  -1.96267340383e+01
  -2.25115885188e+01
  -2.68680842835e+01
  -3.60305795992e+01
  -3.72195844613e+01
  -2.72637455191e+01
  -2.27488062949e+01
  -1.97960005271e+01
  -1.75996944079e+01
  -1.58518428878e+01
  -1.44014868656e+01
  -1.31633674175e+01
  -1.20846358605e+01
  -1.11302996516e+01
  -1.02760202052e+01
  -9.50421111053e+00
  -8.80177224113e+00
  -8.15869911092e+00
  -7.56718995580e+00
  -7.02105036223e+00
  -6.51528338358e+00
  -6.04579950717e+00
  -5.60920652131e+00
  -5.20265414989e+00
  -4.82371718297e+00
  -4.47030629679e+00
  -4.14059921756e+00
  -3.83298712742e+00
  -3.54603269420e+00
  -3.27843710485e+00
  -3.02901416468e+00
  -2.79666999817e+00
  -2.58038722109e+00
  -2.37921269321e+00
  -2.19224813733e+00
  -2.01864304273e+00
  -1.85758937386e+00
  -1.70831768791e+00
  -1.57009433205e+00
  -1.44221944895e+00
  -1.32402556785e+00
  -1.21487660139e+00
  -1.11416710499e+00
  -1.02132168772e+00
  -9.35794490888e-01
  -8.57068673508e-01
  -7.84655862861e-01
  -7.18095544059e-01
  -6.56954374489e-01
  -6.00825418597e-01
  -5.49327305286e-01
  -5.02103315109e-01
  -4.58820407568e-01
  -4.19168200624e-01
</dep>
<dep V1.i acfrequency>
  -9.14818760207e-12-j2.88293171008e-11
  -9.96898097240e-12-j2.99585985373e-11
  -1.08564938013e-11-j3.11092597823e-11
  -1.18148726225e-11-j3.22784166439e-11
  -1.28482876572e-11-j3.34626719981e-11
  -1.39608841466e-11-j3.46580768436e-11
  -1.51567249586e-11-j3.58600942918e-11
  -1.64397241084e-11-j3.70635680719e-11
  -1.78135710791e-11-j3.82626973592e-11
  -1.92816461385e-11-j3.94510199323e-11
  -2.08469272491e-11-j4.06214058209e-11
  -2.25118896273e-11-j4.17660636920e-11
  -2.42783995459e-11-j4.28765622165e-11
  -2.61476045542e-11-j4.39438685280e-11
  -2.81198228966e-11-j4.49584056129e-11
  -3.01944355043e-11-j4.59101300333e-11
  -3.23697844713e-11-j4.67886307611e-11
  -3.46430823537e-11-j4.75832491160e-11
  -3.70103368888e-11-j4.82832188365e-11
  -3.94662957682e-11-j4.88778242411e-11
  -4.20044158616e-11-j4.93565732823e-11
  -4.46168607417e-11-j4.97093811548e-11
  -4.72945294967e-11-j4.99267590674e-11
  -5.00271186420e-11-j5.00000019284e-11
  -5.28032175148e-11-j4.99213681241e-11
  -5.56104359186e-11-j4.96842443634e-11
  -5.84355611021e-11-j4.92832887917e-11
  -6.12647395234e-11-j4.87145462521e-11
  -6.40836774022e-11-j4.79755306863e-11
  -6.68778529346e-11-j4.70652711556e-11
  -6.96327323241e-11-j4.59843197228e-11
  -7.23339815567e-11-j4.47347213443e-11
  -7.49676661246e-11-j4.33199478255e-11
  -7.75204316668e-11-j4.17447996467e-11
  -7.99796596792e-11-j4.00152809470e-11
  -8.23335939388e-11-j3.81384540513e-11
  -8.45714349738e-11-j3.61222805834e-11
  -8.66834016454e-11-j3.39754564124e-11
  -8.86607605760e-11-j3.17072474432e-11
  -9.04958256429e-11-j2.93273326559e-11
  -9.21819309871e-11-j2.68456598885e-11
  -9.37133819120e-11-j2.42723187521e-11
  -9.50853886450e-11-j2.16174338474e-11
  -9.62939882347e-11-j1.88910802187e-11
  -9.73359598623e-11-j1.61032217906e-11
  -9.82087386326e-11-j1.32636724517e-11
  -9.89103325038e-11-j1.03820785062e-11
  -9.94392464840e-11-j7.46792042007e-12
  -9.97944175981e-11-j4.53053115826e-12
  -9.99751634586e-11-j1.57912791521e-12
  -9.99811465773e-11+j1.37714630947e-12
  -9.98123558485e-11+j4.32917508213e-12
  -9.94691059317e-11+j7.26781878195e-12
  -9.89520545573e-11+j1.01838667001e-11
  -9.82622370769e-11+j1.30679949263e-11
  -9.74011168747e-11+j1.59107338265e-11
  -9.63706495511e-11+j1.87024486821e-11
  -9.51733580943e-11+j2.14333367134e-11
  -9.38124155776e-11+j2.40934432321e-11
  -9.22917312982e-11+j2.66726990431e-11
  -9.06160357280e-11+j2.91609804334e-11
  -8.87909592371e-11+j3.15481921554e-11
  -8.68230993147e-11+j3.38243727341e-11
  -8.47200710107e-11+j3.59798202495e-11
  -8.24905355905e-11+j3.80052355067e-11
  -8.01442029795e-11+j3.98918782893e-11
  -7.76918044730e-11+j4.16317312679e-11
  -7.51450334002e-11+j4.32176652174e-11
  -7.25164528974e-11+j4.46435985583e-11
  -6.98193716077e-11+j4.59046439808e-11
  -6.70676898575e-11+j4.69972350786e-11
  -6.42757205513e-11+j4.79192265472e-11
  -6.14579905421e-11+j4.86699625720e-11
  -5.86290294381e-11+j4.92503094876e-11
  -5.58031536038e-11+j4.96626505266e-11
  -5.29942534263e-11+j4.99108423782e-11
  -5.02155917236e-11+j5.00001351870e-11
  -4.74796204845e-11+j4.99370593993e-11
  -4.47978220265e-11+j4.97292843728e-11
  -4.21805792261e-11+j4.93854548078e-11
  -3.96370778551e-11+j4.89150117678e-11
  -3.71752423669e-11+j4.83280053120e-11
  -3.48017048573e-11+j4.76349055889e-11
  -3.25218054787e-11+j4.68464186896e-11
  -3.03396213906e-11+j4.59733127171e-11
  -2.82580204470e-11+j4.50262584885e-11
  -2.62787352497e-11+j4.40156881439e-11
  -2.44024529407e-11+j4.29516737851e-11
  -2.26289161280e-11+j4.18438271833e-11
  -2.09570305802e-11+j4.07012206251e-11
  -1.93849757466e-11+j3.95323281672e-11
  -1.79103146889e-11+j3.83449859332e-11
  -1.65301006013e-11+j3.71463696413e-11
  -1.52409777032e-11+j3.59429872609e-11
  -1.40392748747e-11+j3.47406845646e-11
  -1.29210909389e-11+j3.35446613218e-11
  -1.18823709714e-11+j3.23594959663e-11
  -1.09189734088e-11+j3.11891767171e-11
  -1.00267280573e-11+j3.00371373334e-11
  -9.20148534280e-12+j2.89062959038e-11
</dep>
<dep In.v acfrequency>
  +1.00000000000e-06
  +1.00000000000e-06
  +1.00000000000e-06
  +1.00000000000e-06
  +1.00000000000e-06
  +1.00000000000e-06
  +1.00000000000e-06
  +1.00000000000e-06
  +1.00000000000e-06
  +1.00000000000e-06
  +1.00000000000e-06
  +1.00000000000e-06
  +1.00000000000e-06
  +1.00000000000e-06
  +1.00000000000e-06
  +1.00000000000e-06
  +1.00000000000e-06
  +1.00000000000e-06
  +1.00000000000e-06
  +1.00000000000e-06
  +1.00000000000e-06
  +1.00000000000e-06
  +1.00000000000e-06
  +1.00000000000e-06
  +1.00000000000e-06
  +1.00000000000e-06
  +1.00000000000e-06
  +1.00000000000e-06
  +1.00000000000e-06
  +1.00000000000e-06
  +1.00000000000e-06
  +1.00000000000e-06
  +1.00000000000e-06
  +1.00000000000e-06
  +1.00000000000e-06
  +1.00000000000e-06
  +1.00000000000e-06
  +1.00000000000e-06
  +1.00000000000e-06
  +1.00000000000e-06
  +1.00000000000e-06
  +1.00000000000e-06
  +1.00000000000e-06
  +1.00000000000e-06
  +1.00000000000e-06
  +1.00000000000e-06
  +1.00000000000e-06
  +1.00000000000e-06
  +1.00000000000e-06
  +1.00000000000e-06
  +1.00000000000e-06
  +1.00000000000e-06
  +1.00000000000e-06
  +1.00000000000e-06
  +1.00000000000e-06
  +1.00000000000e-06
  +1.00000000000e-06
  +1.00000000000e-06
  +1.00000000000e-06
  +1.00000000000e-06
  +1.00000000000e-06
  +1.00000000000e-06
  +1.00000000000e-06
  +1.00000000000e-06
  +1.00000000000e-06
  +1.00000000000e-06
  +1.00000000000e-06
  +1.00000000000e-06
  +1.00000000000e-06
  +1.00000000000e-06
  +1.00000000000e-06
  +1.00000000000e-06
  +1.00000000000e-06
  +1.00000000000e-06
  +1.00000000000e-06
  +1.00000000000e-06
  +1.00000000000e-06
  +1.00000000000e-06
  +1.00000000000e-06
  +1.00000000000e-06
  +1.00000000000e-06
  +1.00000000000e-06
  +1.00000000000e-06
  +1.00000000000e-06
  +1.00000000000e-06
  +1.00000000000e-06
  +1.00000000000e-06
  +1.00000000000e-06
  +1.00000000000e-06
  +1.00000000000e-06
  +1.00000000000e-06
  +1.00000000000e-06
  +1.00000000000e-06
  +1.00000000000e-06
  +1.00000000000e-06
  +1.00000000000e-06
  +1.00000000000e-06
  +1.00000000000e-06
  +1.00000000000e-06
  +1.00000000000e-06
</dep>
<dep _net0.v acfrequency>
  -9.14754053033e-09+j2.90271616470e-09
  -9.95849030836e-09+j3.31376950500e-09
  -1.08333734467e-08+j3.78062097391e-09
  -1.17757420903e-08+j4.31027138417e-09
  -1.27890623480e-08+j4.91046752783e-09
  -1.38766480954e-08+j5.58975194934e-09
  -1.50415838477e-08+j6.35750929149e-09
  -1.62866362087e-08+j7.22400735854e-09
  -1.76141536732e-08+j8.20043077478e-09
  -1.90259549174e-08+j9.29890487845e-09
  -2.05232061511e-08+j1.05325073018e-08
  -2.21062886335e-08+j1.19152645745e-08
  -2.37746580560e-08+j1.34621310816e-08
  -2.55266981550e-08+j1.51889478322e-08
  -2.73595716034e-08+j1.71123787898e-08
  -2.92690719036e-08+j1.92498229909e-08
  -3.12494806165e-08+j2.16193013563e-08
  -3.32934347436e-08+j2.42393179762e-08
  -3.53918093807e-08+j2.71286967046e-08
  -3.75336208051e-08+j3.03063950921e-08
  -3.97059548978e-08+j3.37912989574e-08
  -4.18939251922e-08+j3.76020021532e-08
  -4.40806638735e-08+j4.17565772349e-08
  -4.62473477402e-08+j4.62723436619e-08
  -4.83732595409e-08+j5.11656407572e-08
  -5.04358833044e-08+j5.64516128175e-08
  -5.24110304113e-08+j6.21440134439e-08
  -5.42729913644e-08+j6.82550353149e-08
  -5.59947066481e-08+j7.47951702880e-08
  -5.75479488775e-08+j8.17731029400e-08
  -5.89035077463e-08+j8.91956385806e-08
  -6.00313691661e-08+j9.70676645276e-08
  -6.09008804801e-08+j1.05392141202e-07
  -6.14808947143e-08+j1.14170117551e-07
  -6.17398884070e-08+j1.23400763583e-07
  -6.16460495412e-08+j1.33081411563e-07
  -6.11673343280e-08+j1.43207596648e-07
  -6.02714939219e-08+j1.53773087642e-07
  -5.89260744294e-08+j1.64769898889e-07
  -5.70983956873e-08+j1.76188275242e-07
  -5.47555161336e-08+j1.88016643358e-07
  -5.18641926127e-08+j2.00241524222e-07
  -4.83908451101e-08+j2.12847403672e-07
  -4.43015371956e-08+j2.25816559792e-07
  -3.95619833770e-08+j2.39128848151e-07
  -3.41375946430e-08+j2.52761448106e-07
  -2.79935732185e-08+j2.66688575600e-07
  -2.10950669809e-08+j2.80881170110e-07
  -1.34073930675e-08+j2.95306565659e-07
  -4.89633893537e-09+j3.09928157979e-07
  +4.47145254293e-09+j3.24705082108e-07
  +1.47280094930e-08+j3.39591916739e-07
  +2.59034671489e-08+j3.54538433556e-07
  +3.80254150472e-08+j3.69489411388e-07
  +5.11181604815e-08+j3.84384536193e-07
  +6.52019177614e-08+j3.99158408424e-07
  +8.02919377035e-08+j4.13740679088e-07
  +9.63975970554e-08+j4.28056334457e-07
  +1.13521472998e-07+j4.42026146844e-07
  +1.31658433191e-07+j4.55567304799e-07
  +1.50794776655e-07+j4.68594230561e-07
  +1.70907464603e-07+j4.81019585442e-07
  +1.91963482772e-07+j4.92755455317e-07
  +2.13919377199e-07+j5.03714698718e-07
  +2.36721003441e-07+j5.13812429763e-07
  +2.60303524559e-07+j5.22967597823e-07
  +2.84591685662e-07+j5.31104616316e-07
  +3.09500382521e-07+j5.38154985147e-07
  +3.34935529168e-07+j5.44058845855e-07
  +3.60795215096e-07+j5.48766406409e-07
  +3.86971127626e-07+j5.52239174129e-07
  +4.13350200366e-07+j5.54450940826e-07
  +4.39816435522e-07+j5.55388473732e-07
  +4.66252837401e-07+j5.55051878624e-07
  +4.92543387579e-07+j5.53454616962e-07
  +5.18574989615e-07+j5.50623175579e-07
  +5.44239313090e-07+j5.46596404348e-07
  +5.69434472892e-07+j5.41424552930e-07
  +5.94066489631e-07+j5.35168050975e-07
  +6.18050489767e-07+j5.27896086236e-07
  +6.41311618523e-07+j5.19685041202e-07
  +6.63785653626e-07+j5.10616851137e-07
  +6.85419322348e-07+j5.00777344734e-07
  +7.06170337154e-07+j4.90254623689e-07
  +7.26007175862e-07+j4.79137530011e-07
  +7.44908640106e-07+j4.67514240543e-07
  +7.62863230907e-07+j4.55471018092e-07
  +7.79868382481e-07+j4.43091138267e-07
  +7.95929595217e-07+j4.30454001486e-07
  +8.11059506614e-07+j4.17634431041e-07
  +8.25276935244e-07+j4.04702150910e-07
  +8.38605928113e-07+j3.91721431434e-07
  +8.51074836561e-07+j3.78750886939e-07
  +8.62715440423e-07+j3.65843406827e-07
  +8.73562135052e-07+j3.53046200449e-07
  +8.83651190966e-07+j3.40400935918e-07
  +8.93020091757e-07+j3.27943953711e-07
  +9.01706952344e-07+j3.15706537257e-07
  +9.09750016790e-07+j3.03715224433e-07
  +9.17187232721e-07+j2.91992145877e-07
</dep>
<dep _net4.v acfrequency>
  -9.14754053094e-09+j2.90268443275e-09
  -9.95849031881e-09+j3.31373623272e-09
  -1.08333734697e-08+j3.78058608412e-09
  -1.17757421294e-08+j4.31023479557e-09
  -1.27890624072e-08+j4.91042915479e-09
  -1.38766481796e-08+j5.58971170161e-09
  -1.50415839628e-08+j6.35746707398e-09
  -1.62866363618e-08+j7.22396307107e-09
  -1.76141538726e-08+j8.20038431175e-09
  -1.90259551731e-08+j9.29885612864e-09
  -2.05232064748e-08+j1.05324561479e-08
  -2.21062890390e-08+j1.19152108933e-08
  -2.37746585596e-08+j1.34620747430e-08
  -2.55266987758e-08+j1.51888886995e-08
  -2.73595723635e-08+j1.71123167191e-08
  -2.92690728288e-08+j1.92497578310e-08
  -3.12494817367e-08+j2.16192329485e-08
  -3.32934360931e-08+j2.42392461538e-08
  -3.53918109991e-08+j2.71286212928e-08
  -3.75336227376e-08+j3.03063159080e-08
  -3.97059571961e-08+j3.37912158096e-08
  -4.18939279150e-08+j3.76019148419e-08
  -4.40806670872e-08+j4.17564855517e-08
  -4.62473515197e-08+j4.62722473897e-08
  -4.83732639707e-08+j5.11655396702e-08
  -5.04358884787e-08+j5.64515066817e-08
  -5.24110364356e-08+j6.21439020167e-08
  -5.42729983559e-08+j6.82549183454e-08
  -5.59947147368e-08+j7.47950475174e-08
  -5.75479582071e-08+j8.17729741017e-08
  -5.89035184753e-08+j8.91955034007e-08
  -6.00313814684e-08+j9.70675227252e-08
  -6.09008945466e-08+j1.05391992490e-07
  -6.14809107535e-08+j1.14169961636e-07
  -6.17399066465e-08+j1.23400600167e-07
  -6.16460702284e-08+j1.33081240343e-07
  -6.11673577317e-08+j1.43207417318e-07
  -6.02715203335e-08+j1.53772899894e-07
  -5.89261041638e-08+j1.64769702412e-07
  -5.70984290844e-08+j1.76188069726e-07
  -5.47555535597e-08+j1.88016428495e-07
  -5.18642344616e-08+j2.00241299708e-07
  -4.83908918043e-08+j2.12847169207e-07
  -4.43015891877e-08+j2.25816315084e-07
  -3.95620411507e-08+j2.39128592919e-07
  -3.41376587138e-08+j2.52761182081e-07
  -2.79936441350e-08+j2.66688298529e-07
  -2.10951453248e-08+j2.80880881761e-07
  -1.34074794542e-08+j2.95306265821e-07
  -4.89643401389e-09+j3.09927846471e-07
  +4.47134809063e-09+j3.24704758780e-07
  +1.47278949529e-08+j3.39591581476e-07
  +2.59033417766e-08+j3.54538086285e-07
  +3.80252780700e-08+j3.69489052082e-07
  +5.11180111014e-08+j3.84384164876e-07
  +6.52017551586e-08+j3.99158025176e-07
  +8.02917610411e-08+j4.13740284049e-07
  +9.63974054847e-08+j4.28055927834e-07
  +1.13521265664e-07+j4.42025728911e-07
  +1.31658209241e-07+j4.55566875904e-07
  +1.50794535244e-07+j4.68593791127e-07
  +1.70907204904e-07+j4.81019135970e-07
  +1.91963203985e-07+j4.92754996385e-07
  +2.13919078560e-07+j5.03714230982e-07
  +2.36720684229e-07+j5.13811953955e-07
  +2.60303184111e-07+j5.22967114746e-07
  +2.84591323379e-07+j5.31104126843e-07
  +3.09499997875e-07+j5.38154490209e-07
  +3.34935121716e-07+j5.44058346439e-07
  +3.60794784481e-07+j5.48765903546e-07
  +3.86970673587e-07+j5.52238668886e-07
  +4.13349722739e-07+j5.54450434294e-07
  +4.39815934247e-07+j5.55387967012e-07
  +4.66252312519e-07+j5.55051372821e-07
  +4.92542839232e-07+j5.53454113170e-07
  +5.18574418046e-07+j5.50622674866e-07
  +5.44238718635e-07+j5.46595907751e-07
  +5.69433855978e-07+j5.41424061441e-07
  +5.94065850766e-07+j5.35167565536e-07
  +6.18049829535e-07+j5.27895607724e-07
  +6.41310937574e-07+j5.19684570431e-07
  +6.63784952665e-07+j5.10616388848e-07
  +6.85418602127e-07+j5.00776891590e-07
  +7.06169598461e-07+j4.90254180280e-07
  +7.26006419514e-07+j4.79137096846e-07
  +7.44907866939e-07+j4.67513818054e-07
  +7.62862441765e-07+j4.55470606636e-07
  +7.79867578209e-07+j4.43090738127e-07
  +7.95928776657e-07+j4.30453612875e-07
  +8.11058674596e-07+j4.17634054108e-07
  +8.25276090581e-07+j4.04701785739e-07
  +8.38605071596e-07+j3.91721078057e-07
  +8.51073968955e-07+j3.78750545334e-07
  +8.62714562466e-07+j3.65843076926e-07
  +8.73561247450e-07+j3.53045882143e-07
  +8.83650294393e-07+j3.40400629062e-07
  +8.93019186854e-07+j3.27943658126e-07
  +9.01706039718e-07+j3.15706252739e-07
  +9.09749097012e-07+j3.03714950755e-07
  +9.17186306331e-07+j2.91991882791e-07
</dep>
<dep _net2.v acfrequency>
  -9.14755882667e-09+j2.90265850612e-09
  -9.95851024628e-09+j3.31370958786e-09
  -1.08333951596e-08+j3.78055875544e-09
  -1.17757657200e-08+j4.31020682739e-09
  -1.27890880446e-08+j4.91040060255e-09
  -1.38766760171e-08+j5.58968263324e-09
  -1.50416141611e-08+j6.35743757136e-09
  -1.62866690881e-08+j7.22393323146e-09
  -1.76141893003e-08+j8.20035424944e-09
  -1.90259934807e-08+j9.29882597647e-09
  -2.05232478449e-08+j1.05324260590e-08
  -2.21063336572e-08+j1.19151810424e-08
  -2.37747066127e-08+j1.34620453285e-08
  -2.55267504501e-08+j1.51888599445e-08
  -2.73596278429e-08+j1.71122888730e-08
  -2.92691322924e-08+j1.92497311707e-08
  -3.12495453560e-08+j2.16192077791e-08
  -3.32935040297e-08+j2.42392228098e-08
  -3.53918834012e-08+j2.71286001382e-08
  -3.75336997375e-08+j3.03062973365e-08
  -3.97060389065e-08+j3.37912002443e-08
  -4.18940144258e-08+j3.76019027344e-08
  -4.40807584624e-08+j4.17564773814e-08
  -4.62474477942e-08+j4.62722436619e-08
  -4.83733651471e-08+j5.11655409144e-08
  -5.04359945251e-08+j5.64515134490e-08
  -5.24111472822e-08+j6.21439148773e-08
  -5.42731138936e-08+j6.82549378858e-08
  -5.59948348152e-08+j7.47950743369e-08
  -5.75480826329e-08+j8.17730088094e-08
  -5.89036470116e-08+j8.91955466118e-08
  -6.00315138338e-08+j9.70675750580e-08
  -6.09010304152e-08+j1.05392054562e-07
  -6.14810497549e-08+j1.14170034061e-07
  -6.17400483661e-08+j1.23400683553e-07
  -6.16462142081e-08+j1.33081335286e-07
