<Qucs Dataset 0.0.18>
<indep Vbe 201>
  +1.00000000000e-01
  +1.05000000000e-01
  +1.10000000000e-01
  +1.15000000000e-01
  +1.20000000000e-01
  +1.25000000000e-01
  +1.30000000000e-01
  +1.35000000000e-01
  +1.40000000000e-01
  +1.45000000000e-01
  +1.50000000000e-01
  +1.55000000000e-01
  +1.60000000000e-01
  +1.65000000000e-01
  +1.70000000000e-01
  +1.75000000000e-01
  +1.80000000000e-01
  +1.85000000000e-01
  +1.90000000000e-01
  +1.95000000000e-01
  +2.00000000000e-01
  +2.05000000000e-01
  +2.10000000000e-01
  +2.15000000000e-01
  +2.20000000000e-01
  +2.25000000000e-01
  +2.30000000000e-01
  +2.35000000000e-01
  +2.40000000000e-01
  +2.45000000000e-01
  +2.50000000000e-01
  +2.55000000000e-01
  +2.60000000000e-01
  +2.65000000000e-01
  +2.70000000000e-01
  +2.75000000000e-01
  +2.80000000000e-01
  +2.85000000000e-01
  +2.90000000000e-01
  +2.95000000000e-01
  +3.00000000000e-01
  +3.05000000000e-01
  +3.10000000000e-01
  +3.15000000000e-01
  +3.20000000000e-01
  +3.25000000000e-01
  +3.30000000000e-01
  +3.35000000000e-01
  +3.40000000000e-01
  +3.45000000000e-01
  +3.50000000000e-01
  +3.55000000000e-01
  +3.60000000000e-01
  +3.65000000000e-01
  +3.70000000000e-01
  +3.75000000000e-01
  +3.80000000000e-01
  +3.85000000000e-01
  +3.90000000000e-01
  +3.95000000000e-01
  +4.00000000000e-01
  +4.05000000000e-01
  +4.10000000000e-01
  +4.15000000000e-01
  +4.20000000000e-01
  +4.25000000000e-01
  +4.30000000000e-01
  +4.35000000000e-01
  +4.40000000000e-01
  +4.45000000000e-01
  +4.50000000000e-01
  +4.55000000000e-01
  +4.60000000000e-01
  +4.65000000000e-01
  +4.70000000000e-01
  +4.75000000000e-01
  +4.80000000000e-01
  +4.85000000000e-01
  +4.90000000000e-01
  +4.95000000000e-01
  +5.00000000000e-01
  +5.05000000000e-01
  +5.10000000000e-01
  +5.15000000000e-01
  +5.20000000000e-01
  +5.25000000000e-01
  +5.30000000000e-01
  +5.35000000000e-01
  +5.40000000000e-01
  +5.45000000000e-01
  +5.50000000000e-01
  +5.55000000000e-01
  +5.60000000000e-01
  +5.65000000000e-01
  +5.70000000000e-01
  +5.75000000000e-01
  +5.80000000000e-01
  +5.85000000000e-01
  +5.90000000000e-01
  +5.95000000000e-01
  +6.00000000000e-01
  +6.05000000000e-01
  +6.10000000000e-01
  +6.15000000000e-01
  +6.20000000000e-01
  +6.25000000000e-01
  +6.30000000000e-01
  +6.35000000000e-01
  +6.40000000000e-01
  +6.45000000000e-01
  +6.50000000000e-01
  +6.55000000000e-01
  +6.60000000000e-01
  +6.65000000000e-01
  +6.70000000000e-01
  +6.75000000000e-01
  +6.80000000000e-01
  +6.85000000000e-01
  +6.90000000000e-01
  +6.95000000000e-01
  +7.00000000000e-01
  +7.05000000000e-01
  +7.10000000000e-01
  +7.15000000000e-01
  +7.20000000000e-01
  +7.25000000000e-01
  +7.30000000000e-01
  +7.35000000000e-01
  +7.40000000000e-01
  +7.45000000000e-01
  +7.50000000000e-01
  +7.55000000000e-01
  +7.60000000000e-01
  +7.65000000000e-01
  +7.70000000000e-01
  +7.75000000000e-01
  +7.80000000000e-01
  +7.85000000000e-01
  +7.90000000000e-01
  +7.95000000000e-01
  +8.00000000000e-01
  +8.05000000000e-01
  +8.10000000000e-01
  +8.15000000000e-01
  +8.20000000000e-01
  +8.25000000000e-01
  +8.30000000000e-01
  +8.35000000000e-01
  +8.40000000000e-01
  +8.45000000000e-01
  +8.50000000000e-01
  +8.55000000000e-01
  +8.60000000000e-01
  +8.65000000000e-01
  +8.70000000000e-01
  +8.75000000000e-01
  +8.80000000000e-01
  +8.85000000000e-01
  +8.90000000000e-01
  +8.95000000000e-01
  +9.00000000000e-01
  +9.05000000000e-01
  +9.10000000000e-01
  +9.15000000000e-01
  +9.20000000000e-01
  +9.25000000000e-01
  +9.30000000000e-01
  +9.35000000000e-01
  +9.40000000000e-01
  +9.45000000000e-01
  +9.50000000000e-01
  +9.55000000000e-01
  +9.60000000000e-01
  +9.65000000000e-01
  +9.70000000000e-01
  +9.75000000000e-01
  +9.80000000000e-01
  +9.85000000000e-01
  +9.90000000000e-01
  +9.95000000000e-01
  +1.00000000000e+00
  +1.00500000000e+00
  +1.01000000000e+00
  +1.01500000000e+00
  +1.02000000000e+00
  +1.02500000000e+00
  +1.03000000000e+00
  +1.03500000000e+00
  +1.04000000000e+00
  +1.04500000000e+00
  +1.05000000000e+00
  +1.05500000000e+00
  +1.06000000000e+00
  +1.06500000000e+00
  +1.07000000000e+00
  +1.07500000000e+00
  +1.08000000000e+00
  +1.08500000000e+00
  +1.09000000000e+00
  +1.09500000000e+00
  +1.10000000000e+00
</indep>
<dep Isub Vbe>
  -0.00000000000e+00
  -0.00000000000e+00
  -0.00000000000e+00
  -0.00000000000e+00
  -0.00000000000e+00
  -0.00000000000e+00
  -0.00000000000e+00
  -0.00000000000e+00
  -0.00000000000e+00
  -0.00000000000e+00
  -0.00000000000e+00
  -0.00000000000e+00
  -0.00000000000e+00
  -0.00000000000e+00
  -0.00000000000e+00
  -0.00000000000e+00
  -0.00000000000e+00
  -0.00000000000e+00
  -0.00000000000e+00
  -0.00000000000e+00
  -0.00000000000e+00
  -0.00000000000e+00
  -0.00000000000e+00
  -0.00000000000e+00
  -0.00000000000e+00
  -0.00000000000e+00
  -0.00000000000e+00
  -0.00000000000e+00
  -0.00000000000e+00
  -0.00000000000e+00
  -0.00000000000e+00
  -0.00000000000e+00
  -0.00000000000e+00
  -0.00000000000e+00
  -0.00000000000e+00
  -0.00000000000e+00
  -0.00000000000e+00
  -0.00000000000e+00
  -0.00000000000e+00
  -0.00000000000e+00
  -0.00000000000e+00
  -0.00000000000e+00
  -0.00000000000e+00
  -0.00000000000e+00
  -0.00000000000e+00
  -0.00000000000e+00
  -0.00000000000e+00
  -0.00000000000e+00
  -0.00000000000e+00
  -0.00000000000e+00
  -0.00000000000e+00
  -0.00000000000e+00
  -0.00000000000e+00
  -0.00000000000e+00
  -0.00000000000e+00
  -0.00000000000e+00
  -0.00000000000e+00
  -0.00000000000e+00
  -0.00000000000e+00
  -0.00000000000e+00
  -0.00000000000e+00
  -0.00000000000e+00
  -0.00000000000e+00
  -0.00000000000e+00
  -0.00000000000e+00
  -0.00000000000e+00
  -0.00000000000e+00
  -0.00000000000e+00
  -0.00000000000e+00
  -0.00000000000e+00
  -0.00000000000e+00
  -0.00000000000e+00
  -0.00000000000e+00
  -0.00000000000e+00
  -0.00000000000e+00
  -0.00000000000e+00
  -0.00000000000e+00
  -0.00000000000e+00
  -0.00000000000e+00
  -0.00000000000e+00
  -0.00000000000e+00
  -0.00000000000e+00
  -0.00000000000e+00
  -0.00000000000e+00
  -0.00000000000e+00
  -0.00000000000e+00
  -0.00000000000e+00
  -0.00000000000e+00
  -0.00000000000e+00
  -0.00000000000e+00
  -0.00000000000e+00
  -0.00000000000e+00
  -0.00000000000e+00
  -0.00000000000e+00
  -0.00000000000e+00
  -0.00000000000e+00
  -0.00000000000e+00
  -0.00000000000e+00
  -0.00000000000e+00
  -0.00000000000e+00
  -0.00000000000e+00
  -0.00000000000e+00
  -0.00000000000e+00
  -0.00000000000e+00
  -0.00000000000e+00
  -0.00000000000e+00
  -0.00000000000e+00
  -0.00000000000e+00
  -0.00000000000e+00
  -0.00000000000e+00
  -0.00000000000e+00
  -0.00000000000e+00
  -0.00000000000e+00
  -0.00000000000e+00
  -0.00000000000e+00
  -0.00000000000e+00
  -0.00000000000e+00
  -0.00000000000e+00
  -0.00000000000e+00
  -0.00000000000e+00
  -0.00000000000e+00
  -0.00000000000e+00
  -0.00000000000e+00
  -0.00000000000e+00
  -0.00000000000e+00
  -0.00000000000e+00
  -0.00000000000e+00
  -0.00000000000e+00
  -0.00000000000e+00
  -0.00000000000e+00
  -0.00000000000e+00
  -0.00000000000e+00
  -0.00000000000e+00
  -0.00000000000e+00
  -0.00000000000e+00
  -0.00000000000e+00
  -0.00000000000e+00
  -0.00000000000e+00
  -0.00000000000e+00
  -0.00000000000e+00
  -0.00000000000e+00
  -0.00000000000e+00
  -0.00000000000e+00
  -0.00000000000e+00
  -0.00000000000e+00
  -0.00000000000e+00
  -0.00000000000e+00
  -0.00000000000e+00
  -0.00000000000e+00
  -0.00000000000e+00
  -0.00000000000e+00
  -0.00000000000e+00
  -0.00000000000e+00
  -0.00000000000e+00
  -0.00000000000e+00
  -0.00000000000e+00
  -0.00000000000e+00
  -0.00000000000e+00
  -0.00000000000e+00
  -0.00000000000e+00
  -0.00000000000e+00
  -0.00000000000e+00
  -0.00000000000e+00
  -0.00000000000e+00
  -0.00000000000e+00
  -0.00000000000e+00
  -0.00000000000e+00
  -0.00000000000e+00
  -0.00000000000e+00
  -0.00000000000e+00
  -0.00000000000e+00
  -0.00000000000e+00
  -0.00000000000e+00
  -0.00000000000e+00
  -0.00000000000e+00
  -0.00000000000e+00
  -0.00000000000e+00
  -0.00000000000e+00
  -0.00000000000e+00
  -0.00000000000e+00
  -0.00000000000e+00
  -0.00000000000e+00
  -0.00000000000e+00
  -0.00000000000e+00
  -0.00000000000e+00
  -0.00000000000e+00
  -0.00000000000e+00
  -0.00000000000e+00
  -0.00000000000e+00
  -0.00000000000e+00
  -0.00000000000e+00
  -0.00000000000e+00
  -0.00000000000e+00
  -0.00000000000e+00
  -0.00000000000e+00
  -0.00000000000e+00
  -0.00000000000e+00
  -0.00000000000e+00
  -0.00000000000e+00
  -0.00000000000e+00
  -0.00000000000e+00
</dep>
<dep Beta Vbe>
  +3.68895992234e+00
  +3.90192064335e+00
  +4.12643970266e+00
  +4.36960857603e+00
  +4.63114248308e+00
  +4.90539501641e+00
  +5.19269438555e+00
  +5.49906167578e+00
  +5.83199591641e+00
  +6.17789147903e+00
  +6.54773715320e+00
  +6.94036202465e+00
  +7.35244946262e+00
  +7.79034083944e+00
  +8.25635776594e+00
  +8.74275363208e+00
  +9.25953314669e+00
  +9.80672063570e+00
  +1.03814695944e+01
  +1.09869670005e+01
  +1.16236577626e+01
  +1.22914753616e+01
  +1.29962649139e+01
  +1.37326817483e+01
  +1.45063331226e+01
  +1.53157232870e+01
  +1.61622396792e+01
  +1.70458343022e+01
  +1.79687690762e+01
  +1.89298960981e+01
  +1.99307656225e+01
  +2.09713918918e+01
  +2.20498957439e+01
  +2.31685228077e+01
  +2.43268171511e+01
  +2.55223146869e+01
  +2.67570036819e+01
  +2.80283953975e+01
  +2.93347094282e+01
  +3.06772168723e+01
  +3.20518741821e+01
  +3.34581121567e+01
  +3.48935311310e+01
  +3.63562699761e+01
  +3.78441041886e+01
  +3.93541489665e+01
  +4.08838268630e+01
  +4.24303708428e+01
  +4.39908861056e+01
  +4.55620502690e+01
  +4.71404931613e+01
  +4.87231672898e+01
  +5.03068613735e+01
  +5.18882313384e+01
  +5.34640268149e+01
  +5.50306557858e+01
  +5.65853710971e+01
  +5.81249068144e+01
  +5.96461693503e+01
  +6.11466164732e+01
  +6.26234525945e+01
  +6.40741538607e+01
  +6.54965035223e+01
  +6.68884094634e+01
  +6.82479606791e+01
  +6.95735556938e+01
  +7.08637079671e+01
  +7.21172063259e+01
  +7.33330045457e+01
  +7.45103834910e+01
  +7.56486684309e+01
  +7.67475008404e+01
  +7.78066599614e+01
  +7.88260872223e+01
  +7.98059311311e+01
  +8.07464401225e+01
  +8.16480292141e+01
  +8.25112079343e+01
  +8.33366333729e+01
  +8.41250424411e+01
  +8.48772474058e+01
  +8.55941340440e+01
  +8.62766617344e+01
  +8.69258294733e+01
  +8.75426764921e+01
  +8.81282676229e+01
  +8.86836978550e+01
  +8.92100660513e+01
  +8.97084824598e+01
  +9.01800536759e+01
  +9.06258798417e+01
  +9.10470475667e+01
  +9.14446297647e+01
  +9.18196778320e+01
  +9.21732199893e+01
  +9.25062580240e+01
  +9.28197636042e+01
  +9.31146794554e+01
  +9.33919143869e+01
  +9.36523437087e+01
  +9.38968077727e+01
  +9.41261108779e+01
  +9.43410203289e+01
  +9.45422657175e+01
  +9.47305384347e+01
  +9.49064901051e+01
  +9.50707322755e+01
  +9.52238347736e+01
  +9.53663244918e+01
  +9.54986830711e+01
  +9.56213447692e+01
  +9.57346931709e+01
  +9.58390573269e+01
  +9.59347066851e+01
  +9.60218451055e+01
  +9.61006031349e+01
  +9.61710287172e+01
  +9.62330757214e+01
  +9.62865900500e+01
  +9.63312927546e+01
  +9.63667598686e+01
  +9.63923981884e+01
  +9.64074166050e+01
  +9.64107922877e+01
  +9.64012312937e+01
  +9.63771231011e+01
  +9.63364888958e+01
  +9.62769237889e+01
  +9.61955337355e+01
  +9.60888688188e+01
  +9.59528557980e+01
  +9.57827344640e+01
  +9.55730044926e+01
  +9.53173919136e+01
  +9.50088469858e+01
  +9.46395876754e+01
  +9.42012043894e+01
  +9.36848412343e+01
  +9.30814656845e+01
  +9.23822312018e+01
  +9.15789256478e+01
  +9.06644829790e+01
  +8.96335190256e+01
  +8.84828378802e+01
  +8.72118480764e+01
  +8.58228310117e+01
  +8.43210192186e+01
  +8.27144668848e+01
  +8.10137241046e+01
  +7.92313529240e+01
  +7.73813414842e+01
  +7.54784794045e+01
  +7.35377533082e+01
  +7.15738090275e+01
  +6.96005106593e+01
  +6.76306101666e+01
  +6.56755273521e+01
  +6.37452301068e+01
  +6.18481990086e+01
  +5.99914580110e+01
  +5.81806531893e+01
  +5.64201633533e+01
  +5.47132289929e+01
  +5.30620889006e+01
  +5.14681165638e+01
  +4.99319508073e+01
  +4.84536171364e+01
  +4.70326377599e+01
  +4.56681294180e+01
  +4.43588889470e+01
  +4.31034670599e+01
  +4.19002311573e+01
  +4.07474181720e+01
  +3.96431785297e+01
  +3.85856123031e+01
  +3.75727986072e+01
  +3.66028191910e+01
  +3.56737771050e+01
  +3.47838112213e+01
  +3.39311072952e+01
  +3.31139061488e+01
  +3.23305095079e+01
  +3.15792839089e+01
  +3.08586630528e+01
  +3.01671489140e+01
  +2.95033118677e+01
  +2.88657900195e+01
  +2.82532879892e+01
  +2.76645752011e+01
  +2.70984838655e+01
  +2.65539067237e+01
  +2.60297946378e+01
  +2.55251540885e+01
  +2.50390446181e+01
  +2.45705763296e+01
  +2.41189072898e+01
  +2.36832411056e+01
  +2.32628245040e+01
  +2.28569450041e+01
  +2.24649286768e+01
  +2.20861379979e+01
</dep>
<dep Ic Vbe>
  +4.66839152975e-15
  +5.68827833056e-15
  +6.91850876208e-15
  +8.41700679677e-15
  +1.02337294534e-14
  +1.24363459100e-14
  +1.51069402512e-14
  +1.83450821262e-14
  +2.22793230781e-14
  +2.70489551845e-14
  +3.28400228692e-14
  +3.98603297110e-14
  +4.83802543710e-14
  +5.87178303347e-14
  +7.12492241257e-14
  +8.64605990012e-14
  +1.04919778032e-13
  +1.27304917139e-13
  +1.54460449215e-13
  +1.87409373421e-13
  +2.27379954343e-13
  +2.75872947525e-13
  +3.34706951308e-13
  +4.06073941660e-13
  +4.92656363703e-13
  +5.97704202951e-13
  +7.25142640870e-13
  +8.79742832632e-13
  +1.06730048670e-12
  +1.29485218926e-12
  +1.57089588036e-12
  +1.90580342555e-12
  +2.31208128705e-12
  +2.80497742462e-12
  +3.40294918027e-12
  +4.12839240325e-12
  +5.00849034051e-12
  +6.07619365532e-12
  +7.37149221924e-12
  +8.94291947707e-12
  +1.08493409528e-11
  +1.31621580010e-11
  +1.59680122844e-11
  +1.93720064094e-11
  +2.35016260044e-11
  +2.85115829824e-11
  +3.45895282144e-11
  +4.19631298966e-11
  +5.09085854742e-11
  +6.17609723501e-11
  +7.49268042994e-11
  +9.08992397595e-11
  +1.10276584690e-10
  +1.33784658834e-10
  +1.62304034396e-10
  +1.96902956986e-10
  +2.38877477800e-10
  +2.89799828083e-10
  +3.51577458652e-10
  +4.26524409750e-10
  +5.17448061228e-10
  +6.27754175188e-10
  +7.61574590310e-10
  +9.23921902022e-10
  +1.12087726487e-09
  +1.35981821450e-09
  +1.64969487552e-09
  +2.00136538098e-09
  +2.42800248118e-09
  +2.94558699773e-09
  +3.57350640471e-09
  +4.33528107250e-09
  +5.25944521386e-09
  +6.38061575158e-09
  +7.74078900950e-09
  +9.39091365196e-09
  +1.13927992037e-08
  +1.38214310865e-08
  +1.67677794942e-08
  +2.03422068239e-08
  +2.46786013064e-08
  +2.99393921480e-08
  +3.63216334490e-08
  +4.40643848261e-08
  +5.34576657381e-08
  +6.48533180349e-08
  +7.86781839251e-08
  +9.54500928923e-08
  +1.15797255846e-07
  +1.40481793080e-07
  +1.70428276065e-07
  +2.06758352377e-07
  +2.50832748797e-07
  +3.04302224746e-07
  +3.69169382244e-07
  +4.47863643580e-07
  +5.43332200934e-07
  +6.59150336277e-07
  +7.99655232902e-07
  +9.70108274563e-07
  +1.17689188702e-06
  +1.42774825991e-06
  +1.73206883792e-06
  +2.10124534873e-06
  +2.54909540173e-06
  +3.09237843429e-06
  +3.75142108469e-06
  +4.55087505806e-06
  +5.52063534203e-06
  +6.69695238790e-06
  +8.12377877299e-06
  +9.85439910595e-06
  +1.19534017594e-05
  +1.44990626657e-05
  +1.75862251548e-05
  +2.13297759230e-05
  +2.58688359348e-05
  +3.13718065703e-05
  +3.80424356816e-05
  +4.61270952676e-05
  +5.59234916853e-05
  +6.77910596128e-05
  +8.21633204454e-05
  +9.95625112914e-05
  +1.20616807369e-04
  +1.46080461151e-04
  +1.76857155759e-04
  +2.14026803660e-04
  +2.58875896137e-04
  +3.12931301029e-04
  +3.77997089271e-04
  +4.56193517305e-04
  +5.49996680527e-04
  +6.62276576029e-04
  +7.96330395314e-04
  +9.55906884102e-04
  +1.14521670165e-03
  +1.36892311309e-03
  +1.63210735373e-03
  +1.94020393718e-03
  +2.29890328975e-03
  +2.71402242600e-03
  +3.19134864180e-03
  +3.73646570136e-03
  +4.35457574490e-03
  +5.05033211297e-03
  +5.82769777189e-03
  +6.68984096608e-03
  +7.63907476593e-03
  +8.67684148361e-03
  +9.80373775151e-03
  +1.10195723529e-02
  +1.23234470738e-02
  +1.37138507891e-02
  +1.51887582257e-02
  +1.67457267697e-02
  +1.83819867695e-02
  +2.00945226766e-02
  +2.18801438622e-02
  +2.37355450180e-02
  +2.56573567269e-02
  +2.76421871562e-02
  +2.96866559733e-02
  +3.17874215930e-02
  +3.39412027877e-02
  +3.61447955807e-02
  +3.83950862168e-02
  +4.06890608822e-02
  +4.30238127388e-02
  +4.53965467418e-02
  +4.78045826310e-02
  +5.02453564213e-02
  +5.27164206617e-02
  +5.52154436892e-02
  +5.77402080750e-02
  +6.02886084108e-02
  +6.28586485826e-02
  +6.54484386426e-02
  +6.80561913777e-02
  +7.06802186457e-02
  +7.33189275870e-02
  +7.59708167076e-02
  +7.86344719406e-02
  +8.13085626964e-02
  +8.39918379439e-02
  +8.66831223251e-02
  +8.93813124563e-02
  +9.20853731292e-02
  +9.47943338017e-02
  +9.75072851268e-02
  +1.00223375624e-01
  +1.02941808481e-01
  +1.05661838496e-01
  +1.08382769212e-01
  +1.11103949862e-01
  +1.13824773120e-01
  +1.16544672304e-01
  +1.19263119048e-01
  +1.21979621034e-01
  +1.24693719843e-01
  +1.27404988921e-01
</dep>
<dep Ib Vbe>
  +1.26550345573e-15
  +1.45781497126e-15
  +1.67662907024e-15
  +1.92626104840e-15
  +2.20976346351e-15
  +2.53523841983e-15
  +2.90926812355e-15
  +3.33603862038e-15
  +3.82018838789e-15
  +4.37834741453e-15
  +5.01547666023e-15
  +5.74326376195e-15
  +6.58015462970e-15
  +7.53726076237e-15
  +8.62961927590e-15
  +9.88940128473e-15
  +1.13310008583e-14
  +1.29813952970e-14
  +1.48784762900e-14
  +1.70574257129e-14
  +1.95618245982e-14
  +2.24442501335e-14
  +2.57540880803e-14
  +2.95698938564e-14
  +3.39614676941e-14
  +3.90255289778e-14
  +4.48664699487e-14
  +5.16104296825e-14
  +5.93975292450e-14
  +6.84024984898e-14
  +7.88176385249e-14
  +9.08763440874e-14
  +1.04856789978e-13
  +1.21068462064e-13
  +1.39884686070e-13
  +1.61756190765e-13
  +1.87184275192e-13
  +2.16787067870e-13
  +2.51289082555e-13
  +2.91516649450e-13
  +3.38493184241e-13
  +3.93392129818e-13
  +4.57620990678e-13
  +5.32838116290e-13
  +6.21011555387e-13
  +7.24487347107e-13
  +8.46044288619e-13
  +9.88988054147e-13
  +1.15725301264e-12
  +1.35553540689e-12
  +1.58943615721e-12
  +1.86562665803e-12
  +2.19207840996e-12
  +2.57832374284e-12
  +3.03576150293e-12
  +3.57805943205e-12
  +4.22154124235e-12
  +4.98581148713e-12
  +5.89438454274e-12
  +6.97543763419e-12
  +8.26284785956e-12
  +9.79730729731e-12
  +1.16277136848e-11
  +1.38128849144e-11
  +1.64236008478e-11
  +1.95450441039e-11
  +2.32798271900e-11
  +2.77515655825e-11
  +3.31092731877e-11
  +3.95325706260e-11
  +4.72381930685e-11
  +5.64875862410e-11
  +6.75963370804e-11
  +8.09454836136e-11
  +9.69951593796e-11
  +1.16301271458e-10
  +1.39535507634e-10
  +1.67509741192e-10
  +2.01205386101e-10
  +2.41809171605e-10
  +2.90756381253e-10
  +3.49783223844e-10
  +4.20990250652e-10
  +5.06919348289e-10
  +6.10646919653e-10
  +7.35896889661e-10
  +8.87177528994e-10
  +1.06994756441e-09
  +1.29081724126e-09
  +1.55779229834e-09
  +1.88056961613e-09
  +2.27089573910e-09
  +2.74300141455e-09
  +3.31412864792e-09
  +4.00516963915e-09
  +4.84144157537e-09
  +5.85362620887e-09
  +7.07890893393e-09
  +8.56236043722e-09
  +1.03586118206e-08
  +1.25338860281e-08
  +1.51684611910e-08
  +1.83596576747e-08
  +2.22254600393e-08
  +2.69089086144e-08
  +3.25834242828e-08
  +3.94592635915e-08
  +4.77913441407e-08
  +5.78887292916e-08
  +7.01261229217e-08
  +8.49577967408e-08
  +1.02934461683e-07
  +1.24723699218e-07
  +1.51134695323e-07
  +1.83148169414e-07
  +2.21952570818e-07
  +2.68987825958e-07
  +3.25998169914e-07
  +3.95095886788e-07
  +4.78838121534e-07
  +5.80319310949e-07
  +7.03282218172e-07
  +8.52251033570e-07
  +1.03269052073e-06
  +1.25119571348e-06
  +1.51571717904e-06
  +1.83582729437e-06
  +2.22303325903e-06
  +2.69114257267e-06
  +3.25668628298e-06
  +3.93940426398e-06
  +4.76279488008e-06
  +5.75472837175e-06
  +6.94811893961e-06
  +8.38164466340e-06
  +1.01004971342e-05
  +1.21571343920e-05
  +1.46120022733e-05
  +1.75341819311e-05
  +2.10019168399e-05
  +2.51029729109e-05
  +2.99347918482e-05
