<Qucs Dataset 0.0.18>
<indep acfrequency 201>
  +1.00000000000e+00
  +1.04712854805e+00
  +1.09647819614e+00
  +1.14815362150e+00
  +1.20226443462e+00
  +1.25892541179e+00
  +1.31825673856e+00
  +1.38038426460e+00
  +1.44543977075e+00
  +1.51356124844e+00
  +1.58489319246e+00
  +1.65958690744e+00
  +1.73780082875e+00
  +1.81970085861e+00
  +1.90546071796e+00
  +1.99526231497e+00
  +2.08929613085e+00
  +2.18776162395e+00
  +2.29086765277e+00
  +2.39883291902e+00
  +2.51188643151e+00
  +2.63026799190e+00
  +2.75422870334e+00
  +2.88403150313e+00
  +3.01995172040e+00
  +3.16227766017e+00
  +3.31131121483e+00
  +3.46736850453e+00
  +3.63078054770e+00
  +3.80189396321e+00
  +3.98107170553e+00
  +4.16869383470e+00
  +4.36515832240e+00
  +4.57088189615e+00
  +4.78630092323e+00
  +5.01187233627e+00
  +5.24807460250e+00
  +5.49540873858e+00
  +5.75439937337e+00
  +6.02559586074e+00
  +6.30957344480e+00
  +6.60693448008e+00
  +6.91830970919e+00
  +7.24435960075e+00
  +7.58577575029e+00
  +7.94328234724e+00
  +8.31763771103e+00
  +8.70963589956e+00
  +9.12010839356e+00
  +9.54992586021e+00
  +1.00000000000e+01
  +1.04712854805e+01
  +1.09647819614e+01
  +1.14815362150e+01
  +1.20226443462e+01
  +1.25892541179e+01
  +1.31825673856e+01
  +1.38038426460e+01
  +1.44543977075e+01
  +1.51356124844e+01
  +1.58489319246e+01
  +1.65958690744e+01
  +1.73780082875e+01
  +1.81970085861e+01
  +1.90546071796e+01
  +1.99526231497e+01
  +2.08929613085e+01
  +2.18776162395e+01
  +2.29086765277e+01
  +2.39883291902e+01
  +2.51188643151e+01
  +2.63026799190e+01
  +2.75422870334e+01
  +2.88403150313e+01
  +3.01995172040e+01
  +3.16227766017e+01
  +3.31131121483e+01
  +3.46736850453e+01
  +3.63078054770e+01
  +3.80189396321e+01
  +3.98107170553e+01
  +4.16869383470e+01
  +4.36515832240e+01
  +4.57088189615e+01
  +4.78630092323e+01
  +5.01187233627e+01
  +5.24807460250e+01
  +5.49540873858e+01
  +5.75439937337e+01
  +6.02559586074e+01
  +6.30957344480e+01
  +6.60693448008e+01
  +6.91830970919e+01
  +7.24435960075e+01
  +7.58577575029e+01
  +7.94328234724e+01
  +8.31763771103e+01
  +8.70963589956e+01
  +9.12010839356e+01
  +9.54992586021e+01
  +1.00000000000e+02
  +1.04712854805e+02
  +1.09647819614e+02
  +1.14815362150e+02
  +1.20226443462e+02
  +1.25892541179e+02
  +1.31825673856e+02
  +1.38038426460e+02
  +1.44543977075e+02
  +1.51356124844e+02
  +1.58489319246e+02
  +1.65958690744e+02
  +1.73780082875e+02
  +1.81970085861e+02
  +1.90546071796e+02
  +1.99526231497e+02
  +2.08929613085e+02
  +2.18776162395e+02
  +2.29086765277e+02
  +2.39883291902e+02
  +2.51188643151e+02
  +2.63026799190e+02
  +2.75422870334e+02
  +2.88403150313e+02
  +3.01995172040e+02
  +3.16227766017e+02
  +3.31131121483e+02
  +3.46736850453e+02
  +3.63078054770e+02
  +3.80189396321e+02
  +3.98107170553e+02
  +4.16869383470e+02
  +4.36515832240e+02
  +4.57088189615e+02
  +4.78630092323e+02
  +5.01187233627e+02
  +5.24807460250e+02
  +5.49540873858e+02
  +5.75439937337e+02
  +6.02559586074e+02
  +6.30957344480e+02
  +6.60693448008e+02
  +6.91830970919e+02
  +7.24435960075e+02
  +7.58577575029e+02
  +7.94328234724e+02
  +8.31763771103e+02
  +8.70963589956e+02
  +9.12010839356e+02
  +9.54992586021e+02
  +1.00000000000e+03
  +1.04712854805e+03
  +1.09647819614e+03
  +1.14815362150e+03
  +1.20226443462e+03
  +1.25892541179e+03
  +1.31825673856e+03
  +1.38038426460e+03
  +1.44543977075e+03
  +1.51356124844e+03
  +1.58489319246e+03
  +1.65958690744e+03
  +1.73780082875e+03
  +1.81970085861e+03
  +1.90546071796e+03
  +1.99526231497e+03
  +2.08929613085e+03
  +2.18776162395e+03
  +2.29086765277e+03
  +2.39883291902e+03
  +2.51188643151e+03
  +2.63026799190e+03
  +2.75422870334e+03
  +2.88403150313e+03
  +3.01995172040e+03
  +3.16227766017e+03
  +3.31131121483e+03
  +3.46736850453e+03
  +3.63078054770e+03
  +3.80189396321e+03
  +3.98107170553e+03
  +4.16869383470e+03
  +4.36515832240e+03
  +4.57088189615e+03
  +4.78630092323e+03
  +5.01187233627e+03
  +5.24807460250e+03
  +5.49540873858e+03
  +5.75439937337e+03
  +6.02559586074e+03
  +6.30957344480e+03
  +6.60693448008e+03
  +6.91830970919e+03
  +7.24435960075e+03
  +7.58577575029e+03
  +7.94328234724e+03
  +8.31763771103e+03
  +8.70963589956e+03
  +9.12010839356e+03
  +9.54992586021e+03
  +1.00000000000e+04
</indep>
<dep Phase acfrequency>
  -2.55386297304e-01
  -2.67422362642e-01
  -2.80025682109e-01
  -2.93222991323e-01
  -3.07042286173e-01
  -3.21512882254e-01
  -3.36665477103e-01
  -3.52532215380e-01
  -3.69146757131e-01
  -3.86544349267e-01
  -4.04761900433e-01
  -4.23838059405e-01
  -4.43813297210e-01
  -4.64729993112e-01
  -4.86632524686e-01
  -5.09567362147e-01
  -5.33583167145e-01
  -5.58730896252e-01
  -5.85063909346e-01
  -6.12638083147e-01
  -6.41511930131e-01
  -6.71746723105e-01
  -7.03406625701e-01
  -7.36558829079e-01
  -7.71273695140e-01
  -8.07624906568e-01
  -8.45689624038e-01
  -8.85548650933e-01
  -9.27286605938e-01
  -9.70992103916e-01
  -1.01675794546e+00
  -1.06468131554e+00
  -1.11486399179e+00
  -1.16741256271e+00
  -1.22243865660e+00
  -1.28005918145e+00
  -1.34039657657e+00
  -1.40357907648e+00
  -1.46974098769e+00
  -1.53902297911e+00
  -1.61157238671e+00
  -1.68754353333e+00
  -1.76709806430e+00
  -1.85040529990e+00
  -1.93764260549e+00
  -2.02899578030e+00
  -2.12465946600e+00
  -2.22483757616e+00
  -2.32974374786e+00
  -2.43960181667e+00
  -2.55464631660e+00
  -2.67512300635e+00
  -2.80128942371e+00
  -2.93341546984e+00
  -3.07178402527e+00
  -3.21669160007e+00
  -3.36844902011e+00
  -3.52738215232e+00
  -3.69383267153e+00
  -3.86815887198e+00
  -4.05073652692e+00
  -4.24195979996e+00
  -4.44224221229e+00
  -4.65201767024e+00
  -4.87174155828e+00
  -5.10189190294e+00
  -5.34297061389e+00
  -5.59550480904e+00
  -5.86004823135e+00
  -6.13718276594e+00
  -6.42752006708e+00
  -6.73170330573e+00
  -7.05040904982e+00
  -7.38434929064e+00
  -7.73427363040e+00
  -8.10097164826e+00
  -8.48527546359e+00
  -8.88806251825e+00
  -9.31025860174e+00
  -9.75284114665e+00
  -1.02168428246e+01
  -1.07033554773e+01
  -1.12135344201e+01
  -1.17486031632e+01
  -1.23098585956e+01
  -1.28986766877e+01
  -1.35165187722e+01
  -1.41649384677e+01
  -1.48455893200e+01
  -1.55602332409e+01
  -1.63107498304e+01
  -1.70991466799e+01
  -1.79275707541e+01
  -1.87983209595e+01
  -1.97138620082e+01
  -2.06768396853e+01
  -2.16900976242e+01
  -2.27566956786e+01
  -2.38799299616e+01
  -2.50633545788e+01
  -2.63108050294e+01
  -2.76264231610e+01
  -2.90146834422e+01
  -3.04804201456e+01
  -3.20288547998e+01
  -3.36656229452e+01
  -3.53967988122e+01
  -3.72289159782e+01
  -3.91689813580e+01
  -4.12244789908e+01
  -4.34033590131e+01
  -4.57140059559e+01
  -4.81651791311e+01
  -5.07659165090e+01
  -5.35253923764e+01
  -5.64527185970e+01
  -5.95566800920e+01
  -6.28453980255e+01
  -6.63259201623e+01
  -7.00037479714e+01
  -7.38823250320e+01
  -7.79625309809e+01
  -8.22422478987e+01
  -8.67160877344e+01
  -9.13753839709e+01
  -9.62085510130e+01
  -1.01201895042e+02
  -1.06340919789e+02
  -1.11612117405e+02
  -1.17005184277e+02
  -1.22515574313e+02
  -1.28147314996e+02
  -1.33916070998e+02
  -1.39852538630e+02
  -1.46006368332e+02
  -1.52450896676e+02
  -1.59288931595e+02
  -1.66659461975e+02
  -1.74743963610e+02
  +1.76232062634e+02
  +1.66013034875e+02
  +1.54362841668e+02
  +1.41171723133e+02
  +1.26601447554e+02
  +1.11142107806e+02
  +9.53996993130e+01
  +7.96260943421e+01
  +6.31726977737e+01
  +4.36493039800e+01
  +1.49371021258e+01
  -2.94076524038e+01
  -6.94308312633e+01
  -9.20647877620e+01
  -1.05332450200e+02
  -1.14250043901e+02
  -1.20866887348e+02
  -1.26101625215e+02
  -1.30422739766e+02
  -1.34096156528e+02
  -1.37285972011e+02
  -1.40100237532e+02
  -1.42613824321e+02
  -1.44880767505e+02
  -1.46941373298e+02
  -1.48826536159e+02
  -1.50560481635e+02
  -1.52162576418e+02
  -1.53648562127e+02
  -1.55031420002e+02
  -1.56321991698e+02
  -1.57529434447e+02
  -1.58661560986e+02
  -1.59725097629e+02
  -1.60725883044e+02
  -1.61669023379e+02
  -1.62559014749e+02
  -1.63399840981e+02
  -1.64195052374e+02
  -1.64947829727e+02
  -1.65661036809e+02
  -1.66337263684e+02
  -1.66978862733e+02
  -1.67587978801e+02
  -1.68166574570e+02
  -1.68716452050e+02
  -1.69239270861e+02
  -1.69736563886e+02
  -1.70209750711e+02
  -1.70660149245e+02
  -1.71088985788e+02
  -1.71497403809e+02
  -1.71886471609e+02
  -1.72257189066e+02
  -1.72610493563e+02
  -1.72947265242e+02
  -1.73268331665e+02
  -1.73574471961e+02
  -1.73866420541e+02
  -1.74144870423e+02
  -1.74410476224e+02
  -1.74663856865e+02
</dep>
<dep Ampl acfrequency>
  +6.12846116496e-06
  +9.23369257311e-06
  +1.26385056119e-05
  +1.63718022877e-05
  +2.04652727636e-05
  +2.49536643532e-05
  +2.98750764212e-05
  +3.52712836631e-05
  +4.11880906986e-05
  +4.76757206869e-05
  +5.47892415711e-05
  +6.25890333499e-05
  +7.11413003714e-05
  +8.05186330944e-05
  +9.08006239478e-05
  +1.02074542608e-04
  +1.14436076326e-04
  +1.27990141596e-04
  +1.42851774158e-04
  +1.59147104590e-04
  +1.77014428088e-04
  +1.96605377150e-04
  +2.18086207328e-04
  +2.41639206780e-04
  +2.67464241602e-04
  +2.95780449806e-04
  +3.26828098598e-04
  +3.60870620151e-04
  +3.98196843487e-04
  +4.39123440858e-04
  +4.83997609535e-04
  +5.33200011298e-04
  +5.87147994513e-04
  +6.46299125675e-04
  +7.11155060108e-04
  +7.82265784156e-04
  +8.60234264397e-04
  +9.45721542551e-04
  +1.03945231869e-03
  +1.14222106903e-03
  +1.25489874915e-03
  +1.37844013816e-03
  +1.51389188441e-03
  +1.66240131906e-03
  +1.82522610992e-03
  +2.00374483452e-03
  +2.19946855868e-03
  +2.41405351470e-03
  +2.64931498153e-03
  +2.90724247886e-03
  +3.19001639651e-03
  +3.50002619175e-03
  +3.83989029791e-03
  +4.21247790102e-03
  +4.62093275349e-03
  +5.06869920878e-03
  +5.55955067553e-03
  +6.09762070604e-03
  +6.68743695078e-03
  +7.33395822824e-03
  +8.04261497822e-03
  +8.81935338581e-03
  +9.67068348296e-03
  +1.06037315548e-02
  +1.16262971974e-02
  +1.27469153939e-02
  +1.39749239941e-02
  +1.53205369991e-02
  +1.67949240681e-02
  +1.84102966750e-02
  +2.01800013474e-02
  +2.21186204206e-02
  +2.42420807302e-02
  +2.65677706436e-02
  +2.91146657974e-02
  +3.19034638499e-02
  +3.49567284812e-02
  +3.82990427623e-02
  +4.19571718700e-02
  +4.59602349271e-02
  +5.03398854969e-02
  +5.51304999352e-02
  +6.03693723852e-02
  +6.60969146788e-02
  +7.23568587416e-02
  +7.91964582719e-02
  +8.66666854309e-02
  +9.48224169946e-02
  +1.03722602834e-01
  +1.13430407630e-01
  +1.24013314317e-01
  +1.35543174807e-01
  +1.48096189935e-01
  +1.61752796165e-01
  +1.76597431299e-01
  +1.92718144964e-01
  +2.10206011930e-01
  +2.29154297091e-01
  +2.49657309952e-01
  +2.71808873612e-01
  +2.95700318300e-01
  +3.21417892457e-01
  +3.49039465305e-01
  +3.78630374233e-01
  +4.10238249083e-01
  +4.43886625139e-01
  +4.79567140265e-01
  +5.17230103485e-01
  +5.56773229328e-01
  +5.98028364353e-01
  +6.40746103680e-01
  +6.84578325386e-01
  +7.29058884288e-01
  +7.73583034418e-01
  +8.17386624726e-01
  +8.59526765577e-01
  +8.98866510152e-01
  +9.34067116535e-01
  +9.63592573018e-01
  +9.85732106011e-01
  +9.98647048822e-01
  +1.00044830649e+00
  +9.89309211618e-01
  +9.63615403879e-01
  +9.22148360760e-01
  +8.64292814446e-01
  +7.90251701512e-01
  +7.01247307713e-01
  +5.99685735090e-01
  +4.89264739663e-01
  +3.75011685537e-01
  +2.63246128822e-01
  +1.61466009988e-01
  +7.81522761850e-02
  +2.24680139188e-02
  +3.78747292484e-03
  +3.09173428242e-02
  +1.10754514025e-01
  +2.45959613787e-01
  +4.31082835811e-01
  +6.46780108161e-01
  +8.53242030633e-01
  +9.88273984647e-01
  +9.81729339350e-01
  +7.95148932475e-01
  +4.69480080757e-01
  +1.41572511831e-01
  +1.93418116284e-02
  +3.22603649882e-01
  +9.58568068630e-01
  -2.95300199823e-02
  -4.71233053907e+00
  -1.02706227495e+01
  -1.53085547552e+01
  -1.98081044024e+01
  -2.39038179543e+01
  -2.77012723797e+01
  -3.12729777541e+01
  -3.46690165634e+01
  -3.79250053407e+01
  -4.10670743883e+01
  -4.41149418698e+01
  -4.70838535033e+01
  -4.99858437072e+01
  -5.28305808459e+01
  -5.56259500155e+01
  -5.83784653252e+01
  -6.10935683473e+01
  -6.37758486508e+01
  -6.64292097788e+01
  -6.90569962351e+01
  -7.16620920839e+01
  -7.42469985317e+01
  -7.68138957117e+01
  -7.93646924258e+01
  -8.19010665931e+01
  -8.44244984389e+01
  -8.69362979567e+01
  -8.94376278039e+01
  -9.19295225255e+01
  -9.44129047996e+01
  -9.68885992477e+01
  -9.93573442397e+01
  -1.01819802037e+02
  -1.04276567549e+02
  -1.06728175921e+02
  -1.09175109144e+02
  -1.11617801829e+02
  -1.14056646265e+02
  -1.16491996876e+02
  -1.18924174143e+02
  -1.21353468079e+02
  -1.23780141313e+02
  -1.26204431819e+02
  -1.28626555364e+02
  -1.31046707676e+02
  -1.33465066395e+02
  -1.35881792811e+02
  -1.38297033428e+02
  -1.40710921367e+02
  -1.43123577631e+02
</dep>
<dep V1.i acfrequency>
  +1.09442626497e-10-j1.86110280117e-07
  +1.20000798279e-10-j1.94881579373e-07
  +1.31577470897e-10-j2.04066285669e-07
  +1.44270880642e-10-j2.13683886492e-07
  +1.58188736036e-10-j2.23754788372e-07
  +1.73449130655e-10-j2.34300360283e-07
  +1.90181543677e-10-j2.45342979112e-07
  +2.08527936726e-10-j2.56906077281e-07
  +2.28643956334e-10-j2.69014192634e-07
  +2.50700251953e-10-j2.81693020692e-07
  +2.74883920557e-10-j2.94969469399e-07
  +3.01400090134e-10-j3.08871716472e-07
  +3.30473655535e-10-j3.23429269492e-07
  +3.62351180514e-10-j3.38673028849e-07
  +3.97302982627e-10-j3.54635353711e-07
  +4.35625417954e-10-j3.71350131141e-07
  +4.77643385225e-10-j3.88852848523e-07
  +5.23713069182e-10-j4.07180669474e-07
  +5.74224947146e-10-j4.26372513394e-07
  +6.29607083090e-10-j4.46469138858e-07
  +6.90328736435e-10-j4.67513231024e-07
  +7.56904315673e-10-j4.89549493278e-07
  +8.29897709053e-10-j5.12624743312e-07
  +9.09927028216e-10-j5.36788013886e-07
  +9.97669803189e-10-j5.62090658492e-07
  +1.09386867108e-09-j5.88586462197e-07
  +1.19933760542e-09-j6.16331757917e-07
  +1.31496873495e-09-j6.45385548426e-07
  +1.44173980835e-09-j6.75809634401e-07
  +1.58072236309e-09-j7.07668748829e-07
  +1.73309066467e-09-j7.41030698123e-07
  +1.90013148527e-09-j7.75966510324e-07
  +2.08325479995e-09-j8.12550590783e-07
  +2.28400548201e-09-j8.50860885754e-07
  +2.50407608849e-09-j8.90979054345e-07
  +2.74532083293e-09-j9.32990649328e-07
  +3.00977084992e-09-j9.76985307336e-07
  +3.29965086561e-09-j1.02305694901e-06
  +3.61739739592e-09-j1.07130398970e-06
  +3.96567860339e-09-j1.12182956146e-06
  +4.34741595306e-09-j1.17474174690e-06
  +4.76580781776e-09-j1.23015382588e-06
  +5.22435519192e-09-j1.28818453577e-06
  +5.72688968351e-09-j1.34895834618e-06
  +6.27760396281e-09-j1.41260574934e-06
  +6.88108485570e-09-j1.47926356706e-06
  +7.54234927704e-09-j1.54907527565e-06
  +8.26688320693e-09-j1.62219134999e-06
  +9.06068391751e-09-j1.69876962844e-06
  +9.93030566023e-09-j1.77897570001e-06
  +1.08829090239e-08-j1.86298331579e-06
  +1.19263141674e-08-j1.95097482650e-06
  +1.30690581216e-08-j2.04314164855e-06
  +1.43204563364e-08-j2.13968476095e-06
  +1.56906686220e-08-j2.24081523597e-06
  +1.71907695969e-08-j2.34675480651e-06
  +1.88328236969e-08-j2.45773647383e-06
  +2.06299647365e-08-j2.57400515928e-06
  +2.25964799121e-08-j2.69581840460e-06
  +2.47478980217e-08-j2.82344712550e-06
  +2.71010815158e-08-j2.95717642411e-06
  +2.96743217983e-08-j3.09730646643e-06
  +3.24874369456e-08-j3.24415343169e-06
  +3.55618706976e-08-j3.39805054158e-06
  +3.89207911823e-08-j3.55934917801e-06
  +4.25891873487e-08-j3.72842009951e-06
  +4.65939604767e-08-j3.90565476749e-06
  +5.09640073862e-08-j4.09146679508e-06
  +5.57302910476e-08-j4.28629353296e-06
  +6.09258931622e-08-j4.49059780833e-06
  +6.65860418918e-08-j4.70486983556e-06
  +7.27481062147e-08-j4.92962931912e-06
  +7.94515463000e-08-j5.16542777230e-06
  +8.67378067482e-08-j5.41285107811e-06
  +9.46501364351e-08-j5.67252232235e-06
  +1.03233314908e-07-j5.94510493222e-06
  +1.12533260659e-07-j6.23130615856e-06
  +1.22596490987e-07-j6.53188094407e-06
  +1.33469396293e-07-j6.84763622513e-06
  +1.45197283346e-07-j7.17943572063e-06
  +1.57823131936e-07-j7.52820526703e-06
  +1.71385997009e-07-j7.89493876575e-06
  +1.85918973479e-07-j8.28070481569e-06
  +2.01446622750e-07-j8.68665411100e-06
  +2.17981738027e-07-j9.11402769160e-06
  +2.35521298810e-07-j9.56416614060e-06
  +2.54041432712e-07-j1.00385198298e-05
  +2.73491163641e-07-j1.05386603189e-05
  +2.93784678230e-07-j1.10662930171e-05
  +3.14791785390e-07-j1.16232712164e-05
  +3.36326175313e-07-j1.22116115973e-05
  +3.58131001863e-07-j1.28335112986e-05
  +3.79861213663e-07-j1.34913666147e-05
  +4.01061941655e-07-j1.41877933487e-05
  +4.21142111489e-07-j1.49256487861e-05
  +4.39342285027e-07-j1.57080551663e-05
  +4.54695543826e-07-j1.65384244012e-05
  +4.65980007035e-07-j1.74204836063e-05
  +4.71661326418e-07-j1.83583007578e-05
  +4.69823225164e-07-j1.93563094370e-05
  +4.58083852370e-07-j2.04193311530e-05
  +4.33495427362e-07-j2.15525930903e-05
  +3.92424375314e-07-j2.27617382805e-05
  +3.30408954632e-07-j2.40528240761e-05
  +2.41991321485e-07-j2.54323033517e-05
  +1.20521181498e-07-j2.69069810018e-05
  -4.20711880221e-08-j2.84839359764e-05
  -2.55533456133e-07-j3.01703962588e-05
  -5.31579889418e-07-j3.19735508484e-05
  -8.84204943357e-07-j3.39002790726e-05
  -1.33001076731e-06-j3.59567737245e-05
  -1.88852902844e-06-j3.81480311803e-05
  -2.58250544049e-06-j4.04771798597e-05
  -3.43809934177e-06-j4.29446198207e-05
  -4.48493051891e-06-j4.55469534634e-05
  -5.75588219109e-06-j4.82757036375e-05
  -7.28654552328e-06-j5.11158450479e-05
  -9.11417304141e-06-j5.40442217532e-05
  -1.12760056089e-05-j5.70279900887e-05
  -1.38068640570e-05-j6.00233101449e-05
  -1.67359684534e-05-j6.29745990510e-05
  -2.00830790640e-05-j6.58147321565e-05
  -2.38542451772e-05-j6.84665964289e-05
  -2.80376788563e-05-j7.08463184845e-05
  -3.26004841596e-05-j7.28682704943e-05
  -3.74870805970e-05-j7.44515984361e-05
  -4.26200676219e-05-j7.55275779124e-05
  -4.79039298799e-05-j7.60467102154e-05
  -5.32314170853e-05-j7.59842879466e-05
  -5.84917950570e-05-j7.53433106068e-05
  -6.35796720743e-05-j7.41541258431e-05
  -6.84029466477e-05-j7.24708744919e-05
  -7.28886629714e-05-j7.03654935511e-05
  -7.69861021479e-05-j6.79204597316e-05
  -8.06670763849e-05-j6.52215302607e-05
  -8.39239212808e-05-j6.23514964973e-05
  -8.67659732620e-05-j5.93855500865e-05
  -8.92153616571e-05-j5.63884307484e-05
  -9.13028058811e-05-j5.34131932573e-05
  -9.30638845147e-05-j5.05012431195e-05
  -9.45360169557e-05-j4.76832336859e-05
  -9.57562183833e-05-j4.49804510243e-05
  -9.67595710658e-05-j4.24063921088e-05
  -9.75782942070e-05-j3.99683321479e-05
  -9.82412756518e-05-j3.76687575561e-05
  -9.87739357763e-05-j3.55066033996e-05
  -9.91983137430e-05-j3.34782770692e-05
  -9.95332901617e-05-j3.15784763331e-05
  -9.97948829721e-05-j2.98008239726e-05
  -9.99965726682e-05-j2.81383468918e-05
  -1.00149628141e-04-j2.65838281630e-05
  -1.00263415639e-04-j2.51300582225e-05
  -1.00345681266e-04-j2.37700079217e-05
  -1.00402802789e-04-j2.24969422859e-05
  -1.00440009947e-04-j2.13044901705e-05
  -1.00461574516e-04-j2.01866817569e-05
  -1.00470972537e-04-j1.91379631103e-05
  -1.00471021629e-04-j1.81531947958e-05
  -1.00463996443e-04-j1.72276397861e-05
  -1.00451725219e-04-j1.63569445174e-05
  -1.00435670210e-04-j1.55371158942e-05
  -1.00416994407e-04-j1.47644962407e-05
  -1.00396616758e-04-j1.40357375975e-05
  -1.00375257728e-04-j1.33477763157e-05
  -1.00353476828e-04-j1.26978085755e-05
  -1.00331703441e-04-j1.20832672178e-05
  -1.00310262117e-04-j1.15018001099e-05
  -1.00289393279e-04-j1.09512501451e-05
  -1.00269270142e-04-j1.04296368971e-05
  -1.00250012518e-04-j9.93513988978e-06
  -1.00231698045e-04-j9.46608341438e-06
  -1.00214371317e-04-j9.02092279767e-06
  -1.00198051274e-04-j8.59823201900e-06
  -1.00182737170e-04-j8.19669256635e-06
  -1.00168413389e-04-j7.81508342334e-06
  -1.00155053300e-04-j7.45227208211e-06
  -1.00142622335e-04-j7.10720648254e-06
  -1.00131080447e-04-j6.77890778491e-06
  -1.00120384037e-04-j6.46646389004e-06
