<Qucs Dataset 0.0.20>
<indep acfrequency 100>
  +1.00000000000000005551e-01
  +1.17681195243499847614e-01
  +1.38488637139387305020e-01
  +1.62975083462064435080e-01
  +1.91791026167248856993e-01
  +2.25701971963392034048e-01
  +2.65608778294668668174e-01
  +3.12571584968823645845e-01
  +3.67837977182863429260e-01
  +4.32876128108305946451e-01
  +5.09413801481638062185e-01
  +5.99484250318941036539e-01
  +7.05480231071864416492e-01
  +8.30217568131974559265e-01
  +9.77009957299225351157e-01
  +1.14975699539773601465e+00
  +1.35304777457980751620e+00
  +1.59228279334109301679e+00
  +1.87381742286038477374e+00
  +2.20513073990304686589e+00
  +2.59502421139973726838e+00
  +3.05385550883341583273e+00
  +3.59381366380462807797e+00
  +4.22924287438949964013e+00
  +4.97702356433211257070e+00
  +5.85702081805666630032e+00
  +6.89261210434969839866e+00
  +8.11130830789687173876e+00
  +9.54548456661834165971e+00
  +1.12332403297802780884e+01
  +1.32194114846602968072e+01
  +1.55567614393047257693e+01
  +1.83073828029536933570e+01
  +2.15443469003188496913e+01
  +2.53536449397011338647e+01
  +2.98364724028334080685e+01
  +3.51119173421513366407e+01
  +4.13201240011534025598e+01
  +4.86260158006535831987e+01
  +5.72236765935022333451e+01
  +6.73415065775082837263e+01
  +7.92482898353917448730e+01
  +9.32603346883220183372e+01
  +1.09749876549305653839e+02
  +1.29154966501488445374e+02
  +1.51991108295293429364e+02
  +1.78864952905743592737e+02
  +2.10490414451202155988e+02
  +2.47707635599171283047e+02
  +2.91505306282517892669e+02
  +3.43046928631491823580e+02
  +4.03701725859655880413e+02
  +4.75081016210279756251e+02
  +5.59081018251222985782e+02
  +6.57933224657568189286e+02
  +7.74263682681127988872e+02
  +9.11162756115489628428e+02
  +1.07226722201032475823e+03
  +1.26185688306602105513e+03
  +1.48496826225446716307e+03
  +1.74752840000768492246e+03
  +2.05651230834865464203e+03
  +2.42012826479438399474e+03
  +2.84803586843580660570e+03
  +3.35160265093884527232e+03
  +3.94420605943765576740e+03
  +4.64158883361278367374e+03
  +5.46227721768434275873e+03
  +6.42807311728432887321e+03
  +7.56463327554629086080e+03
  +8.90215085445039767365e+03
  +1.04761575278966538463e+04
  +1.23284673944206806482e+04
  +1.45082877849594060535e+04
  +1.70735264747069340956e+04
  +2.00923300256504880963e+04
  +2.36448941264541172131e+04
  +2.78255940220712691371e+04
  +3.27454916287773485237e+04
  +3.85352859371053345967e+04
  +4.53487850812859105645e+04
  +5.33669923120631647180e+04
  +6.28029144183425523806e+04
  +7.39072203352578799240e+04
  +8.69749002617783844471e+04
  +1.02353102189902769169e+05
  +1.20450354025878303219e+05
  +1.41747416292680747574e+05
  +1.66810053720006020740e+05
  +1.96304065004027448595e+05
  +2.31012970008316187887e+05
  +2.71858824273294594605e+05
  +3.19926713779738696758e+05
  +3.76493580679247621447e+05
  +4.43062145758388563991e+05
  +5.21400828799969633110e+05
  +6.13590727341318153776e+05
  +7.22080901838546851650e+05
  +8.49753435908645624295e+05
  +1.00000000000000058208e+06
</indep>
<indep Vsw1 21>
  -5.00000000000000027756e-02
  -4.50000000000000052736e-02
  -4.00000000000000008327e-02
  -3.50000000000000033307e-02
  -3.00000000000000023592e-02
  -2.50000000000000013878e-02
  -2.00000000000000038858e-02
  -1.49999999999999994449e-02
  -1.00000000000000019429e-02
  -5.00000000000000444089e-03
  +0.00000000000000000000e+00
  +4.99999999999999750200e-03
  +9.99999999999999500400e-03
  +1.49999999999999994449e-02
  +2.00000000000000038858e-02
  +2.49999999999999944489e-02
  +2.99999999999999988898e-02
  +3.50000000000000033307e-02
  +3.99999999999999938938e-02
  +4.49999999999999983347e-02
  +5.00000000000000027756e-02
</indep>
<dep V1.i acfrequency>
  -2.87853181299898663791e-08-j6.12355542775428421979e-08
  -3.19706259909431089190e-08-j7.13989523221109738408e-08
  -3.62387907074135389734e-08-j8.29954444436232414333e-08
  -4.19048542065623284061e-08-j9.61020942719993980955e-08
  -4.93455113838279874331e-08-j1.10742210659502348222e-07
  -5.89986796053918360771e-08-j1.26859919569893490985e-07
  -7.13583020385335468707e-08-j1.44287960946271448309e-07
  -8.69597065325933909442e-08-j1.62705043161828050593e-07
  -1.06343564524679004065e-07-j1.81581085498423892358e-07
  -1.29979383700212188675e-07-j2.00119875610379026913e-07
  -1.58133277333643739690e-07-j2.17229642440023682003e-07
  -1.90690451635899705346e-07-j2.31571061075528166750e-07
  -2.26987869525010233143e-07-j2.41726415377266621859e-07
  -2.65750293615436733722e-07-j2.46485121638388842376e-07
  -3.05211509021405832097e-07-j2.45162229753908231368e-07
  -3.43422035149360030303e-07-j2.37812043112232642462e-07
  -3.78636700779181533128e-07-j2.25227792486466264960e-07
  -4.09624681687100975015e-07-j2.08726625045815724041e-07
  -4.35795028989251620071e-07-j1.89826750613279504235e-07
  -4.57136234125067723193e-07-j1.69952070245027839318e-07
  -4.74046212319585223243e-07-j1.50248099517187039739e-07
  -4.87141663349817199570e-07-j1.31519661738388680115e-07
  -4.97104018333812337470e-07-j1.14254921257889521542e-07
  -5.04580530206963076819e-07-j9.86909068534575299443e-08
  -5.10134373595228538144e-07-j8.48871477393245436524e-08
  -5.14228695182524268240e-07-j7.27897670053759134566e-08
  -5.17230133397644738347e-07-j6.22801192177812836708e-08
  -5.19421351730074961085e-07-j5.32084425352999387609e-08
  -5.21016250802383556142e-07-j4.54154844020376988103e-08
  -5.22174568462117800078e-07-j3.87454354886498234033e-08
  -5.23014472523183338839e-07-j3.30530064221626438282e-08
  -5.23622788787019420478e-07-j2.82067664034997026102e-08
  -5.24063004296065477757e-07-j2.40902130885282351728e-08
  -5.24381378551601735681e-07-j2.06015420052526872533e-08
  -5.24611533406321426394e-07-j1.76527291190674005038e-08
  -5.24777861180160401785e-07-j1.51683021790710708198e-08
  -5.24898035085242233453e-07-j1.30840226036120616474e-08
  -5.24984847973356621774e-07-j1.13456030276503304415e-08
  -5.25047553720221815674e-07-j9.90752651628952524995e-09
  -5.25092842955666760634e-07-j8.73199828990242377935e-09
  -5.25125551365737602587e-07-j7.78804064960430876773e-09
  -5.25149173098874716928e-07-j7.05073086534799461269e-09
  -5.25166232519400682866e-07-j6.50057646003062165989e-09
  -5.25178553179849328113e-07-j6.12302033180259595957e-09
  -5.25187452340058927637e-07-j5.90806812901831982608e-09
  -5.25193881579440630678e-07-j5.85003139594795768946e-09
  -5.25198528440929484282e-07-j5.94738176684065645965e-09
  -5.25201889891107924019e-07-j6.20271362427659115466e-09
  -5.25204325450335214403e-07-j6.62281502252173312917e-09
  -5.25206095617845259122e-07-j7.21884924707421907162e-09
  -5.25207389730195109267e-07-j8.00665213273525098524e-09
  -5.25208346207735106385e-07-j9.00715322440186617210e-09
  -5.25209067360867408507e-07-j1.02469320841509718719e-08
  -5.25209630325871849350e-07-j1.17589245963872841067e-08
  -5.25210095324042250903e-07-j1.35832980888427007000e-08
  -5.25210512094305240746e-07-j1.57685185525796868234e-08
  -5.25210925222422483876e-07-j1.83726383543787647826e-08
  -5.25211378903451428096e-07-j2.14648386990770654599e-08
  -5.25211921682238673431e-07-j2.51272678783718425004e-08
  -5.25212611639917904642e-07-j2.94572242510781768401e-08
  -5.25213522628701940265e-07-j3.45697421138573101604e-08
  -5.25214752186450912684e-07-j4.06006494042044579446e-08
  -5.25216432007224623476e-07-j4.77101789272461126094e-08
  -5.25218742111089830232e-07-j5.60872297287190557391e-08
  -5.25221930244945411722e-07-j6.59543929581881035894e-08
  -5.25226338661711670279e-07-j7.75738776401667699077e-08
  -5.25232441272712752023e-07-j9.12544967813703215772e-08
  -5.25240895374830794274e-07-j1.07359904411233224356e-07
  -5.25252613938520152809e-07-j1.26318310438154651659e-07
  -5.25268867078490636264e-07-j1.48633944574809781040e-07
  -5.25291425200498622859e-07-j1.74900595372151150501e-07
  -5.25322762367362591759e-07-j2.05817618859238150476e-07
  -5.25366347752776479714e-07-j2.42208898909920877748e-07
  -5.25427068134405301128e-07-j2.85045355213929936400e-07
  -5.25511849135026987018e-07-j3.35471746551277529858e-07
  -5.25630584804697158562e-07-j3.94838724030017455444e-07
  -5.25797557531655411813e-07-j4.64741378188408701917e-07
  -5.26033658000271091005e-07-j5.47065936397577058450e-07
  -5.26369944070665076668e-07-j6.44046866209741200133e-07
  -5.26853493978056610441e-07-j7.58337520531045880167e-07
  -5.27557273009427107520e-07-j8.93098760486129809352e-07
  -5.28597141525018457028e-07-j1.05211190299623804574e-06
  -5.30161734579769720854e-07-j1.23992510252141398060e-06
  -5.32565741789742834210e-07-j1.46204612517406788274e-06
  -5.36345904918658714744e-07-j1.72519945046844789867e-06
  -5.42434950751422333456e-07-j2.03767109179600836578e-06
  -5.52476847967264594330e-07-j2.40976787787490629976e-06
  -5.69395020421410369859e-07-j2.85441193261855536033e-06
  -5.98403155947676205696e-07-j3.38785811300685269588e-06
  -6.48761741613224175975e-07-j4.03042388667358857427e-06
  -7.36713571003263267934e-07-j4.80688350791154221235e-06
  -8.90079362642144096615e-07-j5.74568335975355289394e-06
  -1.15466482894493347331e-06-j6.87526953106790214581e-06
  -1.60127611996169336831e-06-j8.21472016125833834213e-06
  -2.32886007294044740008e-06-j9.75560909319674466667e-06
  -3.45422226275534456543e-06-j1.14355281903480229816e-05
  -5.07669284156878495499e-06-j1.31147260543581592484e-05
  -7.21854823828131263505e-06-j1.45824010033132140047e-05
  -9.77362238585212626276e-06-j1.56163507005807456851e-05
  -1.25160132231417809318e-05-j1.60769094992523048750e-05
</dep>
<dep V2.i acfrequency>
  +7.27096208974032727765e-07-j4.44221044498580763650e-07
  +9.52379420303105309799e-07-j6.51506949210670473315e-07
  +1.22302038898072251997e-06-j9.57249339639588288410e-07
  +1.52983197797884207975e-06-j1.39954316938464116038e-06
  +1.84825744949514885096e-06-j2.02226401022392522196e-06
  +2.13240774618927549170e-06-j2.86888349947586875915e-06
  +2.31169691456136627787e-06-j3.97179422350087655983e-06
  +2.29330355535681221183e-06-j5.33848013670540199737e-06
  +1.97267164976430169860e-06-j6.93822323611409610440e-06
  +1.25157846100404025818e-06-j8.69428269234793257413e-06
  +6.03150625061698636031e-08-j1.04856504782882041998e-05
  -1.62131918580740691658e-06-j1.21602045925307023383e-05
  -3.75017758590834077750e-06-j1.35584261047860189417e-05
  -6.21888878595626139564e-06-j1.45436701135606372229e-05
  -8.87149895906130383041e-06-j1.50310497363423323442e-05
  -1.15333558239801246137e-05-j1.50046622607247624628e-05
  -1.40456897186494000622e-05-j1.45159558587948652277e-05
  -1.62923637659648897684e-05-j1.36644522772707953671e-05
  -1.82107440070827729622e-05-j1.25700483282889160646e-05
  -1.97870656093935712251e-05-j1.13479213669381991217e-05
  -2.10427219357703262611e-05-j1.00927179235566267016e-05
  -2.20187593226648086614e-05-j8.87278491109311771325e-06
  -2.27632394244533691797e-05-j7.73154095338370530460e-06
  -2.33230028701506911519e-05-j6.69234789504572628903e-06
  -2.37393740473041818832e-05-j5.76416948797730552625e-06
  -2.40466194800087090030e-05-j4.94656776445064074962e-06
  -2.42720080016066445591e-05-j4.23353286130554329352e-06
  -2.44366357058435747045e-05-j3.61615937356633015100e-06
  -2.45565042243814557119e-05-j3.08438791800882530699e-06
  -2.46435827418199861389e-05-j2.62806621708744348847e-06
  -2.47067356475993998464e-05-j2.23754832073627673450e-06
  -2.47524814224161967538e-05-j1.90399644508994602944e-06
  -2.47855890944885228150e-05-j1.61950002380866393667e-06
  -2.48095350028746935848e-05-j1.37708783094501096346e-06
  -2.48268465192840990000e-05-j1.17068149556076267285e-06
  -2.48393576089069343738e-05-j9.95020179697234998119e-07
  -2.48483972513540244678e-05-j8.45574150141845129991e-07
  -2.48549275386250751450e-05-j7.18457373475610312430e-07
  -2.48596444645898588218e-05-j6.10344579530370035713e-07
  -2.48630512642972563073e-05-j5.18395419679537041165e-07
  -2.48655116643748232488e-05-j4.40186697167491033297e-07
  -2.48672884875062268810e-05-j3.73652717664178356435e-07
  -2.48685716080771246101e-05-j3.17033315316093037345e-07
  -2.48694981801897229247e-05-j2.68828875499087536747e-07
  -2.48701672657382888128e-05-j2.27761591251341142164e-07
  -2.48706504083841712120e-05-j1.92742189581156310044e-07
  -2.48709992747080688180e-05-j1.62841406825978844046e-07
  -2.48712511747628390560e-05-j1.37265555455624958354e-07
  -2.48714330498391042261e-05-j1.15335594753627809303e-07
  -2.48715643526493154335e-05-j9.64691871325673317662e-08
  -2.48716591272752068215e-05-j8.01652865868725036015e-08
  -2.48717275104133447503e-05-j6.59908640823716725260e-08
  -2.48717768177032377841e-05-j5.35694259779479322392e-08
  -2.48718123221638560364e-05-j4.25710257958040927147e-08
  -2.48718378221428764753e-05-j3.27035073104526807131e-08
  -2.48718560453233619733e-05-j2.37047483004847976660e-08
  -2.48718689404694335242e-05-j1.53357001474942767144e-08
  -2.48718778875963033399e-05-j7.37403910261781284043e-09
  -2.48718838432988821260e-05+j3.91739041676324367272e-10
  -2.48718874436916152347e-05+j8.16793753660369734632e-09
  -2.48718890758577344802e-05+j1.61611397819066680001e-08
  -2.48718889135517375228e-05+j2.45836986601147655540e-08
  -2.48718869380589158960e-05+j3.36593803016537500752e-08
  -2.48718829396120853727e-05+j4.36293128065792823279e-08
  -2.48718764880774765029e-05+j5.47583989584358727638e-08
  -2.48718668935836471152e-05+j6.73423650897009436128e-08
  -2.48718531266885118410e-05+j8.17156360839443450030e-08
  -2.48718337108706305733e-05+j9.82602503917569613883e-08
  -2.48718065612583399807e-05+j1.17416059335817593580e-07
  -2.48717687566392788370e-05+j1.39692493904638962599e-07
  -2.48717162227966395748e-05+j1.65682231551575498908e-07
  -2.48716432817028855202e-05+j1.96077158344217388237e-07
  -2.48715420175967627341e-05+j2.31687103276363747612e-07
  -2.48714013821059847236e-05+j2.73461927814362797552e-07
  -2.48712059159391625583e-05+j3.22517696356395424507e-07
  -2.48709339129602485948e-05+j3.80167847810118689715e-07
  -2.48705547514679554467e-05+j4.47960559578920085059e-07
  -2.48700249472239918037e-05+j5.27723882057728964674e-07
  -2.48692822254051403681e-05+j6.21620781252648015650e-07
  -2.48682364149912347334e-05+j7.32217047104351027706e-07
  -2.48667551420828353682e-05+j8.62566229678016740350e-07
  -2.48646407876906610970e-05+j1.01631752913054013270e-06
  -2.48615924803614992062e-05+j1.19785509448731578778e-06
  -2.48571419936770763822e-05+j1.41248067103367517612e-06
  -2.48505435850535946849e-05+j1.66665594613704964747e-06
  -2.48405820339934529310e-05+j1.96832553823373065282e-06
  -2.48252354149423722855e-05+j2.32734364076057126779e-06
  -2.48010821493636786350e-05+j2.75601952889280921502e-06
  -2.47622666034722608316e-05+j3.26976186499815649932e-06
  -2.46987295671445713195e-05+j3.88770119539639813646e-06
  -2.45932901557913613294e-05+j4.63293199152733120474e-06
  -2.44171348221221420167e-05+j5.53152686268073214302e-06
  -2.41236217667592059183e-05+j6.60863324934708989950e-06
  -2.36416786632678355747e-05+j7.87892232401993168980e-06
  -2.28733158434622978834e-05+j9.32849850377813094202e-06
  -2.17046676211971436080e-05+j1.08889870455839383399e-05
  -2.00416982151872017867e-05+j1.24154697460310057655e-05
  -1.78689745409934077659e-05+j1.36944579430953855808e-05
  -1.52987564552590769623e-05+j1.45043505616996662726e-05
  -1.25596852115353655160e-05+j1.47079994966850051928e-05
</dep>
<dep Pr1.i acfrequency>
  -7.27276469567596236214e-07+j4.48770254797343647982e-07
  -9.52583828172741027257e-07+j6.56951396200251080527e-07
  -1.22322437728930178677e-06+j9.63787925843663152459e-07
  -1.52998033982615094303e-06+j1.40741992554297356164e-06
  -1.84824409739589972953e-06+j2.03177058121804542291e-06
  -2.13204924200386902147e-06+j2.88035344467713389405e-06
  -2.31070281445543902985e-06+j3.98558396691120000614e-06
  -2.29125031403739730571e-06+j5.35493256015515073051e-06
  -1.96898994812396081118e-06+j6.95761367115358171648e-06
  -1.24556459636583976381e-06+j8.71675288230077980147e-06
  -5.11744318928501047752e-08+j1.05111424222539285976e-05
  +1.63439473616189440005e-06+j1.21884113947762308313e-05
  +3.76790673312387573902e-06+j1.35887789922240752067e-05
  +6.24179251952884731882e-06+j1.45753762556849779456e-05
  +8.89981686683460516290e-06+j1.50631816100505280966e-05
  +1.15670142522778208679e-05+j1.50362793342678624503e-05
  +1.40843320593152702367e-05+j1.45462245414287356129e-05
  +1.63354294834073294899e-05+j1.36927313076330253684e-05
  +1.82575674406785563538e-05+j1.25959235755444579980e-05
  +1.98369658844376859535e-05+j1.13711946098482457918e-05
  +2.10950671523304564693e-05+j1.01133667690053944007e-05
  +2.20730017646154993321e-05+j8.89091250892535970088e-06
  +2.28189272368411726218e-05+j7.74732875679761878924e-06
  +2.33797764996757778677e-05+j6.70601790630288223887e-06
  +2.37969548488578392623e-05+j5.77595735725058501077e-06
  +2.41047956421403424324e-05+j4.95670541174456033312e-06
  +2.43306207697366220848e-05+j4.24223836822875148209e-06
  +2.44955673066650965475e-05+j3.62363193703790900101e-06
  +2.46156679358735017800e-05+j3.09080608498661694544e-06
  +2.47029150510181713088e-05+j2.63358810889083569992e-06
  +2.47661902213134828049e-05+j2.24231297427924215355e-06
  +2.48120245561609162723e-05+j1.90812571264321107530e-06
  +2.48451963208720415309e-05+j1.62310069162951153866e-06
  +2.48691885867320716717e-05+j1.38025376186797268614e-06
  +2.48865336195271075008e-05+j1.17349569296164149069e-06
  +2.48990689358105375174e-05+j9.97556727357752232721e-07
  +2.49081260890021130225e-05+j8.47900016910446407112e-07
  +2.49146690349630660713e-05+j7.20634091742823362537e-07
  +2.49193951168205787101e-05+j6.12429818006869768403e-07
  +2.49228085464936736004e-05+j5.20444477372458394316e-07
  +2.49252737584910715059e-05+j4.42253949066606658580e-07
  +2.49270540895325562578e-05+j3.75793044892465871769e-07
  +2.49283397888777283205e-05+j3.19303554261698275437e-07
  +2.49292682862899409241e-05+j2.71289322289484645157e-07
  +2.49299388495071818955e-05+j2.30477600222751386855e-07
  +2.49304231802058163105e-05+j1.95785907401920823162e-07
  +2.49307730720219220216e-05+j1.66293687844094374397e-07
  +2.49310259446878711381e-05+j1.41218108847799600436e-07
  +2.49312088435249989049e-05+j1.19893420326497520202e-07
  +2.49313413307522934305e-05+j1.01753364364897897542e-07
  +2.49314375771416409610e-05+j8.63161909269243184282e-08
  +2.49315078773708815902e-05+j7.31718958896707243024e-08
  +2.49315597509830818744e-05+j6.19713511176825181257e-08
  +2.49315987466111281111e-05+j5.24170431618807770875e-08
  +2.49316290354321467378e-05+j4.42551778198484522400e-08
  +2.49316538573169287020e-05+j3.72689427879874608353e-08
  +2.49316758673641321624e-05+j3.12727505897614774279e-08
  +2.49316974199065977255e-05+j2.61073094871795553207e-08
  +2.49317208203248348228e-05+j2.16353916929281639069e-08
  +2.49317485716436626584e-05+j1.77381864441135251369e-08
  +2.49317836422399479682e-05+j1.43121406950941270089e-08
  +2.49318297833251226181e-05+j1.12662027754996810818e-08
  +2.49318919301075632856e-05+j8.51939445339530598454e-09
  +2.49319767295359406986e-05+j5.99864470238405749296e-09
  +2.49320932509914567103e-05+j3.63682397248011946318e-09
  +2.49322539558036598568e-05+j1.37092075329654127340e-09
  +2.49324760290374413080e-05-j8.59697759152386152980e-10
  +2.49327832154982427331e-05-j3.11500300238014502645e-09
  +2.49332083553643066645e-05-j5.45607193988244948423e-09
  +2.49337968887850756341e-05-j7.94699268850641897199e-09
  +2.49346117007216904686e-05-j1.06570282911549459567e-08
  +2.49357398173413177334e-05-j1.36632081452323714941e-08
  +2.49373016569816833990e-05-j1.70535983257904039646e-08
  +2.49394637998060521289e-05-j2.09316343841849165050e-08
  +2.49424565932967944536e-05-j2.54221144226118433104e-08
  +2.49465983833466379660e-05-j3.06797959161177865091e-08
  +2.49523287839480660414e-05-j3.69020972621240033379e-08
  +2.49602542015595261463e-05-j4.43483042746846904293e-08
  +2.49712098283962915211e-05-j5.33691260479613680104e-08
