<Qucs Dataset 0.0.20>
<indep acfrequency 100>
  +1.00000000000000000000e+01
  +1.09749876549305618312e+01
  +1.20450354025878230146e+01
  +1.32194114846602914781e+01
  +1.45082877849593963049e+01
  +1.59228279334109235066e+01
  +1.74752840000768401296e+01
  +1.91791026167248865875e+01
  +2.10490414451202028090e+01
  +2.31012970008315967618e+01
  +2.53536449397011196538e+01
  +2.78255940220712432165e+01
  +3.05385550883341565509e+01
  +3.35160265093884248699e+01
  +3.67837977182863369308e+01
  +4.03701725859655482509e+01
  +4.43062145758388084005e+01
  +4.86260158006535476716e+01
  +5.33669923120631040092e+01
  +5.85702081805666736614e+01
  +6.42807311728432182463e+01
  +7.05480231071864380965e+01
  +7.74263682681127107799e+01
  +8.49753435908644405572e+01
  +9.32603346883220041263e+01
  +1.02353102189902656960e+02
  +1.12332403297802741804e+02
  +1.23284673944206630836e+02
  +1.35304777457980719646e+02
  +1.48496826225446568515e+02
  +1.62975083462064418427e+02
  +1.78864952905743479050e+02
  +1.96304065004027137320e+02
  +2.15443469003188425859e+02
  +2.36448941264540849261e+02
  +2.59502421139973648678e+02
  +2.84803586843580205823e+02
  +3.12571584968823742656e+02
  +3.43046928631491937267e+02
  +3.76493580679246804266e+02
  +4.13201240011533741381e+02
  +4.53487850812858312111e+02
  +4.97702356433211207332e+02
  +5.46227721768434435035e+02
  +5.99484250318941008118e+02
  +6.57933224657568416660e+02
  +7.22080901838546651561e+02
  +7.92482898353917335044e+02
  +8.69749002617783730784e+02
  +9.54548456661834165971e+02
  +1.04761575278966552105e+03
  +1.14975699539773609104e+03
  +1.26185688306602037301e+03
  +1.38488637139387378738e+03
  +1.51991108295293406627e+03
  +1.66810053720005862488e+03
  +1.83073828029536912254e+03
  +2.00923300256504739991e+03
  +2.20513073990304701510e+03
  +2.42012826479438263050e+03
  +2.65608778294668627495e+03
  +2.91505306282517767613e+03
  +3.19926713779738383892e+03
  +3.51119173421513369249e+03
  +3.85352859371053045834e+03
  +4.22924287438949886564e+03
  +4.64158883361278185475e+03
  +5.09413801481637983670e+03
  +5.59081018251222758408e+03
  +6.13590727341317597165e+03
  +6.73415065775082257460e+03
  +7.39072203352578253543e+03
  +8.11130830789687388460e+03
  +8.90215085445039403567e+03
  +9.77009957299225789029e+03
  +1.07226722201032334851e+04
  +1.17681195243499932985e+04
  +1.29154966501488434005e+04
  +1.41747416292680536571e+04
  +1.55567614393047279009e+04
  +1.70735264747069122677e+04
  +1.87381742286038534075e+04
  +2.05651230834865236830e+04
  +2.25701971963392061298e+04
  +2.47707635599171262584e+04
  +2.71858824273294158047e+04
  +2.98364724028334167087e+04
  +3.27454916287772721262e+04
  +3.59381366380462786765e+04
  +3.94420605943765840493e+04
  +4.32876128108306438662e+04
  +4.75081016210279703955e+04
  +5.21400828799968803651e+04
  +5.72236765935022413032e+04
  +6.28029144183425160008e+04
  +6.89261210434969980270e+04
  +7.56463327554629649967e+04
  +8.30217568131974257994e+04
  +9.11162756115489464719e+04
  +1.00000000000000087311e+05
</indep>
<indep Vs2 21>
  -3.00000000000000000000e+01
  -2.70000000000000000000e+01
  -2.40000000000000000000e+01
  -2.10000000000000000000e+01
  -1.80000000000000000000e+01
  -1.50000000000000000000e+01
  -1.20000000000000000000e+01
  -9.00000000000000000000e+00
  -6.00000000000000000000e+00
  -3.00000000000000000000e+00
  +0.00000000000000000000e+00
  +3.00000000000000000000e+00
  +6.00000000000000000000e+00
  +9.00000000000000000000e+00
  +1.20000000000000000000e+01
  +1.50000000000000000000e+01
  +1.80000000000000000000e+01
  +2.10000000000000000000e+01
  +2.40000000000000000000e+01
  +2.70000000000000000000e+01
  +3.00000000000000000000e+01
</indep>
<dep V1.i acfrequency>
  -1.03803793923483515749e-06-j1.21640401476685054759e-06
  -1.15057770177264222092e-06-j1.23398149626347316133e-06
  -1.26539149309355642351e-06-j1.24118856873551947718e-06
  -1.38052968459204496095e-06-j1.23772455175118591478e-06
  -1.49402060481165979355e-06-j1.22374455294049590596e-06
  -1.60400355306222482784e-06-j1.19984369086353888725e-06
  -1.70884627501152080555e-06-j1.16699767307246910517e-06
  -1.80723187130986384404e-06-j1.12647047415167774007e-06
  -1.89820685655186650814e-06-j1.07970464544071868222e-06
  -1.98118977328081454823e-06-j1.02821059761715917903e-06
  -2.05594624504666010129e-06-j9.73468471553979618270e-07
  -2.12254027159206806600e-06-j9.16851372405361018806e-07
  -2.18127265295780546275e-06-j8.59573463774974348001e-07
  -2.23261626021013884438e-06-j8.02662011833407050511e-07
  -2.27715541678840856446e-06-j7.46949583208214116342e-07
  -2.31553385731869063860e-06-j6.93081285190503492489e-07
  -2.34841324753403957849e-06-j6.41531858215128016418e-07
  -2.37644239203009323920e-06-j5.92628117830190417192e-07
  -2.40023609726500556809e-06-j5.46573277126690855928e-07
  -2.42036207561006860999e-06-j5.03470746971576755033e-07
  -2.43733412122479994497e-06-j4.63345941334125139133e-07
  -2.45160989743143386703e-06-j4.26165336074606112122e-07
  -2.46359191089834503153e-06-j3.91852535457566657798e-07
  -2.47363053617017287727e-06-j3.60301426257482294481e-07
  -2.48202822753223201275e-06-j3.31386682749973492520e-07
  -2.48904429413109800717e-06-j3.04971971179951474794e-07
  -2.49489981287959732708e-06-j2.80916224293219953888e-07
  -2.49978239840292052156e-06-j2.59078338706059792157e-07
  -2.50385066433653766856e-06-j2.39320612196526835561e-07
  -2.50723828608233464607e-06-j2.21511193029783758998e-07
  -2.51005762919815260468e-06-j2.05525768388494270875e-07
  -2.51240294251235937986e-06-j1.91248677059483696456e-07
  -2.51435313732142249026e-06-j1.78573594762756058589e-07
  -2.51597418271664564432e-06-j1.67403908941012568121e-07
  -2.51732115781881913327e-06-j1.57652874707304203690e-07
  -2.51843999827970418614e-06-j1.49243622318314731588e-07
  -2.51936897621067665970e-06-j1.42109070391137403069e-07
  -2.52013994972563130158e-06-j1.36191786087479972099e-07
  -2.52077941367166095520e-06-j1.31443823375932163227e-07
  -2.52130938172090968266e-06-j1.27826563029639403424e-07
  -2.52174812462630675881e-06-j1.25310572060608448724e-07
  -2.52211078575108911396e-06-j1.23875495956589364689e-07
  -2.52240989528598011669e-06-j1.23509994197431604526e-07
  -2.52265579558953774176e-06-j1.24211726728389002098e-07
  -2.52285699520567058973e-06-j1.25987398118672429041e-07
  -2.52302045975704334019e-06-j1.28852864470511825715e-07
  -2.52315185071214959331e-06-j1.32833307905161494106e-07
  -2.52325572061715322408e-06-j1.37963483086347340433e-07
  -2.52333566927341519545e-06-j1.44288039927927409994e-07
  -2.52339446820849430179e-06-j1.51861927173888174715e-07
  -2.52343415589324174020e-06-j1.60750881480383539052e-07
  -2.52345610835344830262e-06-j1.71032007411044593164e-07
  -2.52346108674182863726e-06-j1.82794454117744032998e-07
  -2.52344926329755328510e-06-j1.96140195222336937850e-07
  -2.52342022750624115517e-06-j2.11184919372092910273e-07
  -2.52337297183464990820e-06-j2.28059039673075196900e-07
  -2.52330585652811414715e-06-j2.46908831252250408608e-07
  -2.52321655336519280361e-06-j2.67897707759572405140e-07
  -2.52310196457111700566e-06-j2.91207648004349953948e-07
  -2.52295811598257687915e-06-j3.17040786641212177601e-07
  -2.52278001976898336595e-06-j3.45621183396610204491e-07
  -2.52256150173260281576e-06-j3.77196787541582762550e-07
  -2.52229498879009624384e-06-j4.12041617036190030264e-07
  -2.52197124762441674797e-06-j4.50458172797553369992e-07
  -2.52157906738826265307e-06-j4.92780113167073154993e-07
  -2.52110487395139130863e-06-j5.39375215117662574030e-07
  -2.52053226502839412194e-06-j5.90648654048777450439e-07
  -2.51984144953673587931e-06-j6.47046637501325334169e-07
  -2.51900857258859653485e-06-j7.09060434091355743125e-07
  -2.51800490598293787514e-06-j7.77230845537441690499e-07
  -2.51679587688594908840e-06-j8.52153176221278937360e-07
  -2.51533990631163358525e-06-j9.34482767300691156764e-07
  -2.51358702082393720457e-06-j1.02494117003460338747e-06
  -2.51147719850960137215e-06-j1.12432305207924962549e-06
  -2.50893840164351092977e-06-j1.23350394463138411681e-06
  -2.50588424479911759640e-06-j1.35344896421713137729e-06
  -2.50221124039387419384e-06-j1.48522267060527434373e-06
  -2.49779555952927163074e-06-j1.63000025606046411012e-06
  -2.49248924419577155948e-06-j1.78908031026509303249e-06
  -2.48611580859863033526e-06-j1.96389945859875562187e-06
  -2.47846517698206731883e-06-j2.15604924346882785937e-06
  -2.46928792385552375174e-06-j2.36729570693809456423e-06
  -2.45828882184682228401e-06-j2.59960224366725596950e-06
  -2.44511976031822921606e-06-j2.85515642088754747439e-06
  -2.42937220102336820141e-06-j3.13640163280589863627e-06
  -2.41056948507244715469e-06-j3.44607463967137772929e-06
  -2.38815953190259588445e-06-j3.78725025635638838195e-06
  -2.36150880124650672419e-06-j4.16339470490165479752e-06
  -2.32989885285248952312e-06-j4.57842937359605772524e-06
  -2.29252748539314836791e-06-j5.03680694218416421295e-06
  -2.24851731138717744318e-06-j5.54360196816100412974e-06
  -2.19693576876977277425e-06-j6.10461798535342649156e-06
  -2.13683201808117065638e-06-j6.72651282359659360256e-06
  -2.06729792638815664308e-06-j7.41694306652870465676e-06
  -1.98756230173426001319e-06-j8.18472700485501187216e-06
  -1.89712955084384350125e-06-j9.04002295201381774251e-06
  -1.79597559274506523186e-06-j9.99451599306710245353e-06
  -1.68481459823077916905e-06-j1.10616010062910072190e-05
  -1.56544909169913333510e-06-j1.22565431941531122943e-05
  -1.44121210752270704194e-06-j1.35965897869745245175e-05
</dep>
<dep V5.i acfrequency>
  -9.66972637548966390021e-05-j1.18976556263858130463e-04
  -1.07717995990129318464e-04-j1.20687149673969892016e-04
  -1.18961421326614901492e-04-j1.21380862608289099278e-04
  -1.30236616843058122805e-04-j1.21028145704708139669e-04
  -1.41350501103853771860e-04-j1.19644071401574440101e-04
  -1.52120859836355924385e-04-j1.17286787896132683562e-04
  -1.62387850036692729400e-04-j1.14051698981543702619e-04
  -1.72022510714173046875e-04-j1.10062421921902883260e-04
  -1.80931469168667220316e-04-j1.05460044344378263610e-04
  -1.89057784544267702296e-04-j1.00392280415194289837e-04
  -1.96378504837980131419e-04-j9.50038595876035552945e-05
  -2.02899897332878747852e-04-j8.94290072078868621607e-05
  -2.08651418637893982166e-04-j8.37863594387894830779e-05
  -2.13679375889253627286e-04-j7.81762233119735999286e-05
  -2.18040990500821194042e-04-j7.26798101662200403015e-05
  -2.21799301947191488359e-04-j6.73599419101260436489e-05
  -2.25019105646778429719e-04-j6.22627217734719441916e-05
  -2.27763937619746080054e-04-j5.74197286659571559686e-05
  -2.30094004570883815244e-04-j5.28503953207443374928e-05
  -2.32064901423313603218e-04-j4.85643349415760186148e-05
  -2.33726943104743380359e-04-j4.45634721094976274597e-05
  -2.35124947819266723846e-04-j4.08439042636191110736e-05
  -2.36298332506984721168e-04-j3.73974697003099314880e-05
  -2.37281409031812672928e-04-j3.42130298258832378283e-05
  -2.38103796619573129714e-04-j3.12774914078764324291e-05
  -2.38790889570624962311e-04-j2.85766029247155642595e-05
  -2.39364338320564564106e-04-j2.60955612027037100467e-05
  -2.39842516632558929671e-04-j2.38194628608454362078e-05
  -2.40240958496527634873e-04-j2.17336315112390812069e-05
  -2.40572756027434951241e-04-j1.98238472945108147334e-05
  -2.40848914849053631322e-04-j1.80765008957794651558e-05
  -2.41078666878047614269e-04-j1.64786900738440896907e-05
  -2.41269742500575058762e-04-j1.50182731180765649575e-05
  -2.41428605321668000297e-04-j1.36838905762128975859e-05
  -2.41560653194912341437e-04-j1.24649640761105452155e-05
  -2.41670389407703384288e-04-j1.13516790097886762618e-05
  -2.41761567792641494891e-04-j1.03349562255083765404e-05
  -2.41837315273769285634e-04-j9.40641659054217106270e-06
  -2.41900235042461484759e-04-j8.55834129005665415443e-06
  -2.41952493218299403543e-04-j7.78362996333753400912e-06
  -2.41995891482303426877e-04-j7.07575818742877837473e-06
  -2.42031927855943472788e-04-j6.42873537439576064049e-06
  -2.42061847479683447601e-04-j5.83706381509553442387e-06
  -2.42086685003110657155e-04-j5.29569934839907844503e-06
  -2.42107299920492092258e-04-j4.80001395365978604274e-06
  -2.42124406011128148015e-04-j4.34576042477600370337e-06
  -2.42138595842817446347e-04-j3.92903918851959568759e-06
  -2.42150361154620888957e-04-j3.54626725965287410982e-06
  -2.42160109797724161377e-04-j3.19414927463865083639e-06
  -2.42168179804693042357e-04-j2.86965051511835505285e-06
  -2.42174851066064575691e-04-j2.56997180893265841984e-06
  -2.42180355001034091581e-04-j2.29252618338418013050e-06
  -2.42184882564187772000e-04-j2.03491713950895098051e-06
  -2.42188590859046429075e-04-j1.79491841228583025374e-06
  -2.42191608569512491049e-04-j1.57045507990050151649e-06
  -2.42194040429133123759e-04-j1.35958589358804695053e-06
  -2.42195970821028122230e-04-j1.16048669280887808530e-06
  -2.42197466793783055703e-04-j9.71434785490857079224e-07
  -2.42198580256119440227e-04-j7.90794168126378090931e-07
  -2.42199349864192971932e-04-j6.17001471438397275902e-07
  -2.42199802340800125376e-04-j4.48552517184112723918e-07
  -2.42199953381130541783e-04-j2.83989377992580637389e-07
  -2.42199808288366674877e-04-j1.21887836267041906720e-07
  -2.42199362026433777330e-04+j3.91548624654861136663e-08
  -2.42198599115801620988e-04+j2.00532057638569834293e-07
  -2.42197493142652620860e-04+j3.63639622971403798468e-07
  -2.42196005808785008815e-04+j5.29887906932709022633e-07
  -2.42194085542494006022e-04+j7.00713761792999197152e-07
  -2.42191665839469632464e-04+j8.77592743430550880126e-07
  -2.42188662971515203219e-04+j1.06205157801655321178e-06
  -2.42184972986246121974e-04+j1.25568096836655953885e-06
  -2.42180468296410481531e-04+j1.46014882963838712910e-06
  -2.42174993215801110345e-04+j1.67721401629431433407e-06
  -2.42168358740890146338e-04+j1.90874061507599419301e-06
  -2.42160336074461742884e-04+j2.15671284537694188147e-06
  -2.42150648875866290975e-04+j2.42325060790909783254e-06
  -2.42138964109409743353e-04+j2.71062569339703892545e-06
  -2.42124880782061164966e-04+j3.02127862227917056161e-06
  -2.42107916742371147680e-04+j3.35783605609822976578e-06
  -2.42087492923989889204e-04+j3.72312866460623777078e-06
  -2.42062914517900265110e-04+j4.12020923122148141713e-06
  -2.42033348859227020198e-04+j4.55237070467657207247e-06
  -2.41997799378270480458e-04+j5.02316378424156315986e-06
  -2.41955074973095626660e-04+j5.53641341051391965570e-06
  -2.41903754492299520292e-04+j6.09623338570499446776e-06
  -2.41842145791528975078e-04+j6.70703807616972926816e-06
  -2.41768238704170206413e-04+j7.37354982716345725682e-06
  -2.41679652169018998904e-04+j8.10080041871142894681e-06
  -2.41573575343700442698e-04+j8.89412448749063842975e-06
  -2.41446703480241323201e-04+j9.75914248089244515600e-06
  -2.41295170003921191290e-04+j1.07017303875422727918e-05
  -2.41114477282573579997e-04+j1.17279733390726383102e-05
  -2.40899429660850069538e-04+j1.28441002432795696984e-05
  -2.40644074554235569462e-04+j1.40563973165731107592e-05
  -2.40341658590098589251e-04+j1.53710996159950613485e-05
  -2.39984608158350988007e-04+j1.67942622112493382402e-05
  -2.39564544735550990703e-04+j1.83316162329806299188e-05
  -2.39072345545098045817e-04+j1.99884203666663611346e-05
  -2.38498258338733644087e-04+j2.17693249590195974849e-05
  -2.37832073076054426389e-04+j2.36782729942717561457e-05
</dep>
<dep V2.i acfrequency>
  -9.66972637548966390021e-05-j1.18976556263858130463e-04
  -1.07717995990129318464e-04-j1.20687149673969892016e-04
  -1.18961421326614901492e-04-j1.21380862608289099278e-04
  -1.30236616843058122805e-04-j1.21028145704708139669e-04
  -1.41350501103853771860e-04-j1.19644071401574440101e-04
  -1.52120859836355924385e-04-j1.17286787896132683562e-04
  -1.62387850036692729400e-04-j1.14051698981543702619e-04
  -1.72022510714173046875e-04-j1.10062421921902883260e-04
  -1.80931469168667220316e-04-j1.05460044344378263610e-04
  -1.89057784544267702296e-04-j1.00392280415194289837e-04
  -1.96378504837980131419e-04-j9.50038595876035552945e-05
  -2.02899897332878747852e-04-j8.94290072078868621607e-05
  -2.08651418637893982166e-04-j8.37863594387894830779e-05
  -2.13679375889253627286e-04-j7.81762233119735999286e-05
  -2.18040990500821194042e-04-j7.26798101662200403015e-05
  -2.21799301947191488359e-04-j6.73599419101260436489e-05
  -2.25019105646778429719e-04-j6.22627217734719441916e-05
  -2.27763937619746080054e-04-j5.74197286659571559686e-05
  -2.30094004570883815244e-04-j5.28503953207443374928e-05
  -2.32064901423313603218e-04-j4.85643349415760186148e-05
  -2.33726943104743380359e-04-j4.45634721094976274597e-05
  -2.35124947819266723846e-04-j4.08439042636191110736e-05
  -2.36298332506984721168e-04-j3.73974697003099314880e-05
  -2.37281409031812672928e-04-j3.42130298258832378283e-05
  -2.38103796619573129714e-04-j3.12774914078764324291e-05
  -2.38790889570624962311e-04-j2.85766029247155642595e-05
  -2.39364338320564564106e-04-j2.60955612027037100467e-05
  -2.39842516632558929671e-04-j2.38194628608454362078e-05
  -2.40240958496527634873e-04-j2.17336315112390812069e-05
  -2.40572756027434951241e-04-j1.98238472945108147334e-05
  -2.40848914849053631322e-04-j1.80765008957794651558e-05
  -2.41078666878047614269e-04-j1.64786900738440896907e-05
  -2.41269742500575058762e-04-j1.50182731180765649575e-05
  -2.41428605321668000297e-04-j1.36838905762128975859e-05
  -2.41560653194912341437e-04-j1.24649640761105452155e-05
  -2.41670389407703384288e-04-j1.13516790097886762618e-05
  -2.41761567792641494891e-04-j1.03349562255083765404e-05
  -2.41837315273769285634e-04-j9.40641659054217106270e-06
  -2.41900235042461484759e-04-j8.55834129005665415443e-06
  -2.41952493218299403543e-04-j7.78362996333753400912e-06
  -2.41995891482303426877e-04-j7.07575818742877837473e-06
  -2.42031927855943472788e-04-j6.42873537439576064049e-06
  -2.42061847479683447601e-04-j5.83706381509553442387e-06
  -2.42086685003110657155e-04-j5.29569934839907844503e-06
  -2.42107299920492092258e-04-j4.80001395365978604274e-06
  -2.42124406011128148015e-04-j4.34576042477600370337e-06
  -2.42138595842817446347e-04-j3.92903918851959568759e-06
  -2.42150361154620888957e-04-j3.54626725965287410982e-06
  -2.42160109797724161377e-04-j3.19414927463865083639e-06
  -2.42168179804693042357e-04-j2.86965051511835505285e-06
  -2.42174851066064575691e-04-j2.56997180893265841984e-06
  -2.42180355001034091581e-04-j2.29252618338418013050e-06
  -2.42184882564187772000e-04-j2.03491713950895098051e-06
  -2.42188590859046429075e-04-j1.79491841228583025374e-06
  -2.42191608569512491049e-04-j1.57045507990050151649e-06
  -2.42194040429133123759e-04-j1.35958589358804695053e-06
  -2.42195970821028122230e-04-j1.16048669280887808530e-06
  -2.42197466793783055703e-04-j9.71434785490857079224e-07
  -2.42198580256119440227e-04-j7.90794168126378090931e-07
  -2.42199349864192971932e-04-j6.17001471438397275902e-07
  -2.42199802340800125376e-04-j4.48552517184112723918e-07
  -2.42199953381130541783e-04-j2.83989377992580637389e-07
  -2.42199808288366674877e-04-j1.21887836267041906720e-07
  -2.42199362026433777330e-04+j3.91548624654861136663e-08
  -2.42198599115801620988e-04+j2.00532057638569834293e-07
  -2.42197493142652620860e-04+j3.63639622971403798468e-07
  -2.42196005808785008815e-04+j5.29887906932709022633e-07
  -2.42194085542494006022e-04+j7.00713761792999197152e-07
  -2.42191665839469632464e-04+j8.77592743430550880126e-07
  -2.42188662971515203219e-04+j1.06205157801655321178e-06
  -2.42184972986246121974e-04+j1.25568096836655953885e-06
  -2.42180468296410481531e-04+j1.46014882963838712910e-06
  -2.42174993215801110345e-04+j1.67721401629431433407e-06
  -2.42168358740890146338e-04+j1.90874061507599419301e-06
  -2.42160336074461742884e-04+j2.15671284537694188147e-06
  -2.42150648875866290975e-04+j2.42325060790909783254e-06
  -2.42138964109409743353e-04+j2.71062569339703892545e-06
  -2.42124880782061164966e-04+j3.02127862227917056161e-06
  -2.42107916742371147680e-04+j3.35783605609822976578e-06
