<Qucs Dataset 0.0.17>
<indep Tmax 1>
  +4.00000000000e-02
</indep>
<indep Tperiod 1>
  +2.00000000000e-02
</indep>
<indep Vfreq 1>
  +5.00000000000e+01
</indep>
<indep Vamp 1>
  +3.11126983722e+02
</indep>
<indep Veff 1>
  +2.20000000000e+02
</indep>
<indep time 201>
  +0.00000000000e+00
  +2.00000000000e-04
  +4.00000000000e-04
  +6.00000000000e-04
  +8.00000000000e-04
  +1.00000000000e-03
  +1.20000000000e-03
  +1.40000000000e-03
  +1.60000000000e-03
  +1.80000000000e-03
  +2.00000000000e-03
  +2.20000000000e-03
  +2.40000000000e-03
  +2.60000000000e-03
  +2.80000000000e-03
  +3.00000000000e-03
  +3.20000000000e-03
  +3.40000000000e-03
  +3.60000000000e-03
  +3.80000000000e-03
  +4.00000000000e-03
  +4.20000000000e-03
  +4.40000000000e-03
  +4.60000000000e-03
  +4.80000000000e-03
  +5.00000000000e-03
  +5.20000000000e-03
  +5.40000000000e-03
  +5.60000000000e-03
  +5.80000000000e-03
  +6.00000000000e-03
  +6.20000000000e-03
  +6.40000000000e-03
  +6.60000000000e-03
  +6.80000000000e-03
  +7.00000000000e-03
  +7.20000000000e-03
  +7.40000000000e-03
  +7.60000000000e-03
  +7.80000000000e-03
  +8.00000000000e-03
  +8.20000000000e-03
  +8.40000000000e-03
  +8.60000000000e-03
  +8.80000000000e-03
  +9.00000000000e-03
  +9.20000000000e-03
  +9.40000000000e-03
  +9.60000000000e-03
  +9.80000000000e-03
  +1.00000000000e-02
  +1.02000000000e-02
  +1.04000000000e-02
  +1.06000000000e-02
  +1.08000000000e-02
  +1.10000000000e-02
  +1.12000000000e-02
  +1.14000000000e-02
  +1.16000000000e-02
  +1.18000000000e-02
  +1.20000000000e-02
  +1.22000000000e-02
  +1.24000000000e-02
  +1.26000000000e-02
  +1.28000000000e-02
  +1.30000000000e-02
  +1.32000000000e-02
  +1.34000000000e-02
  +1.36000000000e-02
  +1.38000000000e-02
  +1.40000000000e-02
  +1.42000000000e-02
  +1.44000000000e-02
  +1.46000000000e-02
  +1.48000000000e-02
  +1.50000000000e-02
  +1.52000000000e-02
  +1.54000000000e-02
  +1.56000000000e-02
  +1.58000000000e-02
  +1.60000000000e-02
  +1.62000000000e-02
  +1.64000000000e-02
  +1.66000000000e-02
  +1.68000000000e-02
  +1.70000000000e-02
  +1.72000000000e-02
  +1.74000000000e-02
  +1.76000000000e-02
  +1.78000000000e-02
  +1.80000000000e-02
  +1.82000000000e-02
  +1.84000000000e-02
  +1.86000000000e-02
  +1.88000000000e-02
  +1.90000000000e-02
  +1.92000000000e-02
  +1.94000000000e-02
  +1.96000000000e-02
  +1.98000000000e-02
  +2.00000000000e-02
  +2.02000000000e-02
  +2.04000000000e-02
  +2.06000000000e-02
  +2.08000000000e-02
  +2.10000000000e-02
  +2.12000000000e-02
  +2.14000000000e-02
  +2.16000000000e-02
  +2.18000000000e-02
  +2.20000000000e-02
  +2.22000000000e-02
  +2.24000000000e-02
  +2.26000000000e-02
  +2.28000000000e-02
  +2.30000000000e-02
  +2.32000000000e-02
  +2.34000000000e-02
  +2.36000000000e-02
  +2.38000000000e-02
  +2.40000000000e-02
  +2.42000000000e-02
  +2.44000000000e-02
  +2.46000000000e-02
  +2.48000000000e-02
  +2.50000000000e-02
  +2.52000000000e-02
  +2.54000000000e-02
  +2.56000000000e-02
  +2.58000000000e-02
  +2.60000000000e-02
  +2.62000000000e-02
  +2.64000000000e-02
  +2.66000000000e-02
  +2.68000000000e-02
  +2.70000000000e-02
  +2.72000000000e-02
  +2.74000000000e-02
  +2.76000000000e-02
  +2.78000000000e-02
  +2.80000000000e-02
  +2.82000000000e-02
  +2.84000000000e-02
  +2.86000000000e-02
  +2.88000000000e-02
  +2.90000000000e-02
  +2.92000000000e-02
  +2.94000000000e-02
  +2.96000000000e-02
  +2.98000000000e-02
  +3.00000000000e-02
  +3.02000000000e-02
  +3.04000000000e-02
  +3.06000000000e-02
  +3.08000000000e-02
  +3.10000000000e-02
  +3.12000000000e-02
  +3.14000000000e-02
  +3.16000000000e-02
  +3.18000000000e-02
  +3.20000000000e-02
  +3.22000000000e-02
  +3.24000000000e-02
  +3.26000000000e-02
  +3.28000000000e-02
  +3.30000000000e-02
  +3.32000000000e-02
  +3.34000000000e-02
  +3.36000000000e-02
  +3.38000000000e-02
  +3.40000000000e-02
  +3.42000000000e-02
  +3.44000000000e-02
  +3.46000000000e-02
  +3.48000000000e-02
  +3.50000000000e-02
  +3.52000000000e-02
  +3.54000000000e-02
  +3.56000000000e-02
  +3.58000000000e-02
  +3.60000000000e-02
  +3.62000000000e-02
  +3.64000000000e-02
  +3.66000000000e-02
  +3.68000000000e-02
  +3.70000000000e-02
  +3.72000000000e-02
  +3.74000000000e-02
  +3.76000000000e-02
  +3.78000000000e-02
  +3.80000000000e-02
  +3.82000000000e-02
  +3.84000000000e-02
  +3.86000000000e-02
  +3.88000000000e-02
  +3.90000000000e-02
  +3.92000000000e-02
  +3.94000000000e-02
  +3.96000000000e-02
  +3.98000000000e-02
  +4.00000000000e-02
</indep>
<dep V1.It time>
  +0.00000000000e+00
  -1.79578665717e-02
  -3.73786896118e-02
  -5.66620127686e-02
  -7.57217718039e-02
  -9.44797195699e-02
  -1.12860484600e-01
  -1.30790805996e-01
  -1.48199485845e-01
  -1.65017535035e-01
  -1.81178382400e-01
  -1.96618104632e-01
  -2.11275660080e-01
  -2.25093118592e-01
  -2.38015883162e-01
  -2.49992900836e-01
  -2.60976861089e-01
  -2.70924380382e-01
  -2.79796171833e-01
  -2.87557199148e-01
  -2.94176814072e-01
  -2.99628876734e-01
  -3.03891858353e-01
  -3.06948925875e-01
  -3.08788008173e-01
  -3.09401843519e-01
  -3.08788008161e-01
  -3.06948925851e-01
  -3.03891858318e-01
  -2.99628876687e-01
  -2.94176814013e-01
  -2.87557199077e-01
  -2.79796171749e-01
  -2.70924380286e-01
  -2.60976860981e-01
  -2.49992900715e-01
  -2.38015883028e-01
  -2.25093118444e-01
  -2.11275659917e-01
  -1.96618104453e-01
  -1.81178382205e-01
  -1.65017534821e-01
  -1.48199485611e-01
  -1.30790805739e-01
  -1.12860484315e-01
  -9.44797192528e-02
  -7.57217714440e-02
  -5.66620123485e-02
  -3.73786890636e-02
  -1.79578658094e-02
  +1.33300611371e-09
  +1.79578669829e-02
  +3.73786900231e-02
  +5.66620123560e-02
  +7.57217722446e-02
  +9.44797191569e-02
  +1.12860485040e-01
  +1.30790805583e-01
  +1.48199486285e-01
  +1.65017534622e-01
  +1.81178382841e-01
  +1.96618104219e-01
  +2.11275660521e-01
  +2.25093118179e-01
  +2.38015883603e-01
  +2.49992900423e-01
  +2.60976861530e-01
  +2.70924379968e-01
  +2.79796172272e-01
  +2.87557198735e-01
  +2.94176814513e-01
  +2.99628876320e-01
  +3.03891858793e-01
  +3.06948925462e-01
  +3.08788008614e-01
  +3.09401843106e-01
  +3.08788008602e-01
  +3.06948925438e-01
  +3.03891858758e-01
  +2.99628876274e-01
  +2.94176814454e-01
  +2.87557198664e-01
  +2.79796172189e-01
  +2.70924379872e-01
  +2.60976861422e-01
  +2.49992900302e-01
  +2.38015883468e-01
  +2.25093118030e-01
  +2.11275660358e-01
  +1.96618104040e-01
  +1.81178382645e-01
  +1.65017534408e-01
  +1.48199486051e-01
  +1.30790805326e-01
  +1.12860484756e-01
  +9.44797188397e-02
  +7.57217718845e-02
  +5.66620119354e-02
  +3.73786895040e-02
  +1.79578653949e-02
  -1.34018148712e-09
  -1.79578662677e-02
  -3.73786893078e-02
  -5.66620130725e-02
  -7.57217721077e-02
  -9.44797198738e-02
  -1.12860484903e-01
  -1.30790806300e-01
  -1.48199486148e-01
  -1.65017535339e-01
  -1.81178382704e-01
  -1.96618104936e-01
  -2.11275660384e-01
  -2.25093118896e-01
  -2.38015883466e-01
  -2.49992901140e-01
  -2.60976861393e-01
  -2.70924380685e-01
  -2.79796172135e-01
  -2.87557199451e-01
  -2.94176814376e-01
  -2.99628877037e-01
  -3.03891858656e-01
  -3.06948926179e-01
  -3.08788008477e-01
  -3.09401843823e-01
  -3.08788008465e-01
  -3.06948926156e-01
  -3.03891858621e-01
  -2.99628876990e-01
  -2.94176814317e-01
  -2.87557199381e-01
  -2.79796172052e-01
  -2.70924380589e-01
  -2.60976861285e-01
  -2.49992901019e-01
  -2.38015883331e-01
  -2.25093118747e-01
  -2.11275660221e-01
  -1.96618104757e-01
  -1.81178382509e-01
  -1.65017535125e-01
  -1.48199485914e-01
  -1.30790806043e-01
  -1.12860484619e-01
  -9.44797195567e-02
  -7.57217717478e-02
  -5.66620126523e-02
  -3.73786893677e-02
  -1.79578661139e-02
  +1.65170087584e-09
  +1.79578672865e-02
  +3.73786903246e-02
  +5.66620120545e-02
  +7.57217725462e-02
  +9.44797188554e-02
  +1.12860485342e-01
  +1.30790805282e-01
  +1.48199486587e-01
  +1.65017534320e-01
  +1.81178383143e-01
  +1.96618103917e-01
  +2.11275660822e-01
  +2.25093117877e-01
  +2.38015883904e-01
  +2.49992900121e-01
  +2.60976861831e-01
  +2.70924379667e-01
  +2.79796172574e-01
  +2.87557198433e-01
  +2.94176814814e-01
  +2.99628876019e-01
  +3.03891859094e-01
  +3.06948925160e-01
  +3.08788008914e-01
  +3.09401842804e-01
  +3.08788008903e-01
  +3.06948925137e-01
  +3.03891859058e-01
  +2.99628875972e-01
  +2.94176814756e-01
  +2.87557198362e-01
  +2.79796172491e-01
  +2.70924379571e-01
  +2.60976861722e-01
  +2.49992900000e-01
  +2.38015883770e-01
  +2.25093117729e-01
  +2.11275660659e-01
  +1.96618103738e-01
  +1.81178382947e-01
  +1.65017534106e-01
  +1.48199486352e-01
  +1.30790805024e-01
  +1.12860485057e-01
  +9.44797185381e-02
  +7.57217721860e-02
  +5.66620116339e-02
  +3.73786898057e-02
  +1.79578650939e-02
  -1.64619168311e-09
</dep>
<dep _net1.Vt time>
  +0.00000000000e+00
  +1.87468455682e+01
  +3.81866201279e+01
  +5.74806978927e+01
  +7.65479530567e+01
  +9.53116224019e+01
  +1.13696983091e+02
  +1.31631116299e+02
  +1.49043026631e+02
  +1.65863854730e+02
  +1.82027117469e+02
  +1.97468953919e+02
  +2.12128368148e+02
  +2.25947464405e+02
  +2.38871672126e+02
  +2.50849959015e+02
  +2.61835030891e+02
  +2.71783517262e+02
  +2.80656141714e+02
  +2.88417876358e+02
  +2.95038079660e+02
  +3.00490617065e+02
  +3.04753963908e+02
  +3.07811290202e+02
  +3.09650526935e+02
  +3.10264413627e+02
  +3.09650526935e+02
  +3.07811290202e+02
  +3.04753963908e+02
  +3.00490617065e+02
  +2.95038079660e+02
  +2.88417876358e+02
  +2.80656141714e+02
  +2.71783517262e+02
  +2.61835030891e+02
  +2.50849959015e+02
  +2.38871672126e+02
  +2.25947464405e+02
  +2.12128368148e+02
  +1.97468953919e+02
  +1.82027117469e+02
  +1.65863854730e+02
  +1.49043026631e+02
  +1.31631116299e+02
  +1.13696983091e+02
  +9.53116224019e+01
  +7.65479530568e+01
  +5.74806978928e+01
  +3.81866201280e+01
  +1.87468455687e+01
  -1.34877378599e-07
  -7.88979379374e-01
  -8.07930791183e-01
  -8.18685320228e-01
  -8.26181419062e-01
  -8.31902976820e-01
  -8.36498619906e-01
  -8.40310417417e-01
  -8.43540889629e-01
  -8.46319788883e-01
  -8.48735152927e-01
  -8.50849363154e-01
  -8.52708135360e-01
  -8.54345873086e-01
  -8.55789016927e-01
  -8.57058225257e-01
  -8.58169842595e-01
  -8.59136915171e-01
  -8.59969909923e-01
  -8.60677232147e-01
  -8.61265603704e-01
  -8.61740340970e-01
  -8.62105559788e-01
  -8.62364324625e-01
  -8.62518754716e-01
  -8.62570094581e-01
  -8.62518754715e-01
  -8.62364324624e-01
  -8.62105559786e-01
  -8.61740340968e-01
  -8.61265603701e-01
  -8.60677232144e-01
  -8.59969909919e-01
  -8.59136915166e-01
  -8.58169842590e-01
  -8.57058225251e-01
  -8.55789016919e-01
  -8.54345873078e-01
  -8.52708135350e-01
  -8.50849363142e-01
  -8.48735152913e-01
  -8.46319788866e-01
  -8.43540889608e-01
  -8.40310417392e-01
  -8.36498619873e-01
  -8.31902976777e-01
  -8.26181419001e-01
  -8.18685320133e-01
  -8.07930791006e-01
  -7.88979378682e-01
  +2.90367750955e-08
  +1.87468455681e+01
  +3.81866201278e+01
  +5.74806978927e+01
  +7.65479530568e+01
  +9.53116224019e+01
  +1.13696983091e+02
  +1.31631116299e+02
  +1.49043026631e+02
  +1.65863854730e+02
  +1.82027117469e+02
  +1.97468953919e+02
  +2.12128368148e+02
  +2.25947464405e+02
  +2.38871672126e+02
  +2.50849959015e+02
  +2.61835030891e+02
  +2.71783517262e+02
  +2.80656141714e+02
  +2.88417876358e+02
  +2.95038079660e+02
  +3.00490617065e+02
  +3.04753963908e+02
  +3.07811290202e+02
  +3.09650526935e+02
  +3.10264413627e+02
  +3.09650526935e+02
  +3.07811290202e+02
  +3.04753963908e+02
  +3.00490617065e+02
  +2.95038079660e+02
  +2.88417876358e+02
  +2.80656141714e+02
  +2.71783517262e+02
  +2.61835030891e+02
  +2.50849959015e+02
  +2.38871672126e+02
  +2.25947464405e+02
  +2.12128368148e+02
  +1.97468953919e+02
  +1.82027117469e+02
  +1.65863854730e+02
  +1.49043026631e+02
  +1.31631116299e+02
  +1.13696983091e+02
  +9.53116224020e+01
  +7.65479530568e+01
  +5.74806978928e+01
  +3.81866201281e+01
  +1.87468455688e+01
  -1.32363973337e-07
  -7.88979379366e-01
  -8.07930791179e-01
  -8.18685320231e-01
  -8.26181419060e-01
  -8.31902976821e-01
  -8.36498619904e-01
  -8.40310417418e-01
  -8.43540889628e-01
  -8.46319788884e-01
  -8.48735152926e-01
  -8.50849363155e-01
  -8.52708135359e-01
  -8.54345873087e-01
  -8.55789016926e-01
  -8.57058225258e-01
  -8.58169842594e-01
  -8.59136915171e-01
  -8.59969909923e-01
  -8.60677232147e-01
  -8.61265603703e-01
  -8.61740340970e-01
  -8.62105559787e-01
  -8.62364324625e-01
  -8.62518754715e-01
  -8.62570094582e-01
  -8.62518754714e-01
  -8.62364324624e-01
  -8.62105559786e-01
  -8.61740340968e-01
  -8.61265603700e-01
  -8.60677232144e-01
  -8.59969909919e-01
  -8.59136915167e-01
  -8.58169842589e-01
  -8.57058225252e-01
  -8.55789016919e-01
  -8.54345873078e-01
  -8.52708135349e-01
  -8.50849363143e-01
  -8.48735152912e-01
  -8.46319788867e-01
  -8.43540889607e-01
  -8.40310417393e-01
  -8.36498619872e-01
  -8.31902976778e-01
  -8.26181418999e-01
  -8.18685320136e-01
  -8.07930791002e-01
  -7.88979378691e-01
  +2.54803118604e-08
</dep>
<dep in.Vt time>
  +0.00000000000e+00
  +1.95358249475e+01
  +3.89945509190e+01
  +5.82993832129e+01
  +7.73741344758e+01
  +9.61435253787e+01
  +1.14533481711e+02
  +1.32471426716e+02
  +1.49886567520e+02
  +1.66710174519e+02
  +1.82875852622e+02
  +1.98319803283e+02
  +2.12981076283e+02
  +2.26801810278e+02
  +2.39727461143e+02
  +2.51707017240e+02
  +2.62693200734e+02
  +2.72642654178e+02
  +2.81516111624e+02
  +2.89278553590e+02
  +2.95899345264e+02
  +3.01352357406e+02
  +3.05616069468e+02
  +3.08673654526e+02
  +3.10513045690e+02
  +3.11126983722e+02
  +3.10513045690e+02
  +3.08673654526e+02
  +3.05616069468e+02
  +3.01352357406e+02
  +2.95899345264e+02
  +2.89278553590e+02
  +2.81516111624e+02
  +2.72642654178e+02
  +2.62693200734e+02
  +2.51707017240e+02
  +2.39727461143e+02
  +2.26801810278e+02
  +2.12981076283e+02
  +1.98319803283e+02
  +1.82875852622e+02
  +1.66710174519e+02
  +1.49886567520e+02
  +1.32471426716e+02
  +1.14533481711e+02
  +9.61435253787e+01
  +7.73741344758e+01
  +5.82993832129e+01
  +3.89945509190e+01
  +1.95358249475e+01
  +3.81020664744e-14
  -1.95358249475e+01
  -3.89945509190e+01
  -5.82993832129e+01
  -7.73741344758e+01
  -9.61435253787e+01
  -1.14533481711e+02
  -1.32471426716e+02
  -1.49886567520e+02
  -1.66710174519e+02
  -1.82875852622e+02
  -1.98319803283e+02
  -2.12981076283e+02
  -2.26801810278e+02
  -2.39727461143e+02
  -2.51707017240e+02
  -2.62693200734e+02
  -2.72642654178e+02
  -2.81516111624e+02
  -2.89278553590e+02
  -2.95899345264e+02
  -3.01352357406e+02
  -3.05616069468e+02
  -3.08673654526e+02
  -3.10513045690e+02
  -3.11126983722e+02
  -3.10513045690e+02
  -3.08673654526e+02
  -3.05616069468e+02
  -3.01352357406e+02
  -2.95899345264e+02
  -2.89278553590e+02
  -2.81516111624e+02
  -2.72642654178e+02
  -2.62693200734e+02
  -2.51707017240e+02
  -2.39727461143e+02
  -2.26801810278e+02
  -2.12981076283e+02
  -1.98319803283e+02
  -1.82875852622e+02
  -1.66710174519e+02
  -1.49886567520e+02
  -1.32471426716e+02
  -1.14533481711e+02
  -9.61435253787e+01
  -7.73741344758e+01
  -5.82993832129e+01
  -3.89945509190e+01
  -1.95358249475e+01
  -7.62041329487e-14
  +1.95358249475e+01
  +3.89945509190e+01
  +5.82993832129e+01
  +7.73741344758e+01
  +9.61435253787e+01
  +1.14533481711e+02
  +1.32471426716e+02
  +1.49886567520e+02
  +1.66710174519e+02
  +1.82875852622e+02
  +1.98319803283e+02
  +2.12981076283e+02
  +2.26801810278e+02
  +2.39727461143e+02
  +2.51707017240e+02
  +2.62693200734e+02
  +2.72642654178e+02
  +2.81516111624e+02
  +2.89278553590e+02
  +2.95899345264e+02
  +3.01352357406e+02
  +3.05616069468e+02
  +3.08673654526e+02
  +3.10513045690e+02
  +3.11126983722e+02
  +3.10513045690e+02
  +3.08673654526e+02
  +3.05616069468e+02
  +3.01352357406e+02
  +2.95899345264e+02
  +2.89278553590e+02
  +2.81516111624e+02
  +2.72642654178e+02
  +2.62693200734e+02
  +2.51707017240e+02
  +2.39727461143e+02
  +2.26801810278e+02
  +2.12981076283e+02
  +1.98319803283e+02
  +1.82875852622e+02
  +1.66710174519e+02
  +1.49886567520e+02
  +1.32471426716e+02
  +1.14533481711e+02
  +9.61435253787e+01
  +7.73741344758e+01
  +5.82993832129e+01
  +3.89945509190e+01
  +1.95358249475e+01
  -4.38366346034e-13
  -1.95358249475e+01
  -3.89945509190e+01
  -5.82993832129e+01
  -7.73741344758e+01
  -9.61435253787e+01
  -1.14533481711e+02
  -1.32471426716e+02
  -1.49886567520e+02
  -1.66710174519e+02
  -1.82875852622e+02
  -1.98319803283e+02
  -2.12981076283e+02
  -2.26801810278e+02
  -2.39727461143e+02
  -2.51707017240e+02
  -2.62693200734e+02
  -2.72642654178e+02
  -2.81516111624e+02
  -2.89278553590e+02
  -2.95899345264e+02
  -3.01352357406e+02
  -3.05616069468e+02
  -3.08673654526e+02
  -3.10513045690e+02
  -3.11126983722e+02
  -3.10513045690e+02
  -3.08673654526e+02
  -3.05616069468e+02
  -3.01352357406e+02
  -2.95899345264e+02
  -2.89278553590e+02
  -2.81516111624e+02
  -2.72642654178e+02
  -2.62693200734e+02
  -2.51707017240e+02
  -2.39727461143e+02
  -2.26801810278e+02
  -2.12981076283e+02
  -1.98319803283e+02
  -1.82875852622e+02
  -1.66710174519e+02
  -1.49886567520e+02
  -1.32471426716e+02
  -1.14533481711e+02
  -9.61435253787e+01
  -7.73741344758e+01
  -5.82993832129e+01
  -3.89945509190e+01
  -1.95358249475e+01
  -1.52408265897e-13
</dep>
<dep _net0.Vt time>
  +0.00000000000e+00
  -7.88979379287e-01
  -8.07930791141e-01
  -8.18685320256e-01
  -8.26181419042e-01
  -8.31902976837e-01
  -8.36498619892e-01
  -8.40310417429e-01
  -8.43540889618e-01
  -8.46319788892e-01
  -8.48735152918e-01
  -8.50849363162e-01
  -8.52708135352e-01
  -8.54345873093e-01
  -8.55789016920e-01
  -8.57058225264e-01
  -8.58169842589e-01
  -8.59136915177e-01
  -8.59969909918e-01
  -8.60677232152e-01
  -8.61265603698e-01
  -8.61740340975e-01
  -8.62105559783e-01
  -8.62364324630e-01
  -8.62518754711e-01
  -8.62570094586e-01
  -8.62518754710e-01
  -8.62364324629e-01
  -8.62105559781e-01
  -8.61740340973e-01
  -8.61265603696e-01
  -8.60677232149e-01
  -8.59969909914e-01
  -8.59136915172e-01
  -8.58169842584e-01
  -8.57058225257e-01
  -8.55789016913e-01
  -8.54345873085e-01
  -8.52708135342e-01
  -8.50849363150e-01
  -8.48735152904e-01
  -8.46319788876e-01
  -8.43540889598e-01
  -8.40310417404e-01
  -8.36498619860e-01
  -8.31902976794e-01
  -8.26181418981e-01
  -8.18685320161e-01
  -8.07930790965e-01
  -7.88979378771e-01
  -1.34877416701e-07
  +1.87468455681e+01
  +3.81866201278e+01
  +5.74806978927e+01
  +7.65479530567e+01
  +9.53116224019e+01
  +1.13696983091e+02
  +1.31631116299e+02
  +1.49043026631e+02
  +1.65863854730e+02
  +1.82027117469e+02
  +1.97468953919e+02
  +2.12128368148e+02
  +2.25947464405e+02
  +2.38871672126e+02
  +2.50849959015e+02
  +2.61835030891e+02
  +2.71783517262e+02
  +2.80656141714e+02
  +2.88417876358e+02
  +2.95038079660e+02
  +3.00490617065e+02
  +3.04753963908e+02
  +3.07811290202e+02
  +3.09650526935e+02
  +3.10264413627e+02
  +3.09650526935e+02
  +3.07811290202e+02
  +3.04753963908e+02
  +3.00490617065e+02
  +2.95038079660e+02
  +2.88417876358e+02
  +2.80656141714e+02
  +2.71783517262e+02
  +2.61835030891e+02
  +2.50849959015e+02
  +2.38871672126e+02
  +2.25947464405e+02
  +2.12128368148e+02
  +1.97468953919e+02
  +1.82027117469e+02
  +1.65863854730e+02
  +1.49043026631e+02
  +1.31631116299e+02
  +1.13696983091e+02
  +9.53116224020e+01
  +7.65479530568e+01
  +5.74806978928e+01
  +3.81866201280e+01
  +1.87468455688e+01
  +2.90368512996e-08
  -7.88979379357e-01
  -8.07930791175e-01
  -8.18685320234e-01
  -8.26181419025e-01
  -8.31902976823e-01
  -8.36498619881e-01
  -8.40310417419e-01
  -8.43540889610e-01
  -8.46319788885e-01
  -8.48735152911e-01
  -8.50849363156e-01
  -8.52708135346e-01
  -8.54345873088e-01
  -8.55789016915e-01
  -8.57058225259e-01
  -8.58169842584e-01
  -8.59136915172e-01
  -8.59969909913e-01
  -8.60677232148e-01
  -8.61265603694e-01
  -8.61740340971e-01
  -8.62105559779e-01
  -8.62364324626e-01
  -8.62518754706e-01
  -8.62570094582e-01
  -8.62518754706e-01
  -8.62364324625e-01
  -8.62105559777e-01
  -8.61740340969e-01
