<Qucs Dataset 0.0.17>
<indep acfrequency 100>
  +1.00000000000e+00
  +1.12332403298e+00
  +1.26185688307e+00
  +1.41747416293e+00
  +1.59228279334e+00
  +1.78864952906e+00
  +2.00923300257e+00
  +2.25701971963e+00
  +2.53536449397e+00
  +2.84803586844e+00
  +3.19926713780e+00
  +3.59381366380e+00
  +4.03701725860e+00
  +4.53487850813e+00
  +5.09413801482e+00
  +5.72236765935e+00
  +6.42807311728e+00
  +7.22080901839e+00
  +8.11130830790e+00
  +9.11162756115e+00
  +1.02353102190e+01
  +1.14975699540e+01
  +1.29154966501e+01
  +1.45082877850e+01
  +1.62975083462e+01
  +1.83073828030e+01
  +2.05651230835e+01
  +2.31012970008e+01
  +2.59502421140e+01
  +2.91505306283e+01
  +3.27454916288e+01
  +3.67837977183e+01
  +4.13201240012e+01
  +4.64158883361e+01
  +5.21400828800e+01
  +5.85702081806e+01
  +6.57933224658e+01
  +7.39072203353e+01
  +8.30217568132e+01
  +9.32603346883e+01
  +1.04761575279e+02
  +1.17681195243e+02
  +1.32194114847e+02
  +1.48496826225e+02
  +1.66810053720e+02
  +1.87381742286e+02
  +2.10490414451e+02
  +2.36448941265e+02
  +2.65608778295e+02
  +2.98364724028e+02
  +3.35160265094e+02
  +3.76493580679e+02
  +4.22924287439e+02
  +4.75081016210e+02
  +5.33669923121e+02
  +5.99484250319e+02
  +6.73415065775e+02
  +7.56463327555e+02
  +8.49753435909e+02
  +9.54548456662e+02
  +1.07226722201e+03
  +1.20450354026e+03
  +1.35304777458e+03
  +1.51991108295e+03
  +1.70735264747e+03
  +1.91791026167e+03
  +2.15443469003e+03
  +2.42012826479e+03
  +2.71858824273e+03
  +3.05385550883e+03
  +3.43046928631e+03
  +3.85352859371e+03
  +4.32876128108e+03
  +4.86260158007e+03
  +5.46227721768e+03
  +6.13590727341e+03
  +6.89261210435e+03
  +7.74263682681e+03
  +8.69749002618e+03
  +9.77009957299e+03
  +1.09749876549e+04
  +1.23284673944e+04
  +1.38488637139e+04
  +1.55567614393e+04
  +1.74752840001e+04
  +1.96304065004e+04
  +2.20513073990e+04
  +2.47707635599e+04
  +2.78255940221e+04
  +3.12571584969e+04
  +3.51119173422e+04
  +3.94420605944e+04
  +4.43062145758e+04
  +4.97702356433e+04
  +5.59081018251e+04
  +6.28029144183e+04
  +7.05480231072e+04
  +7.92482898354e+04
  +8.90215085445e+04
  +1.00000000000e+05
</indep>
<dep V1.i acfrequency>
  -9.18801899673e-04+j6.46243513583e-05
  -9.17555257170e-04+j7.24902065376e-05
  -9.15987255117e-04+j8.12832190259e-05
  -9.14016709053e-04+j9.11001939485e-05
  -9.11542888254e-04+j1.02042840564e-04
  -9.08441368257e-04+j1.14215659207e-04
  -9.04559330221e-04+j1.27722596877e-04
  -8.99710437844e-04+j1.42662033222e-04
  -8.93669583112e-04+j1.59119566667e-04
  -8.86168037467e-04+j1.77158001874e-04
  -8.76889896820e-04+j1.96803937367e-04
  -8.65471177401e-04+j2.18030486176e-04
  -8.51503483036e-04+j2.40736035838e-04
  -8.34544736152e-04+j2.64719697553e-04
  -8.14139849601e-04+j2.89655334415e-04
  -7.89854072378e-04+j3.15067843447e-04
  -7.61320588778e-04+j3.40317530652e-04
  -7.28301287904e-04+j3.64600413461e-04
  -6.90755235080e-04+j3.86973062565e-04
  -6.48903817589e-04+j4.06408742691e-04
  -6.03276545433e-04+j4.21885955155e-04
  -5.54719893124e-04+j4.32501157341e-04
  -5.04356155084e-04+j4.37586874672e-04
  -4.53490751219e-04+j4.36809238087e-04
  -4.03481690184e-04+j4.30219895266e-04
  -3.55597670594e-04+j4.18247847103e-04
  -3.10895349793e-04+j4.01633529046e-04
  -2.70139533292e-04+j3.81323211046e-04
  -2.33775921899e-04+j3.58349968815e-04
  -2.01951266486e-04+j3.33725923473e-04
  -1.74565997895e-04+j3.08361866548e-04
  -1.51341633321e-04+j2.83019773521e-04
  -1.31888053184e-04+j2.58295216780e-04
  -1.15761124340e-04+j2.34622096126e-04
  -1.02506511024e-04+j2.12291084862e-04
  -9.16894593145e-05+j1.91474416161e-04
  -8.29125662944e-05+j1.72251755000e-04
  -7.58243813448e-05+j1.54633999954e-04
  -7.01216498202e-05+j1.38583504858e-04
  -6.55475486591e-05+j1.24030309981e-04
  -6.18876801874e-05+j1.10884604926e-04
  -5.89650467737e-05+j9.90459441529e-05
  -5.66347908270e-05+j8.84098254739e-05
  -5.47791625817e-05+j7.88722165091e-05
  -5.33029574201e-05+j7.03325361828e-05
  -5.21295223166e-05+j6.26955046253e-05
  -5.11973451711e-05+j5.58721846831e-05
  -5.04571931059e-05+j4.97804601314e-05
  -4.98697426373e-05+j4.43451320594e-05
  -4.94036364466e-05+j3.94977651448e-05
  -4.90339018970e-05+j3.51763777313e-05
  -4.87406713795e-05+j3.13250415133e-05
  -4.85081515118e-05+j2.78934360833e-05
  -4.83237956878e-05+j2.48363887980e-05
  -4.81776416704e-05+j2.21134198864e-05
  -4.80617824389e-05+j1.96883053231e-05
  -4.79699441954e-05+j1.75286648641e-05
  -4.78971502726e-05+j1.56055791299e-05
  -4.78394537368e-05+j1.38932372721e-05
  -4.77937248186e-05+j1.23686152173e-05
  -4.77574820410e-05+j1.10111835027e-05
  -4.77287581289e-05+j9.80264313874e-06
  -4.77059935817e-05+j8.72668760767e-06
  -4.76879522268e-05+j7.76878897056e-06
  -4.76736542337e-05+j6.91600602970e-06
  -4.76623229871e-05+j6.15681254441e-06
  -4.76533429598e-05+j5.48094359508e-06
  -4.76462263109e-05+j4.87925831233e-06
  -4.76405864062e-05+j4.34361732214e-06
  -4.76361168267e-05+j3.86677339576e-06
  -4.76325747289e-05+j3.44227392829e-06
  -4.76297676566e-05+j3.06437399912e-06
  -4.76275430871e-05+j2.72795888927e-06
  -4.76257801458e-05+j2.42847504315e-06
  -4.76243830399e-05+j2.16186856605e-06
  -4.76232758542e-05+j1.92453044276e-06
  -4.76223984264e-05+j1.71324774863e-06
  -4.76217030787e-05+j1.52516020161e-06
  -4.76211520268e-05+j1.35772147330e-06
  -4.76207153270e-05+j1.20866473992e-06
  -4.76203692496e-05+j1.07597200981e-06
  -4.76200949890e-05+j9.57846814547e-07
  -4.76198776421e-05+j8.52689895424e-07
  -4.76197053983e-05+j7.59077557378e-07
  -4.76195688979e-05+j6.75742397884e-07
  -4.76194607237e-05+j6.01556150771e-07
  -4.76193749975e-05+j5.35514412567e-07
  -4.76193070609e-05+j4.76723045517e-07
  -4.76192532223e-05+j4.24386072775e-07
  -4.76192105561e-05+j3.77794902432e-07
  -4.76191767439e-05+j3.36318734337e-07
  -4.76191499483e-05+j2.99396019966e-07
  -4.76191287133e-05+j2.66526859970e-07
  -4.76191118849e-05+j2.37266235983e-07
  -4.76190985486e-05+j2.11217985772e-07
  -4.76190879799e-05+j1.88029439506e-07
  -4.76190796043e-05+j1.67386645168e-07
  -4.76190729669e-05+j1.49010117776e-07
  -4.76190677068e-05+j1.32651055505e-07
  -4.76190635383e-05+j1.18087971297e-07
</dep>
<dep V2.i acfrequency>
  -9.18801899673e-04+j6.46243513583e-05
  -9.17555257170e-04+j7.24902065376e-05
  -9.15987255117e-04+j8.12832190259e-05
  -9.14016709053e-04+j9.11001939485e-05
  -9.11542888254e-04+j1.02042840564e-04
  -9.08441368257e-04+j1.14215659207e-04
  -9.04559330221e-04+j1.27722596877e-04
  -8.99710437844e-04+j1.42662033222e-04
  -8.93669583112e-04+j1.59119566667e-04
  -8.86168037467e-04+j1.77158001874e-04
  -8.76889896820e-04+j1.96803937367e-04
  -8.65471177401e-04+j2.18030486176e-04
  -8.51503483036e-04+j2.40736035838e-04
  -8.34544736152e-04+j2.64719697553e-04
  -8.14139849601e-04+j2.89655334415e-04
  -7.89854072378e-04+j3.15067843447e-04
  -7.61320588778e-04+j3.40317530652e-04
  -7.28301287904e-04+j3.64600413461e-04
  -6.90755235080e-04+j3.86973062565e-04
  -6.48903817589e-04+j4.06408742691e-04
  -6.03276545433e-04+j4.21885955155e-04
  -5.54719893124e-04+j4.32501157341e-04
  -5.04356155084e-04+j4.37586874672e-04
  -4.53490751219e-04+j4.36809238087e-04
  -4.03481690184e-04+j4.30219895266e-04
  -3.55597670594e-04+j4.18247847103e-04
  -3.10895349793e-04+j4.01633529046e-04
  -2.70139533292e-04+j3.81323211046e-04
  -2.33775921899e-04+j3.58349968815e-04
  -2.01951266486e-04+j3.33725923473e-04
  -1.74565997895e-04+j3.08361866548e-04
  -1.51341633321e-04+j2.83019773521e-04
  -1.31888053184e-04+j2.58295216780e-04
  -1.15761124340e-04+j2.34622096126e-04
  -1.02506511024e-04+j2.12291084862e-04
  -9.16894593145e-05+j1.91474416161e-04
  -8.29125662944e-05+j1.72251755000e-04
  -7.58243813448e-05+j1.54633999954e-04
  -7.01216498202e-05+j1.38583504858e-04
  -6.55475486591e-05+j1.24030309981e-04
  -6.18876801874e-05+j1.10884604926e-04
  -5.89650467737e-05+j9.90459441529e-05
  -5.66347908270e-05+j8.84098254739e-05
  -5.47791625817e-05+j7.88722165091e-05
  -5.33029574201e-05+j7.03325361828e-05
  -5.21295223166e-05+j6.26955046253e-05
  -5.11973451711e-05+j5.58721846831e-05
  -5.04571931059e-05+j4.97804601314e-05
  -4.98697426373e-05+j4.43451320594e-05
  -4.94036364466e-05+j3.94977651448e-05
  -4.90339018970e-05+j3.51763777313e-05
  -4.87406713795e-05+j3.13250415133e-05
  -4.85081515118e-05+j2.78934360833e-05
  -4.83237956878e-05+j2.48363887980e-05
  -4.81776416704e-05+j2.21134198864e-05
  -4.80617824389e-05+j1.96883053231e-05
  -4.79699441954e-05+j1.75286648641e-05
  -4.78971502726e-05+j1.56055791299e-05
  -4.78394537368e-05+j1.38932372721e-05
  -4.77937248186e-05+j1.23686152173e-05
  -4.77574820410e-05+j1.10111835027e-05
  -4.77287581289e-05+j9.80264313874e-06
  -4.77059935817e-05+j8.72668760767e-06
  -4.76879522268e-05+j7.76878897056e-06
  -4.76736542337e-05+j6.91600602970e-06
  -4.76623229871e-05+j6.15681254441e-06
  -4.76533429598e-05+j5.48094359508e-06
  -4.76462263109e-05+j4.87925831233e-06
  -4.76405864062e-05+j4.34361732214e-06
  -4.76361168267e-05+j3.86677339576e-06
  -4.76325747289e-05+j3.44227392829e-06
  -4.76297676566e-05+j3.06437399912e-06
  -4.76275430871e-05+j2.72795888927e-06
  -4.76257801458e-05+j2.42847504315e-06
  -4.76243830399e-05+j2.16186856605e-06
  -4.76232758542e-05+j1.92453044276e-06
  -4.76223984264e-05+j1.71324774863e-06
  -4.76217030787e-05+j1.52516020161e-06
  -4.76211520268e-05+j1.35772147330e-06
  -4.76207153270e-05+j1.20866473992e-06
  -4.76203692496e-05+j1.07597200981e-06
  -4.76200949890e-05+j9.57846814547e-07
  -4.76198776421e-05+j8.52689895424e-07
  -4.76197053983e-05+j7.59077557378e-07
  -4.76195688979e-05+j6.75742397884e-07
  -4.76194607237e-05+j6.01556150771e-07
  -4.76193749975e-05+j5.35514412567e-07
  -4.76193070609e-05+j4.76723045517e-07
  -4.76192532223e-05+j4.24386072775e-07
  -4.76192105561e-05+j3.77794902432e-07
  -4.76191767439e-05+j3.36318734337e-07
  -4.76191499483e-05+j2.99396019966e-07
  -4.76191287133e-05+j2.66526859970e-07
  -4.76191118849e-05+j2.37266235983e-07
  -4.76190985486e-05+j2.11217985772e-07
  -4.76190879799e-05+j1.88029439506e-07
  -4.76190796043e-05+j1.67386645168e-07
  -4.76190729669e-05+j1.49010117776e-07
  -4.76190677068e-05+j1.32651055505e-07
  -4.76190635383e-05+j1.18087971297e-07
</dep>
<dep _net1.v acfrequency>
  +9.21597496187e-01-j6.48317287314e-02
  +9.20346853250e-01-j7.27228251758e-02
  +9.18773819531e-01-j8.15440541459e-02
  +9.16796950050e-01-j9.13925314113e-02
  +9.14315190844e-01-j1.02370292613e-01
  +9.11203718173e-01-j1.14582173422e-01
  +9.07309222807e-01-j1.28132454401e-01
  +9.02444770498e-01-j1.43119830896e-01
  +8.96384530865e-01-j1.59630176013e-01
  +8.88858913013e-01-j1.77726495952e-01
  +8.79550999124e-01-j1.97435474592e-01
  +8.68095637418e-01-j2.18730138683e-01
  +8.54083121190e-01-j2.41508549692e-01
  +8.37069954257e-01-j2.65569174172e-01
  +8.16599589111e-01-j2.90584828655e-01
  +7.92235879645e-01-j3.16078885575e-01
  +7.63610833053e-01-j3.41409598178e-01
  +7.30485574352e-01-j3.65770403943e-01
  +6.92819037506e-01-j3.88214846127e-01
  +6.50833320222e-01-j4.07712894697e-01
  +6.05059631681e-01-j4.23239773016e-01
  +5.56347162706e-01-j4.33889039030e-01
  +5.05821809122e-01-j4.38991076257e-01
  +4.54793179884e-01-j4.38210944261e-01
  +4.04623641452e-01-j4.31600456461e-01
  +3.56585963651e-01-j4.19589990398e-01
  +3.11740194605e-01-j4.02922357552e-01
  +2.70853594057e-01-j3.82546864423e-01
  +2.34373293057e-01-j3.59499901830e-01
  +2.02446513393e-01-j3.34796838753e-01
  +1.74973366395e-01-j3.09351389422e-01
  +1.51674475615e-01-j2.83927974469e-01
  +1.32158469592e-01-j2.59124077456e-01
  +1.15979789976e-01-j2.35374990553e-01
  +1.02682643051e-01-j2.12972319823e-01
  +9.18308797855e-02-j1.92088851131e-01
  +8.30258220105e-02-j1.72804505097e-01
  +7.59148913134e-02-j1.55130215266e-01
  +7.01938599149e-02-j1.39028214671e-01
  +6.56050806168e-02-j1.24428319081e-01
  +6.19334677501e-02-j1.11240429899e-01
  +5.90014557039e-02-j9.93637792612e-02
  +5.66637220441e-02-j8.86935296346e-02
  +5.48021391501e-02-j7.91253148029e-02
  +5.33211968957e-02-j7.05582309293e-02
  +5.21439962784e-02-j6.28966923940e-02
  +5.12088278078e-02-j5.60514766473e-02
  +5.04663006195e-02-j4.99402039561e-02
  +4.98769650420e-02-j4.44874340989e-02
  +4.94093631322e-02-j3.96245121466e-02
  +4.90384421169e-02-j3.52892575460e-02
  +4.87442706325e-02-j3.14255625195e-02
  +4.85110046163e-02-j2.79829451828e-02
  +4.83260572007e-02-j2.49160879356e-02
  +4.81794341799e-02-j2.21843811081e-02
  +4.80632031601e-02-j1.97514844337e-02
  +4.79710702107e-02-j1.75849137610e-02
  +4.78980426947e-02-j1.56556569092e-02
  +4.78401610126e-02-j1.39378202039e-02
  +4.77942853519e-02-j1.24083056881e-02
  +4.77579262724e-02-j1.10465180207e-02
  +4.77291101863e-02-j9.83409949134e-03
  +4.77062725883e-02-j8.75469125511e-03
  +4.76881733393e-02-j7.79371875346e-03
  +4.76738294645e-02-j6.93819926079e-03
  +4.76624618563e-02-j6.17656954910e-03
  +4.76534530124e-02-j5.49853175901e-03
  +4.76463135264e-02-j4.89491568840e-03
  +4.76406555235e-02-j4.35755584423e-03
  +4.76361716012e-02-j3.87918174172e-03
  +4.76326181369e-02-j3.45332006968e-03
  +4.76298020569e-02-j3.07420747240e-03
  +4.76275703488e-02-j2.73671281771e-03
  +4.76258017502e-02-j2.43626793803e-03
  +4.76244001610e-02-j2.16880592967e-03
  +4.76232894224e-02-j1.93070619632e-03
  +4.76224091791e-02-j1.71874550320e-03
  +4.76217116000e-02-j1.53005438946e-03
  +4.76211587797e-02-j1.36207835587e-03
  +4.76207206787e-02-j1.21254330440e-03
  +4.76203734907e-02-j1.07942476790e-03
  +4.76200983500e-02-j9.60920512774e-04
  +4.76198803056e-02-j8.55426148641e-04
  +4.76197075091e-02-j7.61513411603e-04
  +4.76195705707e-02-j6.77910832719e-04
  +4.76194620494e-02-j6.03486524123e-04
  +4.76193760480e-02-j5.37232860192e-04
  +4.76193078934e-02-j4.78252833543e-04
  +4.76192538821e-02-j4.25747913384e-04
  +4.76192110790e-02-j3.79007233685e-04
  +4.76191771583e-02-j3.37397969823e-04
  +4.76191502767e-02-j3.00356772061e-04
  +4.76191289735e-02-j2.67382135713e-04
  +4.76191120911e-02-j2.38027615307e-04
  +4.76190987121e-02-j2.11895776780e-04
  +4.76190881094e-02-j1.88632819578e-04
  +4.76190797070e-02-j1.67923782969e-04
  +4.76190730482e-02-j1.49488285610e-04
  +4.76190677712e-02-j1.33076728152e-04
  +4.76190635893e-02-j1.18466910995e-04
</dep>
<dep Output.v acfrequency>
  +9.18801899673e-01-j6.46243513583e-02
  +9.17555257170e-01-j7.24902065376e-02
  +9.15987255117e-01-j8.12832190259e-02
  +9.14016709053e-01-j9.11001939485e-02
  +9.11542888254e-01-j1.02042840564e-01
  +9.08441368257e-01-j1.14215659207e-01
  +9.04559330221e-01-j1.27722596877e-01
  +8.99710437844e-01-j1.42662033222e-01
  +8.93669583112e-01-j1.59119566667e-01
  +8.86168037467e-01-j1.77158001874e-01
  +8.76889896820e-01-j1.96803937367e-01
  +8.65471177401e-01-j2.18030486176e-01
  +8.51503483036e-01-j2.40736035838e-01
  +8.34544736152e-01-j2.64719697553e-01
  +8.14139849601e-01-j2.89655334415e-01
  +7.89854072378e-01-j3.15067843447e-01
  +7.61320588778e-01-j3.40317530652e-01
  +7.28301287904e-01-j3.64600413461e-01
  +6.90755235080e-01-j3.86973062565e-01
  +6.48903817589e-01-j4.06408742691e-01
  +6.03276545433e-01-j4.21885955155e-01
  +5.54719893124e-01-j4.32501157341e-01
  +5.04356155084e-01-j4.37586874672e-01
  +4.53490751219e-01-j4.36809238087e-01
  +4.03481690184e-01-j4.30219895266e-01
  +3.55597670594e-01-j4.18247847103e-01
  +3.10895349793e-01-j4.01633529046e-01
  +2.70139533292e-01-j3.81323211046e-01
  +2.33775921899e-01-j3.58349968815e-01
  +2.01951266486e-01-j3.33725923473e-01
  +1.74565997895e-01-j3.08361866548e-01
  +1.51341633321e-01-j2.83019773521e-01
  +1.31888053184e-01-j2.58295216780e-01
  +1.15761124340e-01-j2.34622096126e-01
  +1.02506511024e-01-j2.12291084862e-01
  +9.16894593145e-02-j1.91474416161e-01
  +8.29125662944e-02-j1.72251755000e-01
  +7.58243813448e-02-j1.54633999954e-01
  +7.01216498202e-02-j1.38583504858e-01
  +6.55475486591e-02-j1.24030309981e-01
  +6.18876801874e-02-j1.10884604926e-01
  +5.89650467737e-02-j9.90459441529e-02
  +5.66347908270e-02-j8.84098254739e-02
  +5.47791625817e-02-j7.88722165091e-02
  +5.33029574201e-02-j7.03325361828e-02
  +5.21295223166e-02-j6.26955046253e-02
  +5.11973451711e-02-j5.58721846831e-02
  +5.04571931059e-02-j4.97804601314e-02
  +4.98697426373e-02-j4.43451320594e-02
  +4.94036364466e-02-j3.94977651448e-02
  +4.90339018970e-02-j3.51763777313e-02
  +4.87406713795e-02-j3.13250415133e-02
  +4.85081515118e-02-j2.78934360833e-02
  +4.83237956878e-02-j2.48363887980e-02
  +4.81776416704e-02-j2.21134198864e-02
  +4.80617824389e-02-j1.96883053231e-02
  +4.79699441954e-02-j1.75286648641e-02
  +4.78971502726e-02-j1.56055791299e-02
  +4.78394537368e-02-j1.38932372721e-02
  +4.77937248186e-02-j1.23686152173e-02
  +4.77574820410e-02-j1.10111835027e-02
  +4.77287581289e-02-j9.80264313873e-03
  +4.77059935817e-02-j8.72668760767e-03
  +4.76879522268e-02-j7.76878897056e-03
  +4.76736542337e-02-j6.91600602971e-03
  +4.76623229871e-02-j6.15681254442e-03
  +4.76533429598e-02-j5.48094359509e-03
  +4.76462263109e-02-j4.87925831234e-03
  +4.76405864062e-02-j4.34361732212e-03
  +4.76361168267e-02-j3.86677339576e-03
  +4.76325747289e-02-j3.44227392825e-03
  +4.76297676566e-02-j3.06437399915e-03
  +4.76275430871e-02-j2.72795888925e-03
  +4.76257801458e-02-j2.42847504317e-03
  +4.76243830399e-02-j2.16186856605e-03
  +4.76232758542e-02-j1.92453044276e-03
  +4.76223984264e-02-j1.71324774871e-03
  +4.76217030787e-02-j1.52516020160e-03
  +4.76211520268e-02-j1.35772147326e-03
  +4.76207153270e-02-j1.20866473984e-03
  +4.76203692496e-02-j1.07597200985e-03
  +4.76200949890e-02-j9.57846814516e-04
  +4.76198776421e-02-j8.52689895405e-04
  +4.76197053983e-02-j7.59077557215e-04
  +4.76195688979e-02-j6.75742398059e-04
  +4.76194607237e-02-j6.01556150639e-04
  +4.76193749975e-02-j5.35514412428e-04
  +4.76193070609e-02-j4.76723045301e-04
  +4.76192532223e-02-j4.24386072729e-04
  +4.76192105561e-02-j3.77794902531e-04
  +4.76191767439e-02-j3.36318734299e-04
  +4.76191499483e-02-j2.99396020288e-04
  +4.76191287133e-02-j2.66526859971e-04
  +4.76191118849e-02-j2.37266235924e-04
  +4.76190985486e-02-j2.11217985358e-04
  +4.76190879799e-02-j1.88029439422e-04
  +4.76190796043e-02-j1.67386644846e-04
  +4.76190729669e-02-j1.49010117147e-04
  +4.76190677068e-02-j1.32651055370e-04
  +4.76190635383e-02-j1.18087970662e-04
</dep>
<dep Input.v acfrequency>
  +1.00000000000e+00
  +1.00000000000e+00
  +1.00000000000e+00
  +1.00000000000e+00
  +1.00000000000e+00
  +1.00000000000e+00
  +1.00000000000e+00
  +1.00000000000e+00
  +1.00000000000e+00
  +1.00000000000e+00
  +1.00000000000e+00
  +1.00000000000e+00
  +1.00000000000e+00
  +1.00000000000e+00
  +1.00000000000e+00
  +1.00000000000e+00
  +1.00000000000e+00
  +1.00000000000e+00
  +1.00000000000e+00
  +1.00000000000e+00
  +1.00000000000e+00
  +1.00000000000e+00
  +1.00000000000e+00
  +1.00000000000e+00
  +1.00000000000e+00
  +1.00000000000e+00
  +1.00000000000e+00
  +1.00000000000e+00
  +1.00000000000e+00
  +1.00000000000e+00
  +1.00000000000e+00
  +1.00000000000e+00
  +1.00000000000e+00
  +1.00000000000e+00
  +1.00000000000e+00
  +1.00000000000e+00
  +1.00000000000e+00
  +1.00000000000e+00
  +1.00000000000e+00
  +1.00000000000e+00
  +1.00000000000e+00
  +1.00000000000e+00
  +1.00000000000e+00
  +1.00000000000e+00
  +1.00000000000e+00
  +1.00000000000e+00
  +1.00000000000e+00
  +1.00000000000e+00
  +1.00000000000e+00
  +1.00000000000e+00
  +1.00000000000e+00
  +1.00000000000e+00
  +1.00000000000e+00
  +1.00000000000e+00
  +1.00000000000e+00
  +1.00000000000e+00
  +1.00000000000e+00
  +1.00000000000e+00
  +1.00000000000e+00
  +1.00000000000e+00
  +1.00000000000e+00
  +1.00000000000e+00
  +1.00000000000e+00
  +1.00000000000e+00
  +1.00000000000e+00
  +1.00000000000e+00
  +1.00000000000e+00
  +1.00000000000e+00
  +1.00000000000e+00
  +1.00000000000e+00
  +1.00000000000e+00
  +1.00000000000e+00
  +1.00000000000e+00
  +1.00000000000e+00
  +1.00000000000e+00
  +1.00000000000e+00
  +1.00000000000e+00
  +1.00000000000e+00
  +1.00000000000e+00
  +1.00000000000e+00
