<Qucs Dataset 0.0.18>
<indep Vds 41>
  -1.00000000000e+01
  -9.50000000000e+00
  -9.00000000000e+00
  -8.50000000000e+00
  -8.00000000000e+00
  -7.50000000000e+00
  -7.00000000000e+00
  -6.50000000000e+00
  -6.00000000000e+00
  -5.50000000000e+00
  -5.00000000000e+00
  -4.50000000000e+00
  -4.00000000000e+00
  -3.50000000000e+00
  -3.00000000000e+00
  -2.50000000000e+00
  -2.00000000000e+00
  -1.50000000000e+00
  -1.00000000000e+00
  -5.00000000000e-01
  +0.00000000000e+00
  +5.00000000000e-01
  +1.00000000000e+00
  +1.50000000000e+00
  +2.00000000000e+00
  +2.50000000000e+00
  +3.00000000000e+00
  +3.50000000000e+00
  +4.00000000000e+00
  +4.50000000000e+00
  +5.00000000000e+00
  +5.50000000000e+00
  +6.00000000000e+00
  +6.50000000000e+00
  +7.00000000000e+00
  +7.50000000000e+00
  +8.00000000000e+00
  +8.50000000000e+00
  +9.00000000000e+00
  +9.50000000000e+00
  +1.00000000000e+01
</indep>
<indep Vgs 6>
  -5.00000000000e+00
  -4.00000000000e+00
  -3.00000000000e+00
  -2.00000000000e+00
  -1.00000000000e+00
  +0.00000000000e+00
</indep>
<dep Id Vds Vgs>
  -1.80000650726e-03
  -1.86000643413e-03
  -1.92000569302e-03
  -1.98000340353e-03
  -2.03999754889e-03
  -2.09998351775e-03
  -2.15995077678e-03
  -2.21987527098e-03
  -2.27970211705e-03
  -2.33930617598e-03
  -2.39840238716e-03
  -2.45634216512e-03
  -2.51165279298e-03
  -2.56100289427e-03
  -2.59691537004e-03
  -2.60288782389e-03
  -2.54381702390e-03
  -2.35091428020e-03
  -1.91242859126e-03
  -1.11704805047e-03
  +1.20239422851e-17
  +1.16263614452e-03
  +2.07178002655e-03
  +2.65100295007e-03
  +2.98618529071e-03
  +3.18126885045e-03
  +3.30512431847e-03
  +3.39477566863e-03
  +3.46842972672e-03
  +3.53469222097e-03
  +3.59755870357e-03
  +3.65886913470e-03
  +3.71946756483e-03
  +3.77974045422e-03
  +3.83986457132e-03
  +3.89992071992e-03
  +3.95994582200e-03
  +4.01995674074e-03
  +4.07996118020e-03
  +4.13996265421e-03
  +4.19996276750e-03
  -7.20005713164e-03
  -7.44005876985e-03
  -7.68005779457e-03
  -7.92005067984e-03
  -8.16002936242e-03
  -8.39997539777e-03
  -8.63984664689e-03
  -8.87954688960e-03
  -9.11885658151e-03
  -9.35727515560e-03
  -9.59366232139e-03
  -9.82542364792e-03
  -1.00466680443e-02
  -1.02440695068e-02
  -1.03877185266e-02
  -1.04116031900e-02
  -1.01753063241e-02
  -9.40366815331e-03
  -7.64968816046e-03
  -4.46814945408e-03
  +3.84952608910e-17
  +4.65047404735e-03
  +8.28701242472e-03
  +1.06038998438e-02
  +1.19446339372e-02
  +1.27249713661e-02
  +1.32203936157e-02
  +1.35789975015e-02
  +1.38736111775e-02
  +1.41386580516e-02
  +1.43901205886e-02
  +1.46353587525e-02
  +1.48777488027e-02
  +1.51188366105e-02
  +1.53593292578e-02
  +1.55995499677e-02
  +1.58396464316e-02
  +1.60796861081e-02
  +1.63196998034e-02
  +1.65597015800e-02
  +1.67996978580e-02
  -1.62002063089e-02
  -1.67402145954e-02
  -1.72802171301e-02
  -1.78202059824e-02
  -1.83601630047e-02
  -1.89000466983e-02
  -1.94397622441e-02
  -1.99790931359e-02
  -2.05175453736e-02
  -2.10539926256e-02
  -2.15858690981e-02
  -2.21073370077e-02
  -2.26051406719e-02
  -2.30492949208e-02
  -2.33724996823e-02
  -2.34262204785e-02
  -2.28945049324e-02
  -2.11582283904e-02
  -1.72116562022e-02
  -1.00531609974e-02
  +6.50131914301e-17
  +1.04633183464e-02
  +1.86454256655e-02
  +2.38584391509e-02
  +2.68751312710e-02
  +2.86309168887e-02
  +2.97456280086e-02
  +3.05524882788e-02
  +3.12153655267e-02
  +3.18117149284e-02
  +3.23774982928e-02
  +3.29292761463e-02
  +3.34746453630e-02
  +3.40170842843e-02
  +3.45581839115e-02
  +3.50986715257e-02
  +3.56388794421e-02
  +3.61789594538e-02
  +3.67189808752e-02
  +3.72589753498e-02
  +3.77989573199e-02
  -2.88005188421e-02
  -2.97605422122e-02
  -3.07205555882e-02
  -3.16805448695e-02
  -3.26404777909e-02
  -3.36002805727e-02
  -3.45597846351e-02
  -3.55186050570e-02
  -3.64758635528e-02
  -3.74295576190e-02
  -3.83751255242e-02
  -3.93021882442e-02
  -4.01871784056e-02
  -4.09767851406e-02
  -4.15513552388e-02
  -4.16468094538e-02
  -4.07014227904e-02
  -3.76144953809e-02
  -3.05980992752e-02
  -1.78718340209e-02
  +7.71780727240e-17
  +1.86008542785e-02
  +3.31466015571e-02
  +4.24142578804e-02
  +4.77773908504e-02
  +5.08988686184e-02
  +5.28806150837e-02
  +5.43150448330e-02
  +5.54934909762e-02
  +5.65536585359e-02
  +5.75594830881e-02
  +5.85404072419e-02
  +5.95099373389e-02
  +6.04742574703e-02
  +6.14361962525e-02
  +6.23970467107e-02
  +6.33573996659e-02
  +6.43175249896e-02
  +6.52775459155e-02
  +6.62375187020e-02
  +6.71974690272e-02
  -4.50010699040e-02
  -4.65011206408e-02
  -4.80011561203e-02
  -4.95011543094e-02
  -5.10010647879e-02
  -5.25007722692e-02
  -5.40000133243e-02
  -5.54981864652e-02
  -5.69939192564e-02
  -5.84840825181e-02
  -5.99615479217e-02
  -6.14100967959e-02
  -6.27929017885e-02
  -6.40266570890e-02
  -6.49243877848e-02
  -6.50734352565e-02
  -6.35960427366e-02
  -5.87723031147e-02
  -4.78086729961e-02
  -2.79238144412e-02
  +6.05927288725e-17
  +2.90626477173e-02
  +5.17899752656e-02
  +6.62708815803e-02
  +7.46510544557e-02
  +7.95285436113e-02
  +8.26251098970e-02
  +8.48664380485e-02
  +8.67077627561e-02
  +8.83642628062e-02
  +8.99358448850e-02
  +9.14685165988e-02
  +9.29833832749e-02
  +9.44901083367e-02
  +9.59931118640e-02
  +9.74944143774e-02
  +9.89949391137e-02
  +1.00495107783e-01
  +1.01995112956e-01
  +1.03495042547e-01
  +1.04994936677e-01
  -6.48019450429e-02
  -6.69620396169e-02
  -6.91221127381e-02
  -7.12821326752e-02
  -7.34420268165e-02
  -7.56016291324e-02
  -7.77605602505e-02
  -7.99179539421e-02
  -8.20718337044e-02
  -8.42176930543e-02
  -8.63452661267e-02
  -8.84311955432e-02
  -9.04224441785e-02
  -9.21990386094e-02
  -9.34917060921e-02
  -9.37061583954e-02
  -9.15783204892e-02
  -8.46314191590e-02
  -6.88429220341e-02
  -4.02086427815e-02
  -0.00000000000e+00
  +4.18481452227e-02
  +7.45748353393e-02
  +9.54277243324e-02
  +1.07495692077e-01
  +1.14519612773e-01
  +1.18978834972e-01
  +1.22206412864e-01
  +1.24857933126e-01
  +1.27243279925e-01
  +1.29506332233e-01
  +1.31713347414e-01
  +1.33894720165e-01
  +1.36064367235e-01
  +1.38228654201e-01
  +1.40390490921e-01
  +1.42551206999e-01
  +1.44711409765e-01
  +1.46871376553e-01
  +1.49031233969e-01
  +1.51191039798e-01
</dep>
<dep V2.I Vds Vgs>
  +5.12590589747e-12
  +5.12590583747e-12
  +5.12590577747e-12
  +5.12590571747e-12
  +5.12590565748e-12
  +5.12590559749e-12
  +5.12590553752e-12
  +5.12590547760e-12
  +5.12590541777e-12
  +5.12590535817e-12
  +5.12590529907e-12
  +5.12590524113e-12
  +5.12590518582e-12
  +5.12590513647e-12
  +5.12590510056e-12
  +5.12590509458e-12
  +5.12590515366e-12
  +5.12590534656e-12
  +5.12590578504e-12
  +5.12590658042e-12
  +5.12590769747e-12
  +5.12590886011e-12
  +5.12590976925e-12
  +5.12591034848e-12
  +5.12591068366e-12
  +5.12591087874e-12
  +5.12591100260e-12
  +5.12591109225e-12
  +5.12591116590e-12
  +5.12591123216e-12
  +5.12591129503e-12
  +5.12591135634e-12
  +5.12591141694e-12
  +5.12591147721e-12
  +5.12591153734e-12
  +5.12591159739e-12
  +5.12591165742e-12
  +5.12591171743e-12
  +5.12591177743e-12
  +5.12591183744e-12
  +5.12591189744e-12
  +4.10271895792e-12
  +4.10271871792e-12
  +4.10271847792e-12
  +4.10271823793e-12
  +4.10271799795e-12
  +4.10271775800e-12
  +4.10271751813e-12
  +4.10271727843e-12
  +4.10271703912e-12
  +4.10271680070e-12
  +4.10271656432e-12
  +4.10271633255e-12
  +4.10271611131e-12
  +4.10271591391e-12
  +4.10271577026e-12
  +4.10271574637e-12
  +4.10271598267e-12
  +4.10271675431e-12
  +4.10271850829e-12
  +4.10272168983e-12
  +4.10272615798e-12
  +4.10273080845e-12
  +4.10273444499e-12
  +4.10273676188e-12
  +4.10273810261e-12
  +4.10273888295e-12
  +4.10273937837e-12
  +4.10273973698e-12
  +4.10274003159e-12
  +4.10274029664e-12
  +4.10274054810e-12
  +4.10274079334e-12
  +4.10274103573e-12
  +4.10274127681e-12
  +4.10274151731e-12
  +4.10274175753e-12
  +4.10274199762e-12
  +4.10274223766e-12
  +4.10274247768e-12
  +4.10274271768e-12
  +4.10274295768e-12
  +3.07952841828e-12
  +3.07952787827e-12
  +3.07952733827e-12
  +3.07952679828e-12
  +3.07952625832e-12
  +3.07952571844e-12
  +3.07952517872e-12
  +3.07952463939e-12
  +3.07952410094e-12
  +3.07952356449e-12
  +3.07952303261e-12
  +3.07952251115e-12
  +3.07952201334e-12
  +3.07952156919e-12
  +3.07952124598e-12
  +3.07952119226e-12
  +3.07952172398e-12
  +3.07952346026e-12
  +3.07952740683e-12
  +3.07953456532e-12
  +3.07954461848e-12
  +3.07955508180e-12
  +3.07956326391e-12
  +3.07956847692e-12
  +3.07957149361e-12
  +3.07957324940e-12
  +3.07957436411e-12
  +3.07957517097e-12
  +3.07957583385e-12
  +3.07957643020e-12
  +3.07957699598e-12
  +3.07957754776e-12
  +3.07957809313e-12
  +3.07957863557e-12
  +3.07957917667e-12
  +3.07957971716e-12
  +3.07958025736e-12
  +3.07958079744e-12
  +3.07958133746e-12
  +3.07958187746e-12
  +3.07958241744e-12
  +2.05633427847e-12
  +2.05633331845e-12
  +2.05633235843e-12
  +2.05633139844e-12
  +2.05633043851e-12
  +2.05632947871e-12
  +2.05632851920e-12
  +2.05632756038e-12
  +2.05632660313e-12
  +2.05632564943e-12
  +2.05632470386e-12
  +2.05632377680e-12
  +2.05632289181e-12
  +2.05632210220e-12
  +2.05632152763e-12
  +2.05632143218e-12
  +2.05632237757e-12
  +2.05632546449e-12
  +2.05633248089e-12
  +2.05634520716e-12
  +2.05636307899e-12
  +2.05638167984e-12
  +2.05639622559e-12
  +2.05640549325e-12
  +2.05641085638e-12
  +2.05641397786e-12
  +2.05641595960e-12
  +2.05641739403e-12
  +2.05641857248e-12
  +2.05641963265e-12
  +2.05642063847e-12
  +2.05642161940e-12
  +2.05642258893e-12
  +2.05642355325e-12
  +2.05642451519e-12
  +2.05642547604e-12
  +2.05642643639e-12
  +2.05642739651e-12
  +2.05642835653e-12
  +2.05642931651e-12
  +2.05643027646e-12
  +1.03313653842e-12
  +1.03313503837e-12
  +1.03313353834e-12
  +1.03313203834e-12
  +1.03313053843e-12
  +1.03312903872e-12
  +1.03312753948e-12
  +1.03312604131e-12
  +1.03312454558e-12
  +1.03312305541e-12
  +1.03312157795e-12
  +1.03312012940e-12
  +1.03311874659e-12
  +1.03311751284e-12
  +1.03311661511e-12
  +1.03311646606e-12
  +1.03311794345e-12
  +1.03312276719e-12
  +1.03313373082e-12
  +1.03315361568e-12
  +1.03318153949e-12
  +1.03321060214e-12
  +1.03323332947e-12
  +1.03324781038e-12
  +1.03325619055e-12
  +1.03326106804e-12
  +1.03326416460e-12
  +1.03326640593e-12
  +1.03326824726e-12
  +1.03326990376e-12
  +1.03327147534e-12
  +1.03327300801e-12
  +1.03327452288e-12
  +1.03327602960e-12
  +1.03327753261e-12
  +1.03327903391e-12
  +1.03328053443e-12
  +1.03328203460e-12
  +1.03328353461e-12
  +1.03328503454e-12
  +1.03328653443e-12
  -8.98873115699e-17
  -9.28846794345e-17
  -9.58820874559e-17
  -9.88794916054e-17
  -1.01876791120e-16
  -1.04873755584e-16
  -1.07869858488e-16
  -1.10863897600e-16
  -1.13853129685e-16
  -1.16831299931e-16
  -1.19784159405e-16
  -1.22679287542e-16
  -1.25443066081e-16
  -1.27908962827e-16
  -1.29703203174e-16
  -1.30000868362e-16
  -1.27047406398e-16
  -1.17405505232e-16
  -9.54946667948e-17
  -5.57663388319e-17
  +0.00000000000e+00
  +5.80145401819e-17
  +1.03365694327e-16
  +1.32254348843e-16
  +1.48969809894e-16
  +1.58697713514e-16
  +1.64873211407e-16
  +1.69342842323e-16
  +1.73014618207e-16
  +1.76317712673e-16
  +1.79451382350e-16
  +1.82507383527e-16
  +1.85527807063e-16
  +1.88531924522e-16
  +1.91528550583e-16
  +1.94521714560e-16
  +1.97513257529e-16
  +2.00504020432e-16
  +2.03494387273e-16
  +2.06484533358e-16
  +2.09474538696e-16
</dep>
<dep V1.I Vds Vgs>
  +1.80000650726e-03
  +1.86000643413e-03
  +1.92000569302e-03
  +1.98000340353e-03
  +2.03999754889e-03
  +2.09998351775e-03
  +2.15995077678e-03
  +2.21987527098e-03
  +2.27970211705e-03
  +2.33930617598e-03
  +2.39840238716e-03
  +2.45634216512e-03
  +2.51165279298e-03
  +2.56100289427e-03
  +2.59691537004e-03
  +2.60288782389e-03
  +2.54381702390e-03
  +2.35091428020e-03
  +1.91242859126e-03
  +1.11704805047e-03
  -1.20239422851e-17
  -1.16263614452e-03
  -2.07178002655e-03
  -2.65100295007e-03
  -2.98618529071e-03
  -3.18126885045e-03
  -3.30512431847e-03
  -3.39477566863e-03
  -3.46842972672e-03
  -3.53469222097e-03
  -3.59755870357e-03
  -3.65886913470e-03
  -3.71946756483e-03
  -3.77974045422e-03
  -3.83986457132e-03
  -3.89992071992e-03
  -3.95994582200e-03
  -4.01995674074e-03
  -4.07996118020e-03
  -4.13996265421e-03
  -4.19996276750e-03
  +7.20005713164e-03
  +7.44005876985e-03
  +7.68005779457e-03
  +7.92005067984e-03
  +8.16002936242e-03
  +8.39997539777e-03
  +8.63984664689e-03
  +8.87954688960e-03
  +9.11885658151e-03
  +9.35727515560e-03
  +9.59366232139e-03
  +9.82542364792e-03
  +1.00466680443e-02
  +1.02440695068e-02
  +1.03877185266e-02
  +1.04116031900e-02
  +1.01753063241e-02
  +9.40366815331e-03
  +7.64968816046e-03
  +4.46814945408e-03
  -3.84952608910e-17
  -4.65047404735e-03
  -8.28701242472e-03
  -1.06038998438e-02
  -1.19446339372e-02
  -1.27249713661e-02
  -1.32203936157e-02
  -1.35789975015e-02
  -1.38736111775e-02
  -1.41386580516e-02
  -1.43901205886e-02
  -1.46353587525e-02
  -1.48777488027e-02
  -1.51188366105e-02
  -1.53593292578e-02
  -1.55995499677e-02
  -1.58396464316e-02
  -1.60796861081e-02
  -1.63196998034e-02
  -1.65597015800e-02
  -1.67996978580e-02
  +1.62002063089e-02
  +1.67402145954e-02
  +1.72802171301e-02
  +1.78202059824e-02
  +1.83601630047e-02
  +1.89000466983e-02
  +1.94397622441e-02
  +1.99790931359e-02
  +2.05175453736e-02
  +2.10539926256e-02
  +2.15858690981e-02
  +2.21073370077e-02
  +2.26051406719e-02
  +2.30492949208e-02
  +2.33724996823e-02
  +2.34262204785e-02
  +2.28945049324e-02
  +2.11582283904e-02
  +1.72116562022e-02
  +1.00531609974e-02
  -6.50131914301e-17
  -1.04633183464e-02
  -1.86454256655e-02
  -2.38584391509e-02
  -2.68751312710e-02
  -2.86309168887e-02
  -2.97456280086e-02
  -3.05524882788e-02
  -3.12153655267e-02
  -3.18117149284e-02
  -3.23774982928e-02
  -3.29292761463e-02
  -3.34746453630e-02
  -3.40170842843e-02
  -3.45581839115e-02
  -3.50986715257e-02
  -3.56388794421e-02
  -3.61789594538e-02
  -3.67189808752e-02
  -3.72589753498e-02
  -3.77989573199e-02
  +2.88005188421e-02
  +2.97605422122e-02
  +3.07205555882e-02
  +3.16805448695e-02
  +3.26404777909e-02
  +3.36002805727e-02
  +3.45597846351e-02
  +3.55186050570e-02
  +3.64758635528e-02
  +3.74295576190e-02
  +3.83751255242e-02
  +3.93021882442e-02
  +4.01871784056e-02
  +4.09767851406e-02
  +4.15513552388e-02
  +4.16468094538e-02
  +4.07014227904e-02
  +3.76144953809e-02
  +3.05980992752e-02
  +1.78718340209e-02
  -7.71780727240e-17
  -1.86008542785e-02
  -3.31466015571e-02
  -4.24142578804e-02
  -4.77773908504e-02
  -5.08988686184e-02
  -5.28806150837e-02
  -5.43150448330e-02
  -5.54934909762e-02
  -5.65536585359e-02
  -5.75594830881e-02
  -5.85404072419e-02
  -5.95099373389e-02
  -6.04742574703e-02
  -6.14361962525e-02
  -6.23970467107e-02
  -6.33573996659e-02
  -6.43175249896e-02
  -6.52775459155e-02
  -6.62375187020e-02
  -6.71974690272e-02
  +4.50010699040e-02
  +4.65011206408e-02
  +4.80011561203e-02
  +4.95011543094e-02
  +5.10010647879e-02
  +5.25007722692e-02
  +5.40000133243e-02
  +5.54981864652e-02
  +5.69939192564e-02
  +5.84840825181e-02
  +5.99615479217e-02
  +6.14100967959e-02
  +6.27929017885e-02
  +6.40266570890e-02
  +6.49243877848e-02
  +6.50734352565e-02
  +6.35960427366e-02
  +5.87723031147e-02
  +4.78086729961e-02
  +2.79238144412e-02
  -6.05927288725e-17
  -2.90626477173e-02
  -5.17899752656e-02
  -6.62708815803e-02
  -7.46510544557e-02
  -7.95285436113e-02
  -8.26251098970e-02
  -8.48664380485e-02
  -8.67077627561e-02
  -8.83642628062e-02
  -8.99358448850e-02
  -9.14685165988e-02
  -9.29833832749e-02
  -9.44901083367e-02
  -9.59931118640e-02
  -9.74944143774e-02
  -9.89949391137e-02
  -1.00495107783e-01
  -1.01995112956e-01
  -1.03495042547e-01
  -1.04994936677e-01
  +6.48019450429e-02
  +6.69620396169e-02
  +6.91221127381e-02
  +7.12821326752e-02
  +7.34420268165e-02
  +7.56016291324e-02
  +7.77605602505e-02
  +7.99179539421e-02
  +8.20718337044e-02
  +8.42176930543e-02
  +8.63452661267e-02
  +8.84311955432e-02
  +9.04224441785e-02
  +9.21990386094e-02
  +9.34917060921e-02
  +9.37061583954e-02
  +9.15783204892e-02
  +8.46314191590e-02
  +6.88429220341e-02
  +4.02086427815e-02
  +0.00000000000e+00
  -4.18481452227e-02
  -7.45748353393e-02
  -9.54277243324e-02
  -1.07495692077e-01
  -1.14519612773e-01
  -1.18978834972e-01
  -1.22206412864e-01
  -1.24857933126e-01
  -1.27243279925e-01
  -1.29506332233e-01
  -1.31713347414e-01
  -1.33894720165e-01
  -1.36064367235e-01
  -1.38228654201e-01
  -1.40390490921e-01
  -1.42551206999e-01
  -1.44711409765e-01
  -1.46871376553e-01
  -1.49031233969e-01
  -1.51191039798e-01
</dep>
<dep Pr1.I Vds Vgs>
  -1.80000650726e-03
  -1.86000643413e-03
  -1.92000569302e-03
  -1.98000340353e-03
  -2.03999754889e-03
  -2.09998351775e-03
  -2.15995077678e-03
  -2.21987527098e-03
  -2.27970211705e-03
  -2.33930617598e-03
  -2.39840238716e-03
  -2.45634216512e-03
  -2.51165279298e-03
  -2.56100289427e-03
  -2.59691537004e-03
  -2.60288782389e-03
  -2.54381702390e-03
  -2.35091428020e-03
  -1.91242859126e-03
  -1.11704805047e-03
  +1.20239422851e-17
  +1.16263614452e-03
  +2.07178002655e-03
  +2.65100295007e-03
  +2.98618529071e-03
  +3.18126885045e-03
  +3.30512431847e-03
  +3.39477566863e-03
  +3.46842972672e-03
  +3.53469222097e-03
  +3.59755870357e-03
  +3.65886913470e-03
  +3.71946756483e-03
  +3.77974045422e-03
  +3.83986457132e-03
  +3.89992071992e-03
  +3.95994582200e-03
  +4.01995674074e-03
  +4.07996118020e-03
  +4.13996265421e-03
  +4.19996276750e-03
  -7.20005713164e-03
  -7.44005876985e-03
  -7.68005779457e-03
  -7.92005067984e-03
  -8.16002936242e-03
  -8.39997539777e-03
  -8.63984664689e-03
  -8.87954688960e-03
  -9.11885658151e-03
  -9.35727515560e-03
  -9.59366232139e-03
  -9.82542364792e-03
  -1.00466680443e-02
  -1.02440695068e-02
  -1.03877185266e-02
  -1.04116031900e-02
  -1.01753063241e-02
  -9.40366815331e-03
  -7.64968816046e-03
  -4.46814945408e-03
  +3.84952608910e-17
  +4.65047404735e-03
  +8.28701242472e-03
  +1.06038998438e-02
  +1.19446339372e-02
  +1.27249713661e-02
  +1.32203936157e-02
  +1.35789975015e-02
  +1.38736111775e-02
  +1.41386580516e-02
  +1.43901205886e-02
  +1.46353587525e-02
  +1.48777488027e-02
  +1.51188366105e-02
  +1.53593292578e-02
  +1.55995499677e-02
  +1.58396464316e-02
  +1.60796861081e-02
  +1.63196998034e-02
  +1.65597015800e-02
  +1.67996978580e-02
  -1.62002063089e-02
  -1.67402145954e-02
  -1.72802171301e-02
  -1.78202059824e-02
  -1.83601630047e-02
  -1.89000466983e-02
  -1.94397622441e-02
  -1.99790931359e-02
  -2.05175453736e-02
  -2.10539926256e-02
  -2.15858690981e-02
  -2.21073370077e-02
  -2.26051406719e-02
  -2.30492949208e-02
  -2.33724996823e-02
  -2.34262204785e-02
  -2.28945049324e-02
  -2.11582283904e-02
  -1.72116562022e-02
  -1.00531609974e-02
  +6.50131914301e-17
  +1.04633183464e-02
  +1.86454256655e-02
  +2.38584391509e-02
  +2.68751312710e-02
  +2.86309168887e-02
  +2.97456280086e-02
  +3.05524882788e-02
  +3.12153655267e-02
  +3.18117149284e-02
  +3.23774982928e-02
  +3.29292761463e-02
  +3.34746453630e-02
  +3.40170842843e-02
  +3.45581839115e-02
  +3.50986715257e-02
  +3.56388794421e-02
  +3.61789594538e-02
  +3.67189808752e-02
  +3.72589753498e-02
  +3.77989573199e-02
  -2.88005188421e-02
  -2.97605422122e-02
  -3.07205555882e-02
  -3.16805448695e-02
  -3.26404777909e-02
  -3.36002805727e-02
  -3.45597846351e-02
  -3.55186050570e-02
  -3.64758635528e-02
  -3.74295576190e-02
  -3.83751255242e-02
  -3.93021882442e-02
  -4.01871784056e-02
  -4.09767851406e-02
  -4.15513552388e-02
  -4.16468094538e-02
  -4.07014227904e-02
  -3.76144953809e-02
  -3.05980992752e-02
  -1.78718340209e-02
  +7.71780727240e-17
  +1.86008542785e-02
  +3.31466015571e-02
  +4.24142578804e-02
  +4.77773908504e-02
  +5.08988686184e-02
  +5.28806150837e-02
  +5.43150448330e-02
  +5.54934909762e-02
  +5.65536585359e-02
  +5.75594830881e-02
  +5.85404072419e-02
  +5.95099373389e-02
  +6.04742574703e-02
  +6.14361962525e-02
  +6.23970467107e-02
