<Qucs Dataset 0.0.19>
<indep acfrequency 4>
  +1.20000000000000000000e+02
  +6.00000000000000000000e+01
  +5.00000000000000000000e+01
  +3.00000000000000000000e+01
</indep>
<dep VSource.v acfrequency>
  +1.20000000000000000000e+02
  +1.20000000000000000000e+02
  +1.20000000000000000000e+02
  +1.20000000000000000000e+02
</dep>
<dep Pr1.S acfrequency>
  +3.60000000000000000000e+01-j5.72986273018274118840e+02
  +3.60000000000000000000e+01-j7.10954691667223528384e+01
  +3.60000000000000000000e+01+j4.60593019506896581561e+01
  +3.60000000000000000000e+01+j3.95247600101468265166e+02
</dep>
<dep Pr1.P acfrequency>
  +3.60000000000000000000e+01
  +3.60000000000000000000e+01
  +3.60000000000000000000e+01
  +3.60000000000000000000e+01
</dep>
<dep Pr1.Q acfrequency>
  -5.72986273018274118840e+02
  -7.10954691667223528384e+01
  +4.60593019506896581561e+01
  +3.95247600101468265166e+02
</dep>
<dep Pr1.PF acfrequency>
  +6.27050895908363298270e-02
  +4.51748056513422924230e-01
  +6.15815797250838459220e-01
  +9.07066747229813008513e-02
</dep>
<dep Pr1.v acfrequency>
  +1.20000000000000000000e+02
  +1.20000000000000000000e+02
  +1.20000000000000000000e+02
  +1.20000000000000000000e+02
</dep>
<dep Vp2.v acfrequency>
  +2.30000000000000000000e+02
  +2.30000000000000000000e+02
  +2.30000000000000000000e+02
  +2.30000000000000000000e+02
</dep>
<dep Vp1.v acfrequency>
  -1.14999999999999943157e+02+j1.99185842870420941608e+02
  -1.14999999999999943157e+02+j1.99185842870420941608e+02
  -1.14999999999999943157e+02+j1.99185842870420941608e+02
  -1.14999999999999943157e+02+j1.99185842870420941608e+02
</dep>
<dep Vp3.v acfrequency>
  -1.14999999999999943157e+02-j1.99185842870420941608e+02
  -1.14999999999999943157e+02-j1.99185842870420941608e+02
  -1.14999999999999943157e+02-j1.99185842870420941608e+02
  -1.14999999999999943157e+02-j1.99185842870420941608e+02
</dep>
<dep iT.i acfrequency>
  +2.99999999999999988898e-01+j4.77488560848561771621e+00
  +2.99999999999999988898e-01+j5.92462243056019577381e-01
  +2.99999999999999988898e-01-j3.83827516255747180907e-01
  +2.99999999999999988898e-01-j3.29373000084556899481e+00
</dep>
<dep iR.i acfrequency>
  +2.99999999999999988898e-01
  +2.99999999999999988898e-01
  +2.99999999999999988898e-01
  +2.99999999999999988898e-01
</dep>
<dep iL.i acfrequency>
  +0.00000000000000000000e+00-j1.19665370745785959450e+00
  +0.00000000000000000000e+00-j2.39330741491571918900e+00
  +0.00000000000000000000e+00-j2.87196889789886311561e+00
  +0.00000000000000000000e+00-j4.78661482983143837799e+00
</dep>
<dep iC.i acfrequency>
  +0.00000000000000000000e+00+j5.97153931594347753276e+00
  +0.00000000000000000000e+00+j2.98576965797173876638e+00
  +0.00000000000000000000e+00+j2.48814138164311593471e+00
  +0.00000000000000000000e+00+j1.49288482898586938319e+00
</dep>
<dep Pr1.i acfrequency>
  +2.99999999999999988898e-01+j4.77488560848561771621e+00
  +2.99999999999999988898e-01+j5.92462243056019577381e-01
  +2.99999999999999988898e-01-j3.83827516255747180907e-01
  +2.99999999999999988898e-01-j3.29373000084556899481e+00
</dep>
<dep I1.i acfrequency>
  -1.56802741786159538506e+00+j1.57592623794371977652e+00
  -1.72204738479329777512e+00+j1.07828391694312752946e+00
  -1.72068791468878634632e+00+j8.96434480139385536646e-01
  -1.53515916705589017255e+00+j3.63003962905664723237e-01
</dep>
<dep I2.i acfrequency>
  +2.14880586548049867801e+00+j5.69988458726799596121e-01
  +1.79484495696158652400e+00+j9.52194823279989166487e-01
  +1.63667898997339777978e+00+j1.04194220603566778394e+00
  +1.08195023707867421514e+00+j1.14798485607012756837e+00
</dep>
<dep I3.i acfrequency>
  -5.80778447618902182725e-01-j2.14591469667051892856e+00
  -7.27975721682878607055e-02-j2.03047874022311614084e+00
  +8.40089247153896767628e-02-j1.93837668617505287649e+00
  +4.53208929977216179452e-01-j1.51098881897579184752e+00
</dep>
<dep Vt.i acfrequency>
  -2.99999999999999988898e-01-j4.77488560848561771621e+00
  -2.99999999999999988898e-01-j5.92462243056019577381e-01
  -2.99999999999999988898e-01+j3.83827516255747180907e-01
  -2.99999999999999988898e-01+j3.29373000084556899481e+00
</dep>
<dep V1.i acfrequency>
  +1.56802741786159538506e+00-j1.57592623794371977652e+00
  +1.72204738479329777512e+00-j1.07828391694312752946e+00
  +1.72068791468878634632e+00-j8.96434480139385536646e-01
  +1.53515916705589017255e+00-j3.63003962905664723237e-01
</dep>
<dep V2.i acfrequency>
  -2.14880586548049867801e+00-j5.69988458726799596121e-01
  -1.79484495696158652400e+00-j9.52194823279989166487e-01
  -1.63667898997339777978e+00-j1.04194220603566778394e+00
  -1.08195023707867421514e+00-j1.14798485607012756837e+00
</dep>
<dep V3.i acfrequency>
  +5.80778447618902182725e-01+j2.14591469667051892856e+00
  +7.27975721682878607055e-02+j2.03047874022311614084e+00
  -8.40089247153896767628e-02+j1.93837668617505287649e+00
  -4.53208929977216179452e-01+j1.51098881897579184752e+00
</dep>
<dep _net14.v acfrequency>
  -5.69221552381097239959e+01+j1.54056267966309512474e+01
  -1.07720242783171158862e+02+j3.86203115189066981117e+00
  -1.23400892471538909945e+02-j5.34817425291565662349e+00
  -1.60320892997721557549e+02-j4.80869609728417586325e+01
</dep>
<dep _net11.v acfrequency>
  -1.14999999999999943157e+02-j1.99185842870420941608e+02
  -1.14999999999999943157e+02-j1.99185842870420941608e+02
  -1.14999999999999943157e+02-j1.99185842870420941608e+02
  -1.14999999999999943157e+02-j1.99185842870420941608e+02
</dep>
<dep _net10.v acfrequency>
  -1.14999999999999943157e+02-j1.99185842870420941608e+02
  -1.14999999999999943157e+02-j1.99185842870420941608e+02
  -1.14999999999999943157e+02-j1.99185842870420941608e+02
  -1.14999999999999943157e+02-j1.99185842870420941608e+02
</dep>
<dep _net9.v acfrequency>
  +2.30000000000000000000e+02
  +2.30000000000000000000e+02
  +2.30000000000000000000e+02
  +2.30000000000000000000e+02
</dep>
<dep _net12.v acfrequency>
  +1.51194134519501552916e+01-j5.69988458726799578358e+01
  +5.05155043038413467116e+01-j9.52194823279989179809e+01
  +6.63321010026602380094e+01-j1.04194220603566762406e+02
  +1.21804976292132565163e+02-j1.14798485607012750620e+02
</dep>
<dep _net13.v acfrequency>
  +4.18027417861595793624e+01+j4.15932190760489675085e+01
  +5.72047384793298334671e+01+j9.13574511761081851091e+01
  +5.70687914688787003570e+01+j1.09542394856482388832e+02
  +3.85159167055890563347e+01+j1.62885446579854459515e+02
</dep>
<dep _net8.v acfrequency>
  -1.14999999999999943157e+02+j1.99185842870420941608e+02
  -1.14999999999999943157e+02+j1.99185842870420941608e+02
  -1.14999999999999943157e+02+j1.99185842870420941608e+02
  -1.14999999999999943157e+02+j1.99185842870420941608e+02
</dep>
<dep _net7.v acfrequency>
  -1.14999999999999943157e+02+j1.99185842870420941608e+02
  -1.14999999999999943157e+02+j1.99185842870420941608e+02
  -1.14999999999999943157e+02+j1.99185842870420941608e+02
  -1.14999999999999943157e+02+j1.99185842870420941608e+02
</dep>
<dep _net5.v acfrequency>
  +1.20000000000000000000e+02
  +1.20000000000000000000e+02
  +1.20000000000000000000e+02
  +1.20000000000000000000e+02
</dep>
<dep _net4.v acfrequency>
  +1.20000000000000000000e+02
  +1.20000000000000000000e+02
  +1.20000000000000000000e+02
  +1.20000000000000000000e+02
</dep>
<dep _net3.v acfrequency>
  +1.20000000000000000000e+02
  +1.20000000000000000000e+02
  +1.20000000000000000000e+02
  +1.20000000000000000000e+02
</dep>
<dep _net6.v acfrequency>
  +2.30000000000000000000e+02
  +2.30000000000000000000e+02
  +2.30000000000000000000e+02
  +2.30000000000000000000e+02
</dep>
<dep _net0.v acfrequency>
  +1.20000000000000000000e+02
  +1.20000000000000000000e+02
  +1.20000000000000000000e+02
  +1.20000000000000000000e+02
</dep>
<dep _net1.v acfrequency>
  +1.20000000000000000000e+02
  +1.20000000000000000000e+02
  +1.20000000000000000000e+02
  +1.20000000000000000000e+02
</dep>
<dep _net2.v acfrequency>
  +1.20000000000000000000e+02
  +1.20000000000000000000e+02
  +1.20000000000000000000e+02
  +1.20000000000000000000e+02
</dep>
