<Qucs Dataset 0.0.17>
<indep frequency 300>
  +1.00000000000e+06
  +1.49832775920e+06
  +1.99665551839e+06
  +2.49498327759e+06
  +2.99331103679e+06
  +3.49163879599e+06
  +3.98996655518e+06
  +4.48829431438e+06
  +4.98662207358e+06
  +5.48494983278e+06
  +5.98327759197e+06
  +6.48160535117e+06
  +6.97993311037e+06
  +7.47826086957e+06
  +7.97658862876e+06
  +8.47491638796e+06
  +8.97324414716e+06
  +9.47157190635e+06
  +9.96989966555e+06
  +1.04682274247e+07
  +1.09665551839e+07
  +1.14648829431e+07
  +1.19632107023e+07
  +1.24615384615e+07
  +1.29598662207e+07
  +1.34581939799e+07
  +1.39565217391e+07
  +1.44548494983e+07
  +1.49531772575e+07
  +1.54515050167e+07
  +1.59498327759e+07
  +1.64481605351e+07
  +1.69464882943e+07
  +1.74448160535e+07
  +1.79431438127e+07
  +1.84414715719e+07
  +1.89397993311e+07
  +1.94381270903e+07
  +1.99364548495e+07
  +2.04347826087e+07
  +2.09331103679e+07
  +2.14314381271e+07
  +2.19297658863e+07
  +2.24280936455e+07
  +2.29264214047e+07
  +2.34247491639e+07
  +2.39230769231e+07
  +2.44214046823e+07
  +2.49197324415e+07
  +2.54180602007e+07
  +2.59163879599e+07
  +2.64147157191e+07
  +2.69130434783e+07
  +2.74113712375e+07
  +2.79096989967e+07
  +2.84080267559e+07
  +2.89063545151e+07
  +2.94046822742e+07
  +2.99030100334e+07
  +3.04013377926e+07
  +3.08996655518e+07
  +3.13979933110e+07
  +3.18963210702e+07
  +3.23946488294e+07
  +3.28929765886e+07
  +3.33913043478e+07
  +3.38896321070e+07
  +3.43879598662e+07
  +3.48862876254e+07
  +3.53846153846e+07
  +3.58829431438e+07
  +3.63812709030e+07
  +3.68795986622e+07
  +3.73779264214e+07
  +3.78762541806e+07
  +3.83745819398e+07
  +3.88729096990e+07
  +3.93712374582e+07
  +3.98695652174e+07
  +4.03678929766e+07
  +4.08662207358e+07
  +4.13645484950e+07
  +4.18628762542e+07
  +4.23612040134e+07
  +4.28595317726e+07
  +4.33578595318e+07
  +4.38561872910e+07
  +4.43545150502e+07
  +4.48528428094e+07
  +4.53511705686e+07
  +4.58494983278e+07
  +4.63478260870e+07
  +4.68461538462e+07
  +4.73444816054e+07
  +4.78428093645e+07
  +4.83411371237e+07
  +4.88394648829e+07
  +4.93377926421e+07
  +4.98361204013e+07
  +5.03344481605e+07
  +5.08327759197e+07
  +5.13311036789e+07
  +5.18294314381e+07
  +5.23277591973e+07
  +5.28260869565e+07
  +5.33244147157e+07
  +5.38227424749e+07
  +5.43210702341e+07
  +5.48193979933e+07
  +5.53177257525e+07
  +5.58160535117e+07
  +5.63143812709e+07
  +5.68127090301e+07
  +5.73110367893e+07
  +5.78093645485e+07
  +5.83076923077e+07
  +5.88060200669e+07
  +5.93043478261e+07
  +5.98026755853e+07
  +6.03010033445e+07
  +6.07993311037e+07
  +6.12976588629e+07
  +6.17959866221e+07
  +6.22943143813e+07
  +6.27926421405e+07
  +6.32909698997e+07
  +6.37892976589e+07
  +6.42876254181e+07
  +6.47859531773e+07
  +6.52842809365e+07
  +6.57826086957e+07
  +6.62809364548e+07
  +6.67792642140e+07
  +6.72775919732e+07
  +6.77759197324e+07
  +6.82742474916e+07
  +6.87725752508e+07
  +6.92709030100e+07
  +6.97692307692e+07
  +7.02675585284e+07
  +7.07658862876e+07
  +7.12642140468e+07
  +7.17625418060e+07
  +7.22608695652e+07
  +7.27591973244e+07
  +7.32575250836e+07
  +7.37558528428e+07
  +7.42541806020e+07
  +7.47525083612e+07
  +7.52508361204e+07
  +7.57491638796e+07
  +7.62474916388e+07
  +7.67458193980e+07
  +7.72441471572e+07
  +7.77424749164e+07
  +7.82408026756e+07
  +7.87391304348e+07
  +7.92374581940e+07
  +7.97357859532e+07
  +8.02341137124e+07
  +8.07324414716e+07
  +8.12307692308e+07
  +8.17290969900e+07
  +8.22274247492e+07
  +8.27257525084e+07
  +8.32240802676e+07
  +8.37224080268e+07
  +8.42207357860e+07
  +8.47190635452e+07
  +8.52173913043e+07
  +8.57157190635e+07
  +8.62140468227e+07
  +8.67123745819e+07
  +8.72107023411e+07
  +8.77090301003e+07
  +8.82073578595e+07
  +8.87056856187e+07
  +8.92040133779e+07
  +8.97023411371e+07
  +9.02006688963e+07
  +9.06989966555e+07
  +9.11973244147e+07
  +9.16956521739e+07
  +9.21939799331e+07
  +9.26923076923e+07
  +9.31906354515e+07
  +9.36889632107e+07
  +9.41872909699e+07
  +9.46856187291e+07
  +9.51839464883e+07
  +9.56822742475e+07
  +9.61806020067e+07
  +9.66789297659e+07
  +9.71772575251e+07
  +9.76755852843e+07
  +9.81739130435e+07
  +9.86722408027e+07
  +9.91705685619e+07
  +9.96688963211e+07
  +1.00167224080e+08
  +1.00665551839e+08
  +1.01163879599e+08
  +1.01662207358e+08
  +1.02160535117e+08
  +1.02658862876e+08
  +1.03157190635e+08
  +1.03655518395e+08
  +1.04153846154e+08
  +1.04652173913e+08
  +1.05150501672e+08
  +1.05648829431e+08
  +1.06147157191e+08
  +1.06645484950e+08
  +1.07143812709e+08
  +1.07642140468e+08
  +1.08140468227e+08
  +1.08638795987e+08
  +1.09137123746e+08
  +1.09635451505e+08
  +1.10133779264e+08
  +1.10632107023e+08
  +1.11130434783e+08
  +1.11628762542e+08
  +1.12127090301e+08
  +1.12625418060e+08
  +1.13123745819e+08
  +1.13622073579e+08
  +1.14120401338e+08
  +1.14618729097e+08
  +1.15117056856e+08
  +1.15615384615e+08
  +1.16113712375e+08
  +1.16612040134e+08
  +1.17110367893e+08
  +1.17608695652e+08
  +1.18107023411e+08
  +1.18605351171e+08
  +1.19103678930e+08
  +1.19602006689e+08
  +1.20100334448e+08
  +1.20598662207e+08
  +1.21096989967e+08
  +1.21595317726e+08
  +1.22093645485e+08
  +1.22591973244e+08
  +1.23090301003e+08
  +1.23588628763e+08
  +1.24086956522e+08
  +1.24585284281e+08
  +1.25083612040e+08
  +1.25581939799e+08
  +1.26080267559e+08
  +1.26578595318e+08
  +1.27076923077e+08
  +1.27575250836e+08
  +1.28073578595e+08
  +1.28571906355e+08
  +1.29070234114e+08
  +1.29568561873e+08
  +1.30066889632e+08
  +1.30565217391e+08
  +1.31063545151e+08
  +1.31561872910e+08
  +1.32060200669e+08
  +1.32558528428e+08
  +1.33056856187e+08
  +1.33555183946e+08
  +1.34053511706e+08
  +1.34551839465e+08
  +1.35050167224e+08
  +1.35548494983e+08
  +1.36046822742e+08
  +1.36545150502e+08
  +1.37043478261e+08
  +1.37541806020e+08
  +1.38040133779e+08
  +1.38538461538e+08
  +1.39036789298e+08
  +1.39535117057e+08
  +1.40033444816e+08
  +1.40531772575e+08
  +1.41030100334e+08
  +1.41528428094e+08
  +1.42026755853e+08
  +1.42525083612e+08
  +1.43023411371e+08
  +1.43521739130e+08
  +1.44020066890e+08
  +1.44518394649e+08
  +1.45016722408e+08
  +1.45515050167e+08
  +1.46013377926e+08
  +1.46511705686e+08
  +1.47010033445e+08
  +1.47508361204e+08
  +1.48006688963e+08
  +1.48505016722e+08
  +1.49003344482e+08
  +1.49501672241e+08
  +1.50000000000e+08
</indep>
<dep S21_dB frequency>
  -1.28612471403e-03
  -2.88564781279e-03
  -5.12013634227e-03
  -7.98647485590e-03
  -1.14806713594e-02
  -1.55978661176e-02
  -2.03323423206e-02
  -2.56775385566e-02
  -3.16260630239e-02
  -3.81697094140e-02
  -4.52994743826e-02
  -5.30055765239e-02
  -6.12774767546e-02
  -7.01039000087e-02
  -7.94728581410e-02
  -8.93716739311e-02
  -9.97870060788e-02
  -1.10704875078e-01
  -1.22110689859e-01
  -1.33989275073e-01
  -1.46324898928e-01
  -1.59101301435e-01
  -1.72301722974e-01
  -1.85908933068e-01
  -1.99905259244e-01
  -2.14272615901e-01
  -2.28992533068e-01
  -2.44046184971e-01
  -2.59414418313e-01
  -2.75077780187e-01
  -2.91016545542e-01
  -3.07210744133e-01
  -3.23640186886e-01
  -3.40284491625e-01
  -3.57123108094e-01
  -3.74135342244e-01
  -3.91300379734e-01
  -4.08597308605e-01
  -4.26005141121e-01
  -4.43502834723e-01
  -4.61069312114e-01
  -4.78683480427e-01
  -4.96324249502e-01
  -5.13970549258e-01
  -5.31601346151e-01
  -5.49195658762e-01
  -5.66732572485e-01
  -5.84191253372e-01
  -6.01550961132e-01
  -6.18791061315e-01
  -6.35891036719e-01
  -6.52830498042e-01
  -6.69589193815e-01
  -6.86147019661e-01
  -7.02484026918e-01
  -7.18580430667e-01
  -7.34416617207e-01
  -7.49973151042e-01
  -7.65230781410e-01
  -7.80170448418e-01
  -7.94773288835e-01
  -8.09020641600e-01
  -8.22894053097e-01
  -8.36375282273e-01
  -8.49446305639e-01
  -8.62089322240e-01
  -8.74286758640e-01
  -8.86021274013e-01
  -8.97275765389e-01
  -9.08033373147e-01
  -9.18277486810e-01
  -9.27991751249e-01
  -9.37160073352e-01
  -9.45766629256e-01
  -9.53795872228e-01
  -9.61232541292e-01
  -9.68061670693e-01
  -9.74268600299e-01
  -9.79838987056e-01
  -9.84758817594e-01
  -9.89014422115e-01
  -9.92592489680e-01
  -9.95480085014e-01
  -9.97664666986e-01
  -9.99134108892e-01
  -9.99876720694e-01
  -9.99881273382e-01
  -9.99137025610e-01
  -9.97633752806e-01
  -9.95361778915e-01
  -9.92312010989e-01
  -9.88475976818e-01
  -9.83845865820e-01
  -9.78414573406e-01
  -9.72175749066e-01
  -9.65123848400e-01
  -9.57254189365e-01
  -9.48563012976e-01
  -9.39047548743e-01
  -9.28706085107e-01
  -9.17538045153e-01
  -9.05544067874e-01
  -8.92726095268e-01
  -8.79087465539e-01
  -8.64633012658e-01
  -8.49369172541e-01
  -8.33304096081e-01
  -8.16447769226e-01
  -7.98812140280e-01
  -7.80411254560e-01
  -7.61261396473e-01
  -7.41381239021e-01
  -7.20792000657e-01
  -6.99517609315e-01
  -6.77584873317e-01
  -6.55023658728e-01
  -6.31867072560e-01
  -6.08151651036e-01
  -5.83917551916e-01
  -5.59208749632e-01
  -5.34073231692e-01
  -5.08563194506e-01
  -4.82735236419e-01
  -4.56650545362e-01
  -4.30375078071e-01
  -4.03979727393e-01
  -3.77540473663e-01
  -3.51138515633e-01
  -3.24860375853e-01
  -2.98797974858e-01
  -2.73048667942e-01
  -2.47715237732e-01
  -2.22905835271e-01
  -1.98733861847e-01
  -1.75317783417e-01
  -1.52780869223e-01
  -1.31250846071e-01
  -1.10859459799e-01
  -9.17419357517e-02
  -7.40363306409e-02
  -5.78827689668e-02
  -4.34225583709e-02
  -3.07971797628e-02
  -2.01471499244e-02
  -1.16107564799e-02
  -5.32266763688e-03
  -1.41242188343e-03
  -2.80581663831e-06
  -1.20813137301e-03
  -5.13242681854e-03
  -1.18675587954e-02
  -2.14913053564e-02
  -3.40654020853e-02
  -4.96335849322e-02
  -6.82196541378e-02
  -8.98255834399e-02
  -1.14429697556e-01
  -1.41984938653e-01
  -1.72417239156e-01
  -2.05624013848e-01
  -2.41472778906e-01
  -2.79799899461e-01
  -3.20409460674e-01
  -3.63072250489e-01
  -4.07524835408e-01
  -4.53468704243e-01
  -5.00569449064e-01
  -5.48455948087e-01
  -5.96719512228e-01
  -6.44912956245e-01
  -6.92549557418e-01
  -7.39101870475e-01
  -7.84000378536e-01
  -8.26631978038e-01
  -8.66338324275e-01
  -9.02414107771e-01
  -9.34105397524e-01
  -9.60608285873e-01
  -9.81068217887e-01
  -9.94580610851e-01
  -1.00019370504e+00
  -9.96915094078e-01
  -9.83724151565e-01
  -9.59593736122e-01
  -9.23526325140e-01
  -8.74612400586e-01
  -8.12122920636e-01
  -7.35653631854e-01
  -6.45347459786e-01
  -5.42232694172e-01
  -4.28728481853e-01
  -3.09381219951e-01
  -1.91893490589e-01
  -8.84617510975e-02
  -1.72932545113e-02
  -3.84908075506e-03
  -8.08384168191e-02
  -2.85526892786e-01
  -6.53297110220e-01
  -1.20848896222e+00
  -1.95660780725e+00
  -2.88273690600e+00
  -3.95726936981e+00
  -5.14518701443e+00
  -6.41399092054e+00
  -7.73796273055e+00
  -9.09918236308e+00
  -1.04867523053e+01
  -1.18954427262e+01
  -1.33244204573e+01
  -1.47763185743e+01
  -1.62567031151e+01
  -1.77739322263e+01
  -1.93394180838e+01
  -2.09683655312e+01
  -2.26811815194e+01
  -2.45059798396e+01
  -2.64830964859e+01
  -2.86737056081e+01
  -3.11778314380e+01
  -3.41774080695e+01
  -3.80627793210e+01
  -4.39687634099e+01
  -6.05332704778e+01
  -4.84700186875e+01
  -4.20644972850e+01
  -3.88092171399e+01
  -3.67207078122e+01
  -3.52438684948e+01
  -3.41432302779e+01
  -3.32968073090e+01
  -3.26332678780e+01
  -3.21073377109e+01
  -3.16885247995e+01
  -3.13553487324e+01
  -3.10921352457e+01
  -3.08871190184e+01
  -3.07312623413e+01
  -3.06174883519e+01
  -3.05401658209e+01
  -3.04947526702e+01
  -3.04775430516e+01
  -3.04854839634e+01
  -3.05160397497e+01
  -3.05670903078e+01
  -3.06368534994e+01
  -3.07238252509e+01
  -3.08267327934e+01
  -3.09444978058e+01
  -3.10762071283e+01
  -3.12210893371e+01
  -3.13784959148e+01
  -3.15478860712e+01
  -3.17288144982e+01
  -3.19209215176e+01
  -3.21239252068e+01
  -3.23376151876e+01
  -3.25618478379e+01
  -3.27965427493e+01
  -3.30416802986e+01
  -3.32973002469e+01
  -3.35635013124e+01
  -3.38404416979e+01
  -3.41283405848e+01
  -3.44274806384e+01
  -3.47382116028e+01
  -3.50609551054e+01
  -3.53962108339e+01
  -3.57445643087e+01
  -3.61066965423e+01
  -3.64833959683e+01
  -3.68755731412e+01
  -3.72842788644e+01
  -3.77107266141e+01
  -3.81563204151e+01
  -3.86226897216e+01
  -3.91117334161e+01
  -3.96256758379e+01
  -4.01671389160e+01
  -4.07392362012e+01
  -4.13456971970e+01
  -4.19910344177e+01
  -4.26807720065e+01
  -4.34217652148e+01
  -4.42226577440e+01
  -4.50945550305e+01
  -4.60520485889e+01
  -4.71148367872e+01
  -4.83104142322e+01
  -4.96788053126e+01
  -5.12815461321e+01
  -5.32205125493e+01
  -5.56832869302e+01
  -5.90783233506e+01
  -6.46243991513e+01
  -8.31629416883e+01
  -6.71071531688e+01
  -6.04924077801e+01
  -5.68231877286e+01
  -5.42828333206e+01
</dep>
<dep S11_dB frequency>
  -3.52856553228e+01
  -3.17768526043e+01
  -2.92875876717e+01
  -2.73582844515e+01
  -2.57839093321e+01
  -2.44549878288e+01
  -2.33061311880e+01
  -2.22951416564e+01
  -2.13931952279e+01
  -2.05797254530e+01
  -1.98395415342e+01
  -1.91611033203e+01
  -1.85354370874e+01
  -1.79554261200e+01
  -1.74153306250e+01
  -1.69104533958e+01
  -1.64369011574e+01
  -1.59914105080e+01
  -1.55712185532e+01
  -1.51739651333e+01
  -1.47976178172e+01
  -1.44404135872e+01
  -1.41008129465e+01
  -1.37774634073e+01
  -1.34691701489e+01
  -1.31748722218e+01
  -1.28936230875e+01
  -1.26245745799e+01
  -1.23669635920e+01
  -1.21201009524e+01
  -1.18833620734e+01
  -1.16561790434e+01
  -1.14380339051e+01
  -1.12284529135e+01
  -1.10270016069e+01
  -1.08332805584e+01
  -1.06469216979e+01
  -1.04675851163e+01
  -1.02949562785e+01
  -1.01287435838e+01
  -9.96867622497e+00
  -9.81450230251e+00
  -9.66598715914e+00
  -9.52291190538e+00
  -9.38507211049e+00
  -9.25227663769e+00
  -9.12434660544e+00
  -9.00111445939e+00
  -8.88242314138e+00
  -8.76812534436e+00
  -8.65808284318e+00
  -8.55216589277e+00
  -8.45025268623e+00
  -8.35222886650e+00
  -8.25798708606e+00
  -8.16742660951e+00
  -8.08045295520e+00
  -7.99697757174e+00
  -7.91691754651e+00
  -7.84019534304e+00
  -7.76673856500e+00
  -7.69647974438e+00
  -7.62935615221e+00
  -7.56530962988e+00
  -7.50428643994e+00
  -7.44623713474e+00
  -7.39111644228e+00
  -7.33888316788e+00
  -7.28950011138e+00
  -7.24293399875e+00
  -7.19915542802e+00
  -7.15813882882e+00
  -7.11986243541e+00
  -7.08430827295e+00
  -7.05146215686e+00
  -7.02131370547e+00
  -6.99385636580e+00
  -6.96908745291e+00
  -6.94700820300e+00
  -6.92762384069e+00
  -6.91094366098e+00
  -6.89698112658e+00
  -6.88575398124e+00
  -6.87728438004e+00
  -6.87159903765e+00
  -6.86872939565e+00
  -6.86871181026e+00
  -6.87158776204e+00
  -6.87740408916e+00
  -6.88621324629e+00
  -6.89807359121e+00
  -6.91304970155e+00
  -6.93121272467e+00
  -6.95264076354e+00
  -6.97741930240e+00
  -7.00564167614e+00
  -7.03740958798e+00
  -7.07283368070e+00
  -7.11203416730e+00
  -7.15514152785e+00
  -7.20229728030e+00
  -7.25365483405e+00
  -7.30938043656e+00
  -7.36965422467e+00
  -7.43467139430e+00
  -7.50464350429e+00
  -7.57979993276e+00
  -7.66038950754e+00
  -7.74668233586e+00
  -7.83897186316e+00
  -7.93757719610e+00
  -8.04284573180e+00
  -8.15515614328e+00
  -8.27492178126e+00
  -8.40259456485e+00
  -8.53866944926e+00
  -8.68368957812e+00
  -8.83825225246e+00
  -9.00301587994e+00
  -9.17870810777e+00
  -9.36613539452e+00
  -9.56619434368e+00
  -9.77988520997e+00
  -1.00083281076e+01
  -1.02527826065e+01
  -1.05146716175e+01
  -1.07956107594e+01
  -1.10974448098e+01
  -1.14222934170e+01
  -1.17726090737e+01
  -1.21512515547e+01
  -1.25615848043e+01
  -1.30076049620e+01
  -1.34941124105e+01
  -1.40269474099e+01
  -1.46133198389e+01
  -1.52622821453e+01
  -1.59854273536e+01
  -1.67979543367e+01
  -1.77203598267e+01
  -1.87812593683e+01
  -2.00223822259e+01
  -2.15081231231e+01
  -2.33457766113e+01
  -2.57350420338e+01
  -2.91192106912e+01
  -3.48789049277e+01
  -6.18972516405e+01
  -3.55573055415e+01
  -2.92771814174e+01
  -2.56401616210e+01
  -2.30659563861e+01
  -2.10717294863e+01
  -1.94448798252e+01
  -1.80728131572e+01
  -1.68886780263e+01
  -1.58495448350e+01
  -1.49262193882e+01
  -1.40979596592e+01
  -1.33495111523e+01
  -1.26693382926e+01
  -1.20485164446e+01
  -1.14800096265e+01
  -1.09581840313e+01
  -1.04784714855e+01
  -1.00371315719e+01
  -9.63108071039e+00
  -9.25776801784e+00
  -8.91508480211e+00
  -8.60129899437e+00
  -8.31500873445e+00
  -8.05511131234e+00
  -7.82078509956e+00
  -7.61148321416e+00
  -7.42693861475e+00
  -7.26718124354e+00
  -7.13256885737e+00
  -7.02383444331e+00
  -6.94215480157e+00
  -6.88924727984e+00
  -6.86750521356e+00
  -6.88018812528e+00
  -6.93169147398e+00
  -7.02793508393e+00
  -7.17693374150e+00
  -7.38965650557e+00
  -7.68136100754e+00
  -8.07374513841e+00
  -8.59858583981e+00
  -9.30428200315e+00
  -1.02686206620e+01
  -1.16266759691e+01
  -1.36428341508e+01
  -1.69544435907e+01
  -2.40077195391e+01
  -3.05261972828e+01
  -1.73420216308e+01
  -1.19633542304e+01
  -8.54929033239e+00
  -6.14565807553e+00
  -4.40444187571e+00
  -3.14172352920e+00
  -2.23330420868e+00
  -1.58534693977e+00
  -1.12579607519e+00
  -8.00575065959e-01
  -5.70251880099e-01
  -4.06711023570e-01
  -2.90180538080e-01
  -2.06844239429e-01
  -1.47056605333e-01
  -1.04065526574e-01
  -7.31209807899e-02
  -5.08607851688e-02
  -3.48892031481e-02
  -2.34876741816e-02
  -1.54154736428e-02
  -9.77154301723e-03
  -5.89805230622e-03
  -3.31258313252e-03
  -1.66007039733e-03
  -6.78485081746e-04
  -1.74147272809e-04
  -3.84111628920e-06
  -6.17711278693e-05
  -2.69990250777e-04
  -5.71335439400e-04
  -9.24186751747e-04
  -1.29856109804e-03
  -1.67318876697e-03
  -2.03331770529e-03
  -2.36905951488e-03
  -2.67414061645e-03
  -2.94495776615e-03
  -3.17986308861e-03
  -3.37862278780e-03
  -3.54200767416e-03
  -3.67148398737e-03
  -3.76898068243e-03
  -3.83671509577e-03
  -3.87706322248e-03
  -3.89246409126e-03
  -3.88535018769e-03
  -3.85809775056e-03
  -3.81299219396e-03
  -3.75220500234e-03
  -3.67777928398e-03
  -3.59162181448e-03
  -3.49549989964e-03
  -3.39104177142e-03
  -3.27973952938e-03
  -3.16295386932e-03
  -3.04192002122e-03
  -2.91775445635e-03
  -2.79146203191e-03
  -2.66394332456e-03
  -2.53600196938e-03
  -2.40835187070e-03
  -2.28162418979e-03
  -2.15637404421e-03
  -2.03308687638e-03
  -1.91218446589e-03
  -1.79403057358e-03
  -1.67893621458e-03
  -1.56716456509e-03
  -1.45893551254e-03
  -1.35442986234e-03
  -1.25379321722e-03
  -1.15713954595e-03
  -1.06455445982e-03
  -9.76098214761e-04
  -8.91808457823e-04
  -8.11702735101e-04
  -7.35780778928e-04
  -6.64026590430e-04
  -5.96410333249e-04
  -5.32890053246e-04
  -4.73413238078e-04
  -4.17918229558e-04
  -3.66335501270e-04
  -3.18588812362e-04
  -2.74596248250e-04
  -2.34271157936e-04
  -1.97522996748e-04
  -1.64258082912e-04
  -1.34380275542e-04
  -1.07791581033e-04
  -8.43926942866e-05
  -6.40834806725e-05
  -4.67634041568e-05
  -3.23319065357e-05
  -2.06887423362e-05
  -1.17342734607e-05
  -5.36972747572e-06
  -1.49742290397e-06
  -2.09647771507e-08
  -8.45413224286e-07
  -3.87742787068e-06
  -9.02539025565e-06
  -1.61995066752e-05
</dep>
<dep S[2,2] frequency>
  -4.98154154306e-04-j1.72002661723e-02
  -1.11758696139e-03-j2.57483061278e-02
  -1.98271375153e-03-j3.42684857178e-02
  -3.09212799537e-03-j4.27516397324e-02
  -4.44403067171e-03-j5.11886885576e-02
  -6.03623662680e-03-j5.95706586957e-02
  -7.86618225343e-03-j6.78887027366e-02
  -9.93093443682e-03-j7.61341186797e-02
  -1.22272007057e-02-j8.42983685143e-02
  -1.47513405198e-02-j9.23730959704e-02
  -1.74993776182e-02-j1.00350143361e-01
  -2.04670133457e-02-j1.08221567444e-01
  -2.36496408719e-02-j1.15979654235e-01
  -2.70423602088e-02-j1.23616932726e-01
  -3.06399939354e-02-j1.31126187451e-01
  -3.44371035285e-02-j1.38500469863e-01
  -3.84280062029e-02-j1.45733108508e-01
  -4.26067921604e-02-j1.52817717949e-01
  -4.69673421469e-02-j1.59748206456e-01
  -5.15033452212e-02-j1.66518782440e-01
  -5.62083166353e-02-j1.73123959650e-01
  -6.10756157349e-02-j1.79558561136e-01
  -6.60984637865e-02-j1.85817722012e-01
  -7.12699616439e-02-j1.91896891026e-01
