<Qucs Dataset 0.0.17>
<indep time 200>
  +0.00000000000e+00
  +5.02512562814e-08
  +1.00502512563e-07
  +1.50753768844e-07
  +2.01005025126e-07
  +2.51256281407e-07
  +3.01507537688e-07
  +3.51758793970e-07
  +4.02010050251e-07
  +4.52261306533e-07
  +5.02512562814e-07
  +5.52763819095e-07
  +6.03015075377e-07
  +6.53266331658e-07
  +7.03517587940e-07
  +7.53768844221e-07
  +8.04020100503e-07
  +8.54271356784e-07
  +9.04522613065e-07
  +9.54773869347e-07
  +1.00502512563e-06
  +1.05527638191e-06
  +1.10552763819e-06
  +1.15577889447e-06
  +1.20603015075e-06
  +1.25628140704e-06
  +1.30653266332e-06
  +1.35678391960e-06
  +1.40703517588e-06
  +1.45728643216e-06
  +1.50753768844e-06
  +1.55778894472e-06
  +1.60804020101e-06
  +1.65829145729e-06
  +1.70854271357e-06
  +1.75879396985e-06
  +1.80904522613e-06
  +1.85929648241e-06
  +1.90954773869e-06
  +1.95979899497e-06
  +2.01005025126e-06
  +2.06030150754e-06
  +2.11055276382e-06
  +2.16080402010e-06
  +2.21105527638e-06
  +2.26130653266e-06
  +2.31155778894e-06
  +2.36180904523e-06
  +2.41206030151e-06
  +2.46231155779e-06
  +2.51256281407e-06
  +2.56281407035e-06
  +2.61306532663e-06
  +2.66331658291e-06
  +2.71356783920e-06
  +2.76381909548e-06
  +2.81407035176e-06
  +2.86432160804e-06
  +2.91457286432e-06
  +2.96482412060e-06
  +3.01507537688e-06
  +3.06532663317e-06
  +3.11557788945e-06
  +3.16582914573e-06
  +3.21608040201e-06
  +3.26633165829e-06
  +3.31658291457e-06
  +3.36683417085e-06
  +3.41708542714e-06
  +3.46733668342e-06
  +3.51758793970e-06
  +3.56783919598e-06
  +3.61809045226e-06
  +3.66834170854e-06
  +3.71859296482e-06
  +3.76884422111e-06
  +3.81909547739e-06
  +3.86934673367e-06
  +3.91959798995e-06
  +3.96984924623e-06
  +4.02010050251e-06
  +4.07035175879e-06
  +4.12060301508e-06
  +4.17085427136e-06
  +4.22110552764e-06
  +4.27135678392e-06
  +4.32160804020e-06
  +4.37185929648e-06
  +4.42211055276e-06
  +4.47236180905e-06
  +4.52261306533e-06
  +4.57286432161e-06
  +4.62311557789e-06
  +4.67336683417e-06
  +4.72361809045e-06
  +4.77386934673e-06
  +4.82412060302e-06
  +4.87437185930e-06
  +4.92462311558e-06
  +4.97487437186e-06
  +5.02512562814e-06
  +5.07537688442e-06
  +5.12562814070e-06
  +5.17587939698e-06
  +5.22613065327e-06
  +5.27638190955e-06
  +5.32663316583e-06
  +5.37688442211e-06
  +5.42713567839e-06
  +5.47738693467e-06
  +5.52763819095e-06
  +5.57788944724e-06
  +5.62814070352e-06
  +5.67839195980e-06
  +5.72864321608e-06
  +5.77889447236e-06
  +5.82914572864e-06
  +5.87939698492e-06
  +5.92964824121e-06
  +5.97989949749e-06
  +6.03015075377e-06
  +6.08040201005e-06
  +6.13065326633e-06
  +6.18090452261e-06
  +6.23115577889e-06
  +6.28140703518e-06
  +6.33165829146e-06
  +6.38190954774e-06
  +6.43216080402e-06
  +6.48241206030e-06
  +6.53266331658e-06
  +6.58291457286e-06
  +6.63316582915e-06
  +6.68341708543e-06
  +6.73366834171e-06
  +6.78391959799e-06
  +6.83417085427e-06
  +6.88442211055e-06
  +6.93467336683e-06
  +6.98492462312e-06
  +7.03517587940e-06
  +7.08542713568e-06
  +7.13567839196e-06
  +7.18592964824e-06
  +7.23618090452e-06
  +7.28643216080e-06
  +7.33668341709e-06
  +7.38693467337e-06
  +7.43718592965e-06
  +7.48743718593e-06
  +7.53768844221e-06
  +7.58793969849e-06
  +7.63819095477e-06
  +7.68844221106e-06
  +7.73869346734e-06
  +7.78894472362e-06
  +7.83919597990e-06
  +7.88944723618e-06
  +7.93969849246e-06
  +7.98994974874e-06
  +8.04020100503e-06
  +8.09045226131e-06
  +8.14070351759e-06
  +8.19095477387e-06
  +8.24120603015e-06
  +8.29145728643e-06
  +8.34170854271e-06
  +8.39195979899e-06
  +8.44221105528e-06
  +8.49246231156e-06
  +8.54271356784e-06
  +8.59296482412e-06
  +8.64321608040e-06
  +8.69346733668e-06
  +8.74371859296e-06
  +8.79396984925e-06
  +8.84422110553e-06
  +8.89447236181e-06
  +8.94472361809e-06
  +8.99497487437e-06
  +9.04522613065e-06
  +9.09547738693e-06
  +9.14572864322e-06
  +9.19597989950e-06
  +9.24623115578e-06
  +9.29648241206e-06
  +9.34673366834e-06
  +9.39698492462e-06
  +9.44723618090e-06
  +9.49748743719e-06
  +9.54773869347e-06
  +9.59798994975e-06
  +9.64824120603e-06
  +9.69849246231e-06
  +9.74874371859e-06
  +9.79899497487e-06
  +9.84924623116e-06
  +9.89949748744e-06
  +9.94974874372e-06
  +1.00000000000e-05
</indep>
<dep RF.It time>
  -3.05718009531e-12
  -1.19970184296e-09
  -2.39819140519e-09
  -3.59423234171e-09
  -4.78668928501e-09
  -5.97435001927e-09
  -7.15601395324e-09
  -8.33056021007e-09
  -9.49675395556e-09
  -1.06534657317e-08
  -1.17995134175e-08
  -1.29338248481e-08
  -1.40551628315e-08
  -1.51625208156e-08
  -1.62546867353e-08
  -1.73306776080e-08
  -1.83893192703e-08
  -1.94296754035e-08
  -2.04505613710e-08
  -2.14511119220e-08
  -2.24302022904e-08
  -2.33869271809e-08
  -2.43203441593e-08
  -2.52294665402e-08
  -2.61134187940e-08
  -2.69713227758e-08
  -2.78023050524e-08
  -2.86055744447e-08
  -2.93802950506e-08
  -3.01256885083e-08
  -3.08410369913e-08
  -3.15256431040e-08
  -3.21787782644e-08
  -3.27998078697e-08
  -3.33881289678e-08
  -3.39431815445e-08
  -3.44643298766e-08
  -3.49510898311e-08
  -3.54030492837e-08
  -3.58196332952e-08
  -3.62005047555e-08
  -3.65452918974e-08
  -3.68536140224e-08
  -3.71251534836e-08
  -3.73596854899e-08
  -3.75569733184e-08
  -3.77167439577e-08
  -3.78389234628e-08
  -3.79233924362e-08
  -3.79700074867e-08
  -3.79787682242e-08
  -3.79496131252e-08
  -3.78826112701e-08
  -3.77778399299e-08
  -3.76353856801e-08
  -3.74554034786e-08
  -3.72380572305e-08
  -3.69835539177e-08
  -3.66921839879e-08
  -3.63642043670e-08
  -3.59999527338e-08
  -3.55998153069e-08
  -3.51641411692e-08
  -3.46933707716e-08
  -3.41880395343e-08
  -3.36485807128e-08
  -3.30755580362e-08
  -3.24695304596e-08
  -3.18311336855e-08
  -3.11609920106e-08
  -3.04597587012e-08
  -2.97281224047e-08
  -2.89668451008e-08
  -2.81766746177e-08
  -2.73583987811e-08
  -2.65128107859e-08
  -2.56407846030e-08
  -2.47431432381e-08
  -2.38208442063e-08
  -2.28747882250e-08
  -2.19058846738e-08
  -2.09151448974e-08
  -1.99035010098e-08
  -1.88720246948e-08
  -1.78216972829e-08
  -1.67535781424e-08
  -1.56687203301e-08
  -1.45682619486e-08
  -1.34532171809e-08
  -1.23247615572e-08
  -1.11840023876e-08
  -1.00320609111e-08
  -8.87011897985e-09
  -7.69929413639e-09
  -6.52077270423e-09
  -5.33571563285e-09
  -4.14534088700e-09
  -2.95078501813e-09
  -1.75327229832e-09
  -5.54021326870e-10
  +6.45847307652e-10
  +1.84508808969e-09
  +3.04249641291e-09
  +4.23688174072e-09
  +5.42711699769e-09
  +6.61192772248e-09
  +7.79017887612e-09
  +8.96067194292e-09
  +1.01222829331e-08
  +1.12737858287e-08
  +1.24141282966e-08
  +1.35420891933e-08
  +1.46565605060e-08
  +1.57564742506e-08
  +1.68406667173e-08
  +1.79081177713e-08
  +1.89577724438e-08
  +1.99885128055e-08
  +2.09993337593e-08
  +2.19892719271e-08
  +2.29573432499e-08
  +2.39025098673e-08
  +2.48238713827e-08
  +2.57205380216e-08
  +2.65915469957e-08
  +2.74361180753e-08
  +2.82533618427e-08
  +2.90424283031e-08
  +2.98026023764e-08
  +3.05330746494e-08
  +3.12331310891e-08
  +3.19020574127e-08
  +3.25392208865e-08
  +3.31439746313e-08
  +3.37157493347e-08
  +3.42538769225e-08
  +3.47579387686e-08
  +3.52273284482e-08
  +3.56616399979e-08
  +3.60604547527e-08
  +3.64233215472e-08
  +3.67498821147e-08
  +3.70398674324e-08
  +3.72929586799e-08
  +3.75088785981e-08
  +3.76874061079e-08
  +3.78284181589e-08
  +3.79317495800e-08
  +3.79972924695e-08
  +3.80249899711e-08
  +3.80147914869e-08
  +3.79667076675e-08
  +3.78808130568e-08
  +3.77571792602e-08
  +3.75959415168e-08
  +3.73972567214e-08
  +3.71613229912e-08
  +3.68883498041e-08
  +3.65785997722e-08
  +3.62324708111e-08
  +3.58502182426e-08
  +3.54322116036e-08
  +3.49789492394e-08
  +3.44908366366e-08
  +3.39683905948e-08
  +3.34120923564e-08
  +3.28224830383e-08
  +3.22001925353e-08
  +3.15458665350e-08
  +3.08600837000e-08
  +3.01435476469e-08
  +2.93970202825e-08
  +2.86211822744e-08
  +2.78168516669e-08
  +2.69847856657e-08
  +2.61258711893e-08
  +2.52409584860e-08
  +2.43308986288e-08
  +2.33965859060e-08
  +2.24389744341e-08
  +2.14590225478e-08
  +2.04577130748e-08
  +1.94360059095e-08
  +1.83949878702e-08
  +1.73356162324e-08
  +1.62590312399e-08
  +1.51662071969e-08
  +1.40583436525e-08
  +1.29364488991e-08
  +1.18016859353e-08
  +1.06552208232e-08
  +9.49808685288e-09
  +8.33155578198e-09
  +7.15673345277e-09
  +5.97481257182e-09
  +4.78695944797e-09
  +3.59431930886e-09
  +2.39814408556e-09
  +1.19963297478e-09
  -1.14381095547e-13
</dep>
<dep V1.It time>
  -7.96019900497e-03
  -7.96019900497e-03
  -7.96019900497e-03
  -7.96019900498e-03
  -7.96019900498e-03
  -7.96019900498e-03
  -7.96019900498e-03
  -7.96019900497e-03
  -7.96019900498e-03
  -7.96019900498e-03
  -7.96019900497e-03
  -7.96019900498e-03
  -7.96019900498e-03
  -7.96019900498e-03
  -7.96019900498e-03
  -7.96019900498e-03
  -7.96019900497e-03
  -7.96019900497e-03
  -7.96019900498e-03
  -7.96019900498e-03
  -7.96019900498e-03
  -7.96019900498e-03
  -7.96019900498e-03
  -7.96019900497e-03
  -7.96019900498e-03
  -7.96019900498e-03
  -7.96019900498e-03
  -7.96019900498e-03
  -7.96019900498e-03
  -7.96019900498e-03
  -7.96019900498e-03
  -7.96019900498e-03
  -7.96019900498e-03
  -7.96019900498e-03
  -7.96019900498e-03
  -7.96019900498e-03
  -7.96019900498e-03
  -7.96019900498e-03
  -7.96019900498e-03
  -7.96019900498e-03
  -7.96019900498e-03
  -7.96019900497e-03
  -7.96019900498e-03
  -7.96019900498e-03
  -7.96019900498e-03
  -7.96019900498e-03
  -7.96019900498e-03
  -7.96019900498e-03
  -7.96019900497e-03
  -7.96019900497e-03
  -7.96019900498e-03
  -7.96019900498e-03
  -7.96019900497e-03
  -7.96019900498e-03
  -7.96019900497e-03
  -7.96019900498e-03
  -7.96019900498e-03
  -7.96019900498e-03
  -7.96019900498e-03
  -7.96019900498e-03
  -7.96019900498e-03
  -7.96019900498e-03
  -7.96019900497e-03
  -7.96019900498e-03
  -7.96019900498e-03
  -7.96019900498e-03
  -7.96019900497e-03
  -7.96019900498e-03
  -7.96019900498e-03
  -7.96019900498e-03
  -7.96019900498e-03
  -7.96019900498e-03
  -7.96019900497e-03
  -7.96019900497e-03
  -7.96019900498e-03
  -7.96019900498e-03
  -7.96019900498e-03
  -7.96019900497e-03
  -7.96019900498e-03
  -7.96019900498e-03
  -7.96019900498e-03
  -7.96019900498e-03
  -7.96019900498e-03
  -7.96019900497e-03
  -7.96019900497e-03
  -7.96019900498e-03
  -7.96019900497e-03
  -7.96019900498e-03
  -7.96019900498e-03
  -7.96019900497e-03
  -7.96019900498e-03
  -7.96019900498e-03
  -7.96019900497e-03
  -7.96019900498e-03
  -7.96019900498e-03
  -7.96019900498e-03
  -7.96019900498e-03
  -7.96019900497e-03
  -7.96019900498e-03
  -7.96019900498e-03
  -7.96019900498e-03
  -7.96019900498e-03
  -7.96019900498e-03
  -7.96019900498e-03
  -7.96019900498e-03
  -7.96019900498e-03
  -7.96019900498e-03
  -7.96019900497e-03
  -7.96019900498e-03
  -7.96019900498e-03
  -7.96019900498e-03
  -7.96019900498e-03
  -7.96019900498e-03
  -7.96019900498e-03
  -7.96019900497e-03
  -7.96019900498e-03
  -7.96019900497e-03
  -7.96019900497e-03
  -7.96019900498e-03
  -7.96019900497e-03
  -7.96019900498e-03
  -7.96019900497e-03
  -7.96019900498e-03
  -7.96019900498e-03
  -7.96019900498e-03
  -7.96019900498e-03
  -7.96019900498e-03
  -7.96019900498e-03
  -7.96019900498e-03
  -7.96019900498e-03
  -7.96019900498e-03
  -7.96019900498e-03
  -7.96019900498e-03
  -7.96019900497e-03
  -7.96019900498e-03
  -7.96019900498e-03
  -7.96019900497e-03
  -7.96019900498e-03
  -7.96019900497e-03
  -7.96019900498e-03
  -7.96019900498e-03
  -7.96019900498e-03
  -7.96019900498e-03
  -7.96019900498e-03
  -7.96019900498e-03
  -7.96019900498e-03
  -7.96019900498e-03
  -7.96019900498e-03
  -7.96019900498e-03
  -7.96019900497e-03
  -7.96019900498e-03
  -7.96019900498e-03
  -7.96019900498e-03
  -7.96019900498e-03
  -7.96019900498e-03
  -7.96019900498e-03
  -7.96019900497e-03
  -7.96019900497e-03
  -7.96019900498e-03
  -7.96019900497e-03
  -7.96019900498e-03
  -7.96019900498e-03
  -7.96019900498e-03
  -7.96019900497e-03
  -7.96019900498e-03
  -7.96019900498e-03
  -7.96019900498e-03
  -7.96019900498e-03
  -7.96019900498e-03
  -7.96019900498e-03
  -7.96019900497e-03
  -7.96019900497e-03
  -7.96019900497e-03
  -7.96019900497e-03
  -7.96019900498e-03
  -7.96019900498e-03
  -7.96019900497e-03
  -7.96019900498e-03
  -7.96019900498e-03
  -7.96019900498e-03
  -7.96019900498e-03
  -7.96019900498e-03
  -7.96019900498e-03
  -7.96019900498e-03
  -7.96019900498e-03
  -7.96019900498e-03
  -7.96019900498e-03
  -7.96019900498e-03
  -7.96019900498e-03
  -7.96019900498e-03
  -7.96019900498e-03
  -7.96019900498e-03
  -7.96019900497e-03
  -7.96019900498e-03
  -7.96019900498e-03
  -7.96019900498e-03
  -7.96019900498e-03
  -7.96019900498e-03
  -7.96019900497e-03
  -7.96019900498e-03
</dep>
<dep V2.It time>
  -3.98010012572e-05
  -3.98009950440e-05
  -3.98009950769e-05
  -3.98009950381e-05
  -3.98009950437e-05
  -3.98009950455e-05
  -3.98009950097e-05
  -3.98009950525e-05
  -3.98009950433e-05
  -3.98009950496e-05
  -3.98009950120e-05
  -3.98009950737e-05
  -3.98009950177e-05
  -3.98009950707e-05
  -3.98009950120e-05
  -3.98009950573e-05
  -3.98009949994e-05
  -3.98009950807e-05
  -3.98009950005e-05
  -3.98009950694e-05
  -3.98009950277e-05
  -3.98009950194e-05
  -3.98009950675e-05
  -3.98009950574e-05
  -3.98009950515e-05
  -3.98009950561e-05
  -3.98009950338e-05
  -3.98009950605e-05
  -3.98009950644e-05
  -3.98009950330e-05
  -3.98009950176e-05
  -3.98009950504e-05
  -3.98009950370e-05
  -3.98009950112e-05
  -3.98009950056e-05
  -3.98009950742e-05
  -3.98009950489e-05
  -3.98009950017e-05
  -3.98009950817e-05
  -3.98009950351e-05
  -3.98009950213e-05
  -3.98009950563e-05
  -3.98009950648e-05
  -3.98009950256e-05
  -3.98009950323e-05
  -3.98009950790e-05
  -3.98009950099e-05
  -3.98009949989e-05
  -3.98009950511e-05
  -3.98009950457e-05
  -3.98009950765e-05
  -3.98009950360e-05
  -3.98009950058e-05
  -3.98009950072e-05
  -3.98009950039e-05
  -3.98009950223e-05
  -3.98009950308e-05
  -3.98009950096e-05
  -3.98009950337e-05
  -3.98009950347e-05
  -3.98009950347e-05
  -3.98009950806e-05
  -3.98009950710e-05
  -3.98009950185e-05
  -3.98009950580e-05
  -3.98009950459e-05
  -3.98009950350e-05
  -3.98009950005e-05
  -3.98009950069e-05
  -3.98009950295e-05
  -3.98009950383e-05
  -3.98009950122e-05
  -3.98009950177e-05
  -3.98009950326e-05
  -3.98009950569e-05
  -3.98009950451e-05
  -3.98009950603e-05
  -3.98009950083e-05
  -3.98009950171e-05
  -3.98009950486e-05
  -3.98009950342e-05
  -3.98009950666e-05
  -3.98009950328e-05
  -3.98009950618e-05
  -3.98009950579e-05
  -3.98009950464e-05
  -3.98009950035e-05
  -3.98009950449e-05
  -3.98009950017e-05
  -3.98009950045e-05
  -3.98009950175e-05
  -3.98009950083e-05
  -3.98009950453e-05
  -3.98009950455e-05
  -3.98009950480e-05
  -3.98009950246e-05
  -3.98009950501e-05
  -3.98009950225e-05
  -3.98009950101e-05
  -3.98009950636e-05
  -3.98009950303e-05
  -3.98009950112e-05
  -3.98009950249e-05
  -3.98009950651e-05
  -3.98009950023e-05
  -3.98009950159e-05
  -3.98009950122e-05
  -3.98009950401e-05
  -3.98009950123e-05
  -3.98009950676e-05
  -3.98009950113e-05
  -3.98009950156e-05
  -3.98009950470e-05
  -3.98009950180e-05
  -3.98009950658e-05
  -3.98009950667e-05
  -3.98009950022e-05
  -3.98009950185e-05
  -3.98009950698e-05
  -3.98009950659e-05
  -3.98009950014e-05
  -3.98009950247e-05
  -3.98009950507e-05
  -3.98009950211e-05
  -3.98009950764e-05
  -3.98009950371e-05
  -3.98009950003e-05
  -3.98009950380e-05
  -3.98009950045e-05
  -3.98009950051e-05
  -3.98009950111e-05
  -3.98009950560e-05
  -3.98009950704e-05
  -3.98009950781e-05
  -3.98009950109e-05
  -3.98009950688e-05
  -3.98009950118e-05
  -3.98009950517e-05
  -3.98009950624e-05
  -3.98009950147e-05
  -3.98009950180e-05
  -3.98009950653e-05
  -3.98009950414e-05
  -3.98009950070e-05
  -3.98009950130e-05
  -3.98009950713e-05
  -3.98009950700e-05
  -3.98009950592e-05
  -3.98009950489e-05
  -3.98009950218e-05
  -3.98009950249e-05
  -3.98009950572e-05
  -3.98009950643e-05
  -3.98009950749e-05
  -3.98009950644e-05
  -3.98009950406e-05
  -3.98009950035e-05
  -3.98009950055e-05
  -3.98009950659e-05
  -3.98009950029e-05
  -3.98009949994e-05
  -3.98009950789e-05
  -3.98009950747e-05
  -3.98009950814e-05
  -3.98009950372e-05
  -3.98009950228e-05
  -3.98009950656e-05
  -3.98009950795e-05
  -3.98009950127e-05
  -3.98009950154e-05
  -3.98009950467e-05
  -3.98009950094e-05
  -3.98009950330e-05
  -3.98009950263e-05
  -3.98009950803e-05
  -3.98009950776e-05
  -3.98009950303e-05
  -3.98009950017e-05
  -3.98009950181e-05
  -3.98009950330e-05
  -3.98009950387e-05
  -3.98009950231e-05
  -3.98009950640e-05
  -3.98009950221e-05
  -3.98009950614e-05
  -3.98009950100e-05
  -3.98009950697e-05
  -3.98009950157e-05
  -3.98009950438e-05
  -3.98009950630e-05
  -3.98009950020e-05
  -3.98009950844e-05
  -3.98009950688e-05
  -3.98009950714e-05
  -3.98009950481e-05
  -3.98009950232e-05
  -3.98009950759e-05
  -3.98009950776e-05
  -3.98009950143e-05
  -3.98009950800e-05
</dep>
<dep _net12.Vt time>
  +1.00000000000e+01
  +1.00000000000e+01
  +1.00000000000e+01
  +1.00000000000e+01
  +1.00000000000e+01
  +1.00000000000e+01
  +1.00000000000e+01
  +1.00000000000e+01
  +1.00000000000e+01
  +1.00000000000e+01
  +1.00000000000e+01
  +1.00000000000e+01
  +1.00000000000e+01
  +1.00000000000e+01
  +1.00000000000e+01
  +1.00000000000e+01
  +1.00000000000e+01
  +1.00000000000e+01
  +1.00000000000e+01
  +1.00000000000e+01
  +1.00000000000e+01
  +1.00000000000e+01
  +1.00000000000e+01
  +1.00000000000e+01
  +1.00000000000e+01
  +1.00000000000e+01
  +1.00000000000e+01
  +1.00000000000e+01
  +1.00000000000e+01
  +1.00000000000e+01
  +1.00000000000e+01
  +1.00000000000e+01
  +1.00000000000e+01
  +1.00000000000e+01
  +1.00000000000e+01
  +1.00000000000e+01
  +1.00000000000e+01
  +1.00000000000e+01
  +1.00000000000e+01
  +1.00000000000e+01
  +1.00000000000e+01
  +1.00000000000e+01
  +1.00000000000e+01
  +1.00000000000e+01
  +1.00000000000e+01
  +1.00000000000e+01
  +1.00000000000e+01
  +1.00000000000e+01
  +1.00000000000e+01
  +1.00000000000e+01
  +1.00000000000e+01
  +1.00000000000e+01
  +1.00000000000e+01
  +1.00000000000e+01
  +1.00000000000e+01
  +1.00000000000e+01
  +1.00000000000e+01
  +1.00000000000e+01
  +1.00000000000e+01
  +1.00000000000e+01
  +1.00000000000e+01
  +1.00000000000e+01
  +1.00000000000e+01
  +1.00000000000e+01
  +1.00000000000e+01
  +1.00000000000e+01
  +1.00000000000e+01
  +1.00000000000e+01
  +1.00000000000e+01
  +1.00000000000e+01
  +1.00000000000e+01
  +1.00000000000e+01
  +1.00000000000e+01
  +1.00000000000e+01
  +1.00000000000e+01
  +1.00000000000e+01
  +1.00000000000e+01
  +1.00000000000e+01
  +1.00000000000e+01
  +1.00000000000e+01
  +1.00000000000e+01
  +1.00000000000e+01
  +1.00000000000e+01
  +1.00000000000e+01
  +1.00000000000e+01
  +1.00000000000e+01
  +1.00000000000e+01
  +1.00000000000e+01
  +1.00000000000e+01
  +1.00000000000e+01
  +1.00000000000e+01
  +1.00000000000e+01
  +1.00000000000e+01
  +1.00000000000e+01
  +1.00000000000e+01
  +1.00000000000e+01
  +1.00000000000e+01
  +1.00000000000e+01
  +1.00000000000e+01
  +1.00000000000e+01
  +1.00000000000e+01
  +1.00000000000e+01
  +1.00000000000e+01
  +1.00000000000e+01
  +1.00000000000e+01
  +1.00000000000e+01
  +1.00000000000e+01
  +1.00000000000e+01
  +1.00000000000e+01
  +1.00000000000e+01
  +1.00000000000e+01
  +1.00000000000e+01
  +1.00000000000e+01
  +1.00000000000e+01
  +1.00000000000e+01
  +1.00000000000e+01
  +1.00000000000e+01
  +1.00000000000e+01
  +1.00000000000e+01
  +1.00000000000e+01
  +1.00000000000e+01
  +1.00000000000e+01
  +1.00000000000e+01
  +1.00000000000e+01
  +1.00000000000e+01
  +1.00000000000e+01
  +1.00000000000e+01
  +1.00000000000e+01
  +1.00000000000e+01
  +1.00000000000e+01
  +1.00000000000e+01
  +1.00000000000e+01
  +1.00000000000e+01
  +1.00000000000e+01
  +1.00000000000e+01
  +1.00000000000e+01
  +1.00000000000e+01
  +1.00000000000e+01
  +1.00000000000e+01
  +1.00000000000e+01
  +1.00000000000e+01
  +1.00000000000e+01
  +1.00000000000e+01
  +1.00000000000e+01
  +1.00000000000e+01
