<Qucs Dataset 0.0.17>
<indep frequency 300>
  +1.00000000000e+06
  +1.49832775920e+06
  +1.99665551839e+06
  +2.49498327759e+06
  +2.99331103679e+06
  +3.49163879599e+06
  +3.98996655518e+06
  +4.48829431438e+06
  +4.98662207358e+06
  +5.48494983278e+06
  +5.98327759197e+06
  +6.48160535117e+06
  +6.97993311037e+06
  +7.47826086957e+06
  +7.97658862876e+06
  +8.47491638796e+06
  +8.97324414716e+06
  +9.47157190635e+06
  +9.96989966555e+06
  +1.04682274247e+07
  +1.09665551839e+07
  +1.14648829431e+07
  +1.19632107023e+07
  +1.24615384615e+07
  +1.29598662207e+07
  +1.34581939799e+07
  +1.39565217391e+07
  +1.44548494983e+07
  +1.49531772575e+07
  +1.54515050167e+07
  +1.59498327759e+07
  +1.64481605351e+07
  +1.69464882943e+07
  +1.74448160535e+07
  +1.79431438127e+07
  +1.84414715719e+07
  +1.89397993311e+07
  +1.94381270903e+07
  +1.99364548495e+07
  +2.04347826087e+07
  +2.09331103679e+07
  +2.14314381271e+07
  +2.19297658863e+07
  +2.24280936455e+07
  +2.29264214047e+07
  +2.34247491639e+07
  +2.39230769231e+07
  +2.44214046823e+07
  +2.49197324415e+07
  +2.54180602007e+07
  +2.59163879599e+07
  +2.64147157191e+07
  +2.69130434783e+07
  +2.74113712375e+07
  +2.79096989967e+07
  +2.84080267559e+07
  +2.89063545151e+07
  +2.94046822742e+07
  +2.99030100334e+07
  +3.04013377926e+07
  +3.08996655518e+07
  +3.13979933110e+07
  +3.18963210702e+07
  +3.23946488294e+07
  +3.28929765886e+07
  +3.33913043478e+07
  +3.38896321070e+07
  +3.43879598662e+07
  +3.48862876254e+07
  +3.53846153846e+07
  +3.58829431438e+07
  +3.63812709030e+07
  +3.68795986622e+07
  +3.73779264214e+07
  +3.78762541806e+07
  +3.83745819398e+07
  +3.88729096990e+07
  +3.93712374582e+07
  +3.98695652174e+07
  +4.03678929766e+07
  +4.08662207358e+07
  +4.13645484950e+07
  +4.18628762542e+07
  +4.23612040134e+07
  +4.28595317726e+07
  +4.33578595318e+07
  +4.38561872910e+07
  +4.43545150502e+07
  +4.48528428094e+07
  +4.53511705686e+07
  +4.58494983278e+07
  +4.63478260870e+07
  +4.68461538462e+07
  +4.73444816054e+07
  +4.78428093645e+07
  +4.83411371237e+07
  +4.88394648829e+07
  +4.93377926421e+07
  +4.98361204013e+07
  +5.03344481605e+07
  +5.08327759197e+07
  +5.13311036789e+07
  +5.18294314381e+07
  +5.23277591973e+07
  +5.28260869565e+07
  +5.33244147157e+07
  +5.38227424749e+07
  +5.43210702341e+07
  +5.48193979933e+07
  +5.53177257525e+07
  +5.58160535117e+07
  +5.63143812709e+07
  +5.68127090301e+07
  +5.73110367893e+07
  +5.78093645485e+07
  +5.83076923077e+07
  +5.88060200669e+07
  +5.93043478261e+07
  +5.98026755853e+07
  +6.03010033445e+07
  +6.07993311037e+07
  +6.12976588629e+07
  +6.17959866221e+07
  +6.22943143813e+07
  +6.27926421405e+07
  +6.32909698997e+07
  +6.37892976589e+07
  +6.42876254181e+07
  +6.47859531773e+07
  +6.52842809365e+07
  +6.57826086957e+07
  +6.62809364548e+07
  +6.67792642140e+07
  +6.72775919732e+07
  +6.77759197324e+07
  +6.82742474916e+07
  +6.87725752508e+07
  +6.92709030100e+07
  +6.97692307692e+07
  +7.02675585284e+07
  +7.07658862876e+07
  +7.12642140468e+07
  +7.17625418060e+07
  +7.22608695652e+07
  +7.27591973244e+07
  +7.32575250836e+07
  +7.37558528428e+07
  +7.42541806020e+07
  +7.47525083612e+07
  +7.52508361204e+07
  +7.57491638796e+07
  +7.62474916388e+07
  +7.67458193980e+07
  +7.72441471572e+07
  +7.77424749164e+07
  +7.82408026756e+07
  +7.87391304348e+07
  +7.92374581940e+07
  +7.97357859532e+07
  +8.02341137124e+07
  +8.07324414716e+07
  +8.12307692308e+07
  +8.17290969900e+07
  +8.22274247492e+07
  +8.27257525084e+07
  +8.32240802676e+07
  +8.37224080268e+07
  +8.42207357860e+07
  +8.47190635452e+07
  +8.52173913043e+07
  +8.57157190635e+07
  +8.62140468227e+07
  +8.67123745819e+07
  +8.72107023411e+07
  +8.77090301003e+07
  +8.82073578595e+07
  +8.87056856187e+07
  +8.92040133779e+07
  +8.97023411371e+07
  +9.02006688963e+07
  +9.06989966555e+07
  +9.11973244147e+07
  +9.16956521739e+07
  +9.21939799331e+07
  +9.26923076923e+07
  +9.31906354515e+07
  +9.36889632107e+07
  +9.41872909699e+07
  +9.46856187291e+07
  +9.51839464883e+07
  +9.56822742475e+07
  +9.61806020067e+07
  +9.66789297659e+07
  +9.71772575251e+07
  +9.76755852843e+07
  +9.81739130435e+07
  +9.86722408027e+07
  +9.91705685619e+07
  +9.96688963211e+07
  +1.00167224080e+08
  +1.00665551839e+08
  +1.01163879599e+08
  +1.01662207358e+08
  +1.02160535117e+08
  +1.02658862876e+08
  +1.03157190635e+08
  +1.03655518395e+08
  +1.04153846154e+08
  +1.04652173913e+08
  +1.05150501672e+08
  +1.05648829431e+08
  +1.06147157191e+08
  +1.06645484950e+08
  +1.07143812709e+08
  +1.07642140468e+08
  +1.08140468227e+08
  +1.08638795987e+08
  +1.09137123746e+08
  +1.09635451505e+08
  +1.10133779264e+08
  +1.10632107023e+08
  +1.11130434783e+08
  +1.11628762542e+08
  +1.12127090301e+08
  +1.12625418060e+08
  +1.13123745819e+08
  +1.13622073579e+08
  +1.14120401338e+08
  +1.14618729097e+08
  +1.15117056856e+08
  +1.15615384615e+08
  +1.16113712375e+08
  +1.16612040134e+08
  +1.17110367893e+08
  +1.17608695652e+08
  +1.18107023411e+08
  +1.18605351171e+08
  +1.19103678930e+08
  +1.19602006689e+08
  +1.20100334448e+08
  +1.20598662207e+08
  +1.21096989967e+08
  +1.21595317726e+08
  +1.22093645485e+08
  +1.22591973244e+08
  +1.23090301003e+08
  +1.23588628763e+08
  +1.24086956522e+08
  +1.24585284281e+08
  +1.25083612040e+08
  +1.25581939799e+08
  +1.26080267559e+08
  +1.26578595318e+08
  +1.27076923077e+08
  +1.27575250836e+08
  +1.28073578595e+08
  +1.28571906355e+08
  +1.29070234114e+08
  +1.29568561873e+08
  +1.30066889632e+08
  +1.30565217391e+08
  +1.31063545151e+08
  +1.31561872910e+08
  +1.32060200669e+08
  +1.32558528428e+08
  +1.33056856187e+08
  +1.33555183946e+08
  +1.34053511706e+08
  +1.34551839465e+08
  +1.35050167224e+08
  +1.35548494983e+08
  +1.36046822742e+08
  +1.36545150502e+08
  +1.37043478261e+08
  +1.37541806020e+08
  +1.38040133779e+08
  +1.38538461538e+08
  +1.39036789298e+08
  +1.39535117057e+08
  +1.40033444816e+08
  +1.40531772575e+08
  +1.41030100334e+08
  +1.41528428094e+08
  +1.42026755853e+08
  +1.42525083612e+08
  +1.43023411371e+08
  +1.43521739130e+08
  +1.44020066890e+08
  +1.44518394649e+08
  +1.45016722408e+08
  +1.45515050167e+08
  +1.46013377926e+08
  +1.46511705686e+08
  +1.47010033445e+08
  +1.47508361204e+08
  +1.48006688963e+08
  +1.48505016722e+08
  +1.49003344482e+08
  +1.49501672241e+08
  +1.50000000000e+08
</indep>
<dep S21_dB frequency>
  -2.80826103946e-03
  -6.29569909334e-03
  -1.11580365302e-02
  -1.73790828700e-02
  -2.49381916317e-02
  -3.38103781846e-02
  -4.39664608321e-02
  -5.53732234740e-02
  -6.79935979760e-02
  -8.17868641975e-02
  -9.67088654806e-02
  -1.12712237310e-01
  -1.29746646784e-01
  -1.47759040528e-01
  -1.66693898680e-01
  -1.86493492658e-01
  -2.07098144473e-01
  -2.28446485496e-01
  -2.50475712697e-01
  -2.73121840556e-01
  -2.96319946999e-01
  -3.20004411915e-01
  -3.44109146987e-01
  -3.68567815762e-01
  -3.93314043095e-01
  -4.18281613267e-01
  -4.43404656280e-01
  -4.68617821979e-01
  -4.93856441835e-01
  -5.19056678359e-01
  -5.44155662250e-01
  -5.69091617498e-01
  -5.93803974779e-01
  -6.18233473560e-01
  -6.42322253411e-01
  -6.66013935081e-01
  -6.89253691962e-01
  -7.11988312581e-01
  -7.34166254803e-01
  -7.55737692443e-01
  -7.76654555004e-01
  -7.96870561236e-01
  -8.16341247237e-01
  -8.35023989789e-01
  -8.52878025603e-01
  -8.69864467157e-01
  -8.85946315746e-01
  -9.01088472381e-01
  -9.15257747125e-01
  -9.28422867424e-01
  -9.40554485989e-01
  -9.51625188718e-01
  -9.61609503157e-01
  -9.70483907939e-01
  -9.78226843641e-01
  -9.84818725433e-01
  -9.90241957903e-01
  -9.94480952392e-01
  -9.97522147144e-01
  -9.99354030556e-01
  -9.99967167785e-01
  -9.99354230919e-01
  -9.97510032919e-01
  -9.94431565478e-01
  -9.90118040922e-01
  -9.84570938245e-01
  -9.77794053313e-01
  -9.69793553245e-01
  -9.60578034921e-01
  -9.50158587523e-01
  -9.38548858951e-01
  -9.25765125882e-01
  -9.11826367206e-01
  -8.96754340446e-01
  -8.80573660724e-01
  -8.63311881721e-01
  -8.44999577983e-01
  -8.25670427816e-01
  -8.05361295881e-01
  -7.84112314491e-01
  -7.61966962453e-01
  -7.38972140160e-01
  -7.15178239488e-01
  -6.90639206881e-01
  -6.65412597853e-01
  -6.39559620961e-01
  -6.13145169144e-01
  -5.86237836153e-01
  -5.58909915646e-01
  -5.31237380406e-01
  -5.03299838966e-01
  -4.75180466911e-01
  -4.46965909990e-01
  -4.18746156222e-01
  -3.90614374164e-01
  -3.62666714641e-01
  -3.35002073380e-01
  -3.07721812231e-01
  -2.80929436994e-01
  -2.54730230267e-01
  -2.29230838265e-01
  -2.04538811132e-01
  -1.80762097014e-01
  -1.58008490922e-01
  -1.36385040306e-01
  -1.15997410230e-01
  -9.69492120097e-02
  -7.93413002414e-02
  -6.32710441671e-02
  -4.88315803500e-02
  -3.61110545728e-02
  -2.51918617290e-02
  -1.61498931921e-02
  -9.05380169132e-03
  -3.96429405921e-03
  -9.33462324458e-04
  -4.16346783530e-06
  -1.20945774237e-03
  -4.57211476514e-03
  -1.01041956322e-02
  -1.78067181064e-02
  -2.76694105110e-02
  -3.96705583676e-02
  -5.37769460972e-02
  -6.99438943100e-02
  -8.81153913979e-02
  -1.08224316382e-01
  -1.30192748300e-01
  -1.53932355910e-01
  -1.79344860173e-01
  -2.06322560895e-01
  -2.34748918096e-01
  -2.64499178120e-01
  -2.95441034246e-01
  -3.27435311546e-01
  -3.60336666011e-01
  -3.93994288449e-01
  -4.28252604358e-01
  -4.62951961824e-01
  -4.97929300512e-01
  -5.33018795901e-01
  -5.68052474066e-01
  -6.02860793544e-01
  -6.37273191992e-01
  -6.71118596568e-01
  -7.04225898160e-01
  -7.36424390691e-01
  -7.67544177896e-01
  -7.97416550998e-01
  -8.25874341803e-01
  -8.52752256758e-01
  -8.77887198572e-01
  -9.01118583105e-01
  -9.22288660360e-01
  -9.41242849639e-01
  -9.57830100321e-01
  -9.71903291233e-01
  -9.83319683331e-01
  -9.91941442440e-01
  -9.97636251128e-01
  -1.00027803148e+00
  -9.99747803743e-01
  -9.95934709346e-01
  -9.88737231187e-01
  -9.78064648689e-01
  -9.63838770766e-01
  -9.45995995877e-01
  -9.24489755133e-01
  -8.99293401725e-01
  -8.70403617511e-01
  -8.37844415228e-01
  -8.01671821727e-01
  -7.61979333129e-01
  -7.18904235528e-01
  -6.72634882876e-01
  -6.23419014627e-01
  -5.71573175796e-01
  -5.17493267050e-01
  -4.61666196282e-01
  -4.04682519018e-01
  -3.47249834969e-01
  -2.90206544161e-01
  -2.34535351395e-01
  -1.81375639466e-01
  -1.32033514038e-01
  -8.79879736146e-02
  -5.08913127789e-02
  -2.25615866727e-02
  -4.96483852241e-03
  -1.84933063425e-04
  -1.03793697043e-02
  -3.77204713249e-02
  -8.43228913888e-02
  -1.52160366734e-01
  -2.42976818521e-01
  -3.58198861800e-01
  -4.98858023082e-01
  -6.65531022967e-01
  -8.58305104159e-01
  -1.07677266641e+00
  -1.32005587738e+00
  -1.58685819539e+00
  -1.87553664312e+00
  -2.18418679220e+00
  -2.51073198504e+00
  -2.85300918935e+00
  -3.20884564463e+00
  -3.57612261189e+00
  -3.95282462678e+00
  -4.33707437443e+00
  -4.72715451228e+00
  -5.12151846176e+00
  -5.51879245392e+00
  -5.91777106825e+00
  -6.31740826641e+00
  -6.71680559167e+00
  -7.11519885183e+00
  -7.51194427161e+00
  -7.90650481415e+00
  -8.29843713758e+00
  -8.68737947163e+00
  -9.07304056473e+00
  -9.45518975633e+00
  -9.83364816401e+00
  -1.02082809334e+01
  -1.05789904740e+01
  -1.09457105927e+01
  -1.13084014303e+01
  -1.16670451118e+01
  -1.20216420211e+01
  -1.23722076221e+01
  -1.27187697522e+01
  -1.30613663242e+01
  -1.34000433791e+01
  -1.37348534397e+01
  -1.40658541215e+01
  -1.43931069636e+01
  -1.47166764462e+01
  -1.50366291676e+01
  -1.53530331568e+01
  -1.56659573005e+01
  -1.59754708682e+01
  -1.62816431192e+01
  -1.65845429802e+01
  -1.68842387814e+01
  -1.71807980436e+01
  -1.74742873063e+01
  -1.77647719924e+01
  -1.80523163022e+01
  -1.83369831328e+01
  -1.86188340191e+01
  -1.88979290914e+01
  -1.91743270490e+01
  -1.94480851451e+01
  -1.97192591825e+01
  -1.99879035171e+01
  -2.02540710692e+01
  -2.05178133391e+01
  -2.07791804286e+01
  -2.10382210648e+01
  -2.12949826278e+01
  -2.15495111800e+01
  -2.18018514970e+01
  -2.20520470998e+01
  -2.23001402881e+01
  -2.25461721731e+01
  -2.27901827120e+01
  -2.30322107407e+01
  -2.32722940078e+01
  -2.35104692073e+01
  -2.37467720112e+01
  -2.39812371017e+01
  -2.42138982022e+01
  -2.44447881080e+01
  -2.46739387162e+01
  -2.49013810547e+01
  -2.51271453105e+01
  -2.53512608570e+01
  -2.55737562807e+01
  -2.57946594071e+01
  -2.60139973255e+01
  -2.62317964127e+01
  -2.64480823573e+01
  -2.66628801814e+01
  -2.68762142625e+01
  -2.70881083548e+01
  -2.72985856093e+01
  -2.75076685932e+01
  -2.77153793090e+01
  -2.79217392126e+01
  -2.81267692306e+01
  -2.83304897775e+01
  -2.85329207718e+01
  -2.87340816519e+01
  -2.89339913909e+01
  -2.91326685113e+01
  -2.93301310994e+01
  -2.95263968182e+01
  -2.97214829208e+01
  -2.99154062632e+01
</dep>
<dep S11_dB frequency>
  -3.18948724199e+01
  -2.83905509574e+01
  -2.59075431477e+01
  -2.39862612157e+01
  -2.24216566636e+01
  -2.11042370489e+01
  -1.99685927213e+01
  -1.89725022465e+01
  -1.80871153265e+01
  -1.72918367979e+01
  -1.65714449314e+01
  -1.59143666433e+01
  -1.53115935025e+01
  -1.47559725462e+01
  -1.42417264346e+01
  -1.37641193581e+01
  -1.33192186275e+01
  -1.29037208611e+01
  -1.25148228602e+01
  -1.21501240747e+01
  -1.18075518307e+01
  -1.14853032400e+01
  -1.11817995270e+01
  -1.08956497256e+01
  -1.06256215373e+01
  -1.03706177258e+01
  -1.01296568361e+01
  -9.90185732542e+00
  -9.68642440917e+00
  -9.48263908579e+00
  -9.28984892354e+00
  -9.10746028236e+00
  -8.93493171236e+00
  -8.77176832339e+00
  -8.61751696059e+00
  -8.47176205300e+00
  -8.33412202712e+00
  -8.20424619734e+00
  -8.08181206085e+00
  -7.96652293751e+00
  -7.85810590519e+00
  -7.75630998981e+00
  -7.66090457548e+00
  -7.57167800655e+00
  -7.48843635716e+00
  -7.41100234827e+00
  -7.33921439512e+00
  -7.27292577062e+00
  -7.21200387273e+00
  -7.15632958539e+00
  -7.10579672451e+00
  -7.06031156182e+00
  -7.01979242034e+00
  -6.98416933680e+00
  -6.95338378660e+00
  -6.92738846836e+00
  -6.90614714536e+00
  -6.88963454210e+00
  -6.87783629482e+00
  -6.87074895529e+00
  -6.86838004796e+00
  -6.87074818090e+00
  -6.87788321179e+00
  -6.88982647054e+00
  -6.90663104103e+00
  -6.92836210497e+00
  -6.95509735149e+00
  -6.98692745734e+00
  -7.02395664277e+00
  -7.06630331006e+00
  -7.11410077194e+00
  -7.16749807939e+00
  -7.22666095908e+00
  -7.29177287329e+00
  -7.36303621686e+00
  -7.44067366860e+00
  -7.52492971766e+00
  -7.61607238909e+00
  -7.71439519750e+00
  -7.82021936306e+00
  -7.93389633119e+00
  -8.05581064509e+00
  -8.18638323103e+00
  -8.32607516869e+00
  -8.47539203488e+00
  -8.63488892885e+00
  -8.80517631281e+00
  -8.98692683322e+00
  -9.18088332993e+00
  -9.38786829348e+00
  -9.60879510040e+00
  -9.84468144816e+00
  -1.00966655328e+01
  -1.03660256755e+01
  -1.06542043263e+01
  -1.09628376775e+01
  -1.12937925418e+01
  -1.16492127512e+01
  -1.20315781899e+01
  -1.24437808267e+01
  -1.28892239790e+01
  -1.33719538727e+01
  -1.38968369701e+01
  -1.44698035750e+01
  -1.50981898120e+01
  -1.57912297941e+01
  -1.65607847075e+01
  -1.74224602341e+01
  -1.83973902107e+01
  -1.95152282288e+01
  -2.08194844138e+01
  -2.23778303160e+01
  -2.43042190127e+01
  -2.68140594499e+01
  -3.03981664928e+01
  -3.66773418953e+01
  -6.01832930638e+01
  -3.55525408378e+01
  -2.97789577385e+01
  -2.63378767692e+01
  -2.38809045945e+01
  -2.19716714059e+01
  -2.04129801608e+01
  -1.90987424830e+01
  -1.79652700332e+01
  -1.69713085708e+01
  -1.60885943888e+01
  -1.52969089186e+01
  -1.45812827971e+01
  -1.39303176093e+01
  -1.33351287930e+01
  -1.27886528883e+01
  -1.22851782522e+01
  -1.18200180874e+01
  -1.13892770649e+01
  -1.09896812353e+01
  -1.06184517911e+01
  -1.02732098687e+01
  -9.95190374855e+00
  -9.65275249335e+00
  -9.37420184252e+00
  -9.11488937413e+00
  -8.87361676855e+00
  -8.64932758268e+00
  -8.44108935254e+00
  -8.24807913682e+00
  -8.06957183035e+00
  -7.90493073697e+00
  -7.75360001261e+00
  -7.61509868201e+00
  -7.48901600493e+00
  -7.37500802546e+00
  -7.27279518454e+00
  -7.18216091591e+00
  -7.10295117957e+00
  -7.03507491881e+00
  -6.97850545684e+00
  -6.93328287980e+00
  -6.89951748562e+00
  -6.87739441474e+00
  -6.86717962103e+00
  -6.86922739255e+00
  -6.88398969471e+00
  -6.91202768773e+00
  -6.95402587266e+00
  -7.01080945316e+00
  -7.08336567653e+00
  -7.17287015472e+00
  -7.28071948815e+00
  -7.40857196257e+00
  -7.55839871587e+00
  -7.73254866979e+00
  -7.93383182780e+00
  -8.16562748247e+00
  -8.43202682641e+00
  -8.73802405584e+00
  -9.08977740914e+00
  -9.49497371926e+00
  -9.96335079585e+00
  -1.05074688327e+01
  -1.11438907314e+01
  -1.18950663856e+01
  -1.27924999305e+01
  -1.38824257527e+01
  -1.52368507980e+01
  -1.69775296646e+01
  -1.93368273818e+01
  -2.28554226357e+01
  -2.94212740161e+01
  -4.37077899410e+01
  -2.62213219500e+01
  -2.06309185909e+01
  -1.71604814429e+01
  -1.46306857052e+01
  -1.26431167107e+01
  -1.10144696133e+01
  -9.64511519137e+00
  -8.47467688005e+00
  -7.46351315390e+00
  -6.58387113076e+00
  -5.81524257024e+00
  -5.14175874497e+00
  -4.55065961175e+00
  -4.03136450700e+00
  -3.57489403192e+00
  -3.17350217690e+00
  -2.82043570685e+00
  -2.50977064345e+00
  -2.23629524675e+00
  -1.99542096473e+00
  -1.78311035850e+00
  -1.59581569370e+00
  -1.43042473052e+00
  -1.28421190326e+00
  -1.15479399354e+00
  -1.04008986183e+00
  -9.38284002472e-01
  -8.47793749063e-01
  -7.67239953907e-01
  -6.95420938577e-01
  -6.31289484481e-01
  -5.73932611966e-01
  -5.22553886955e-01
  -4.76457994715e-01
  -4.35037329188e-01
  -3.97760360940e-01
  -3.64161565029e-01
  -3.33832710183e-01
  -3.06415331209e-01
  -2.81594226615e-01
  -2.59091842386e-01
  -2.38663420301e-01
  -2.20092805054e-01
  -2.03188818551e-01
  -1.87782122303e-01
  -1.73722499769e-01
  -1.60876500084e-01
  -1.49125392860e-01
  -1.38363390919e-01
  -1.28496103943e-01
  -1.19439191304e-01
  -1.11117186893e-01
  -1.03462472569e-01
  -9.64143802392e-02
  -8.99184053458e-02
  -8.39255169869e-02
  -7.83915519570e-02
  -7.32766817585e-02
  -6.85449431465e-02
  -6.41638240666e-02
  -6.01038979500e-02
  -5.63385002822e-02
  -5.28434421758e-02
  -4.95967563788e-02
  -4.65784717519e-02
  -4.37704127665e-02
  -4.11560210206e-02
  -3.87201961583e-02
  -3.64491539084e-02
  -3.43302992467e-02
  -3.23521129379e-02
  -3.05040499254e-02
  -2.87764482291e-02
  -2.71604471720e-02
  -2.56479138993e-02
  -2.42313772772e-02
  -2.29039683678e-02
  -2.16593667687e-02
  -2.04917521909e-02
  -1.93957607190e-02
  -1.83664452619e-02
  -1.73992397591e-02
  -1.64899267526e-02
  -1.56346079837e-02
  -1.48296777053e-02
  -1.40717984392e-02
  -1.33578789337e-02
  -1.26850541048e-02
  -1.20506667677e-02
  -1.14522509836e-02
  -1.08875168681e-02
  -1.03543367200e-02
  -9.85073234739e-03
  -9.37486347824e-03
  -8.92501715370e-03
  -8.49959801485e-03
  -8.09711940036e-03
  -7.71619518166e-03
  -7.35553226926e-03
  -7.01392373024e-03
  -6.69024246270e-03
  -6.38343537830e-03
  -6.09251804844e-03
  -5.81656977401e-03
  -5.55472904229e-03
  -5.30618933790e-03
  -5.07019527802e-03
  -4.84603904429e-03
  -4.63305708709e-03
  -4.43062707919e-03
</dep>
<dep S[1,1] frequency>
  -1.20098461714e-03-j2.53963505071e-02
  -2.69171221745e-03-j3.79650201571e-02
  -4.76883222981e-03-j5.04300847047e-02
  -7.42414642561e-03-j6.27580090958e-02
  -1.06472388538e-02-j7.49160332536e-02
  -1.44255630816e-02-j8.68723476927e-02
  -1.87445458649e-02-j9.85962578283e-02
  -2.35877056158e-02-j1.10058335250e-01
  -2.89367838352e-02-j1.21230554485e-01
  -3.47718875327e-02-j1.32086414061e-01
  -4.10716405482e-02-j1.42601040969e-01
  -4.78133416344e-02-j1.52751277922e-01
  -5.49731271462e-02-j1.62515753123e-01
  -6.25261362175e-02-j1.71874932518e-01
  -7.04466763754e-02-j1.80811154791e-01
  -7.87083876525e-02-j1.89308649632e-01
  -8.72844033965e-02-j1.97353539989e-01
  -9.61475061378e-02-j2.04933829251e-01
  -1.05270277063e-01-j2.12039374448e-01
  -1.14625237835e-01-j2.18661846690e-01
  -1.24184983704e-01-j2.24794680171e-01
  -1.33922307067e-01-j2.30433011109e-01
  -1.43810310816e-01-j2.35573608059e-01
  -1.53822511051e-01-j2.40214794997e-01
