<Qucs Dataset 0.0.18>
<indep frequency 150>
  +1.00000000000e+09
  +1.14765100671e+09
  +1.29530201342e+09
  +1.44295302013e+09
  +1.59060402685e+09
  +1.73825503356e+09
  +1.88590604027e+09
  +2.03355704698e+09
  +2.18120805369e+09
  +2.32885906040e+09
  +2.47651006711e+09
  +2.62416107383e+09
  +2.77181208054e+09
  +2.91946308725e+09
  +3.06711409396e+09
  +3.21476510067e+09
  +3.36241610738e+09
  +3.51006711409e+09
  +3.65771812081e+09
  +3.80536912752e+09
  +3.95302013423e+09
  +4.10067114094e+09
  +4.24832214765e+09
  +4.39597315436e+09
  +4.54362416107e+09
  +4.69127516779e+09
  +4.83892617450e+09
  +4.98657718121e+09
  +5.13422818792e+09
  +5.28187919463e+09
  +5.42953020134e+09
  +5.57718120805e+09
  +5.72483221477e+09
  +5.87248322148e+09
  +6.02013422819e+09
  +6.16778523490e+09
  +6.31543624161e+09
  +6.46308724832e+09
  +6.61073825503e+09
  +6.75838926174e+09
  +6.90604026846e+09
  +7.05369127517e+09
  +7.20134228188e+09
  +7.34899328859e+09
  +7.49664429530e+09
  +7.64429530201e+09
  +7.79194630872e+09
  +7.93959731544e+09
  +8.08724832215e+09
  +8.23489932886e+09
  +8.38255033557e+09
  +8.53020134228e+09
  +8.67785234899e+09
  +8.82550335570e+09
  +8.97315436242e+09
  +9.12080536913e+09
  +9.26845637584e+09
  +9.41610738255e+09
  +9.56375838926e+09
  +9.71140939597e+09
  +9.85906040268e+09
  +1.00067114094e+10
  +1.01543624161e+10
  +1.03020134228e+10
  +1.04496644295e+10
  +1.05973154362e+10
  +1.07449664430e+10
  +1.08926174497e+10
  +1.10402684564e+10
  +1.11879194631e+10
  +1.13355704698e+10
  +1.14832214765e+10
  +1.16308724832e+10
  +1.17785234899e+10
  +1.19261744966e+10
  +1.20738255034e+10
  +1.22214765101e+10
  +1.23691275168e+10
  +1.25167785235e+10
  +1.26644295302e+10
  +1.28120805369e+10
  +1.29597315436e+10
  +1.31073825503e+10
  +1.32550335570e+10
  +1.34026845638e+10
  +1.35503355705e+10
  +1.36979865772e+10
  +1.38456375839e+10
  +1.39932885906e+10
  +1.41409395973e+10
  +1.42885906040e+10
  +1.44362416107e+10
  +1.45838926174e+10
  +1.47315436242e+10
  +1.48791946309e+10
  +1.50268456376e+10
  +1.51744966443e+10
  +1.53221476510e+10
  +1.54697986577e+10
  +1.56174496644e+10
  +1.57651006711e+10
  +1.59127516779e+10
  +1.60604026846e+10
  +1.62080536913e+10
  +1.63557046980e+10
  +1.65033557047e+10
  +1.66510067114e+10
  +1.67986577181e+10
  +1.69463087248e+10
  +1.70939597315e+10
  +1.72416107383e+10
  +1.73892617450e+10
  +1.75369127517e+10
  +1.76845637584e+10
  +1.78322147651e+10
  +1.79798657718e+10
  +1.81275167785e+10
  +1.82751677852e+10
  +1.84228187919e+10
  +1.85704697987e+10
  +1.87181208054e+10
  +1.88657718121e+10
  +1.90134228188e+10
  +1.91610738255e+10
  +1.93087248322e+10
  +1.94563758389e+10
  +1.96040268456e+10
  +1.97516778523e+10
  +1.98993288591e+10
  +2.00469798658e+10
  +2.01946308725e+10
  +2.03422818792e+10
  +2.04899328859e+10
  +2.06375838926e+10
  +2.07852348993e+10
  +2.09328859060e+10
  +2.10805369128e+10
  +2.12281879195e+10
  +2.13758389262e+10
  +2.15234899329e+10
  +2.16711409396e+10
  +2.18187919463e+10
  +2.19664429530e+10
  +2.21140939597e+10
  +2.22617449664e+10
  +2.24093959732e+10
  +2.25570469799e+10
  +2.27046979866e+10
  +2.28523489933e+10
  +2.30000000000e+10
</indep>
<dep Tmin frequency>
  +7.74960998025e+00
  +8.90678874018e+00
  +1.00671763755e+01
  +1.12307319836e+01
  +1.23974149839e+01
  +1.35671851774e+01
  +1.47400028052e+01
  +1.59158286068e+01
  +1.70946238775e+01
  +1.82763505245e+01
  +1.94609711223e+01
  +2.06484489670e+01
  +2.18387481287e+01
  +2.30318335033e+01
  +2.42276708622e+01
  +2.54262269006e+01
  +2.66274692840e+01
  +2.78313666932e+01
  +2.90378888668e+01
  +3.02470066423e+01
  +3.14586919945e+01
  +3.26729180725e+01
  +3.38896592338e+01
  +3.51088910760e+01
  +3.63305904667e+01
  +3.75547355707e+01
  +3.87813058740e+01
  +4.00102822063e+01
  +4.12416467600e+01
  +4.24753831069e+01
  +4.37114762118e+01
  +4.49499124441e+01
  +4.61906795852e+01
  +4.74337668346e+01
  +4.86791648117e+01
  +4.99268655557e+01
  +5.11768625218e+01
  +5.24291505750e+01
  +5.36837259805e+01
  +5.49405863910e+01
  +5.61997308318e+01
  +5.74611596814e+01
  +5.87248746505e+01
  +5.99908787572e+01
  +6.12591762990e+01
  +6.25297728225e+01
  +6.38026750889e+01
  +6.50778910377e+01
  +6.63554297464e+01
  +6.76353013873e+01
  +6.89175171820e+01
  +7.02020893518e+01
  +7.14890310658e+01
  +7.27783563853e+01
  +7.40700802064e+01
  +7.53642181982e+01
  +7.66607867386e+01
  +7.79598028475e+01
  +7.92612841163e+01
  +8.05652486349e+01
  +8.18717149155e+01
  +8.31807018137e+01
  +8.44922284462e+01
  +8.58063141061e+01
  +8.71229781749e+01
  +8.84422400315e+01
  +8.97641189586e+01
  +9.10886340461e+01
  +9.24158040911e+01
  +9.37456474958e+01
  +9.50781821616e+01
  +9.64134253812e+01
  +9.77513937268e+01
  +9.90921029363e+01
  +1.00435567796e+02
  +1.01781802021e+02
  +1.03130818131e+02
  +1.04482627327e+02
  +1.05837239359e+02
  +1.07194662398e+02
  +1.08554902899e+02
  +1.09917965465e+02
  +1.11283852707e+02
  +1.12652565098e+02
  +1.14024100830e+02
  +1.15398455667e+02
  +1.16775622788e+02
  +1.18155592636e+02
  +1.19538352761e+02
  +1.20923887660e+02
  +1.22312178613e+02
  +1.23703203520e+02
  +1.25096936732e+02
  +1.26493348880e+02
  +1.27892406705e+02
  +1.29294072879e+02
  +1.30698305832e+02
  +1.32105059570e+02
  +1.33514283492e+02
  +1.34925922210e+02
  +1.36339915360e+02
  +1.37756197416e+02
  +1.39174697503e+02
  +1.40595339205e+02
  +1.42018040372e+02
  +1.43442712932e+02
  +1.44869262694e+02
  +1.46297589156e+02
  +1.47727585312e+02
  +1.49159137454e+02
  +1.50592124985e+02
  +1.52026420219e+02
  +1.53461888194e+02
  +1.54898386477e+02
  +1.56335764981e+02
  +1.57773865770e+02
  +1.59212522881e+02
  +1.60651562141e+02
  +1.62090800989e+02
  +1.63530048300e+02
  +1.64969104220e+02
  +1.66407759999e+02
  +1.67845797836e+02
  +1.69282990723e+02
  +1.70719102305e+02
  +1.72153886741e+02
  +1.73587088576e+02
  +1.75018442622e+02
  +1.76447673853e+02
  +1.77874497301e+02
  +1.79298617976e+02
  +1.80719730788e+02
  +1.82137520491e+02
  +1.83551661636e+02
  +1.84961818541e+02
  +1.86367645277e+02
  +1.87768785676e+02
  +1.89164873344e+02
  +1.90555531712e+02
  +1.91940374092e+02
  +1.93319003761e+02
  +1.94691014065e+02
  +1.96055988552e+02
  +1.97413501117e+02
  +1.98763116186e+02
  +2.00104388915e+02
  +2.01436865427e+02
  +2.02760083063e+02
  +2.04073570674e+02
  +2.05376848936e+02
</dep>
<dep Xopt frequency>
  +2.84152967321e+02
  +2.47178489196e+02
  +2.18582251304e+02
  +1.95792189845e+02
  +1.77191253319e+02
  +1.61711798722e+02
  +1.48620520481e+02
  +1.37397073703e+02
  +1.27661995046e+02
  +1.19132042727e+02
  +1.11591512457e+02
  +1.04873236981e+02
  +9.88456584043e+01
  +9.34038233798e+01
  +8.84629792457e+01
  +8.39539348889e+01
  +7.98196438888e+01
  +7.60126500313e+01
  +7.24931515167e+01
  +6.92275158187e+01
  +6.61871273673e+01
  +6.33474841701e+01
  +6.06874828059e+01
  +5.81888475036e+01
  +5.58356705287e+01
  +5.36140393551e+01
  +5.15117320859e+01
  +4.95179669752e+01
  +4.76231951612e+01
  +4.58189281546e+01
  +4.40975934647e+01
  +4.24524131497e+01
  +4.08773011515e+01
  +3.93667761085e+01
  +3.79158869887e+01
  +3.65201493945e+01
  +3.51754907921e+01
  +3.38782032374e+01
  +3.26249024272e+01
  +3.14124921061e+01
  +3.02381330282e+01
  +2.90992158057e+01
  +2.79933370851e+01
  +2.69182785829e+01
  +2.58719885867e+01
  +2.48525655864e+01
  +2.38582437524e+01
  +2.28873800215e+01
  +2.19384425815e+01
  +2.10100005805e+01
  +2.01007149079e+01
  +1.92093299166e+01
  +1.83346659737e+01
  +1.74756127415e+01
  +1.66311231043e+01
  +1.58002076649e+01
  +1.49819297495e+01
  +1.41754008609e+01
  +1.33797765319e+01
  +1.25942525354e+01
  +1.18180614111e+01
  +1.10504692768e+01
  +1.02907728910e+01
  +9.53829694351e+00
  +8.79239154721e+00
  +8.05242991058e+00
  +7.31780617224e+00
  +6.58793337959e+00
  +5.86224159640e+00
  +5.14017612520e+00
  +4.42119583178e+00
  +3.70477156024e+00
  +2.99038462795e+00
  +2.27752539082e+00
  +1.56569186985e+00
  +8.54388430636e-01
  +1.43124508233e-01
  -5.68586629954e-01
  -1.28122909007e+00
  -1.99528553294e+00
  -2.71123833667e+00
  -3.42957074661e+00
  -4.15076801854e+00
  -4.87531856075e+00
  -5.60371508050e+00
  -6.33645574051e+00
  -7.07404533108e+00
  -7.81699646330e+00
  -8.56583078932e+00
  -9.32108025539e+00
  -1.00832883937e+01
  -1.08530116597e+01
  -1.16308208208e+01
  -1.24173024043e+01
  -1.32130602111e+01
  -1.40187169033e+01
  -1.48349156745e+01
  -1.56623220104e+01
  -1.65016255508e+01
  -1.73535420619e+01
  -1.82188155314e+01
  -1.90982203969e+01
  -1.99925639218e+01
  -2.09026887322e+01
  -2.18294755307e+01
  -2.27738460033e+01
  -2.37367659375e+01
  -2.47192485729e+01
  -2.57223582038e+01
  -2.67472140600e+01
  -2.77949944892e+01
  -2.88669414718e+01
  -2.99643654968e+01
  -3.10886508342e+01
  -3.22412612397e+01
  -3.34237461319e+01
  -3.46377472859e+01
  -3.58850060897e+01
  -3.71673714147e+01
  -3.84868081552e+01
  -3.98454064947e+01
  -4.12453919620e+01
  -4.26891363419e+01
  -4.41791695081e+01
  -4.57181922485e+01
  -4.73090901506e+01
  -4.89549486136e+01
  -5.06590690473e+01
  -5.24249863037e+01
  -5.42564873723e+01
  -5.61576313374e+01
  -5.81327705543e+01
  -6.01865729397e+01
  -6.23240451802e+01
  -6.45505565395e+01
  -6.68718627688e+01
  -6.92941293774e+01
  -7.18239531838e+01
  -7.44683805940e+01
  -7.72349203993e+01
  -8.01315479860e+01
  -8.31666965924e+01
  -8.63492295164e+01
  -8.96883847617e+01
  -9.31936802572e+01
  -9.68747631049e+01
  -1.00741179778e+02
  -1.04802035046e+02
  -1.09065494595e+02
  -1.13538068353e+02
</dep>
<dep Ropt frequency>
  +6.19561065164e+01
  +5.40483441455e+01
  +4.79511815849e+01
  +4.31088398205e+01
  +3.91719087962e+01
  +3.59097004079e+01
  +3.31637737619e+01
  +3.08217068591e+01
  +2.88015210150e+01
  +2.70420302878e+01
  +2.54966431477e+01
  +2.41292566807e+01
  +2.29114630601e+01
  +2.18206037134e+01
  +2.08383855272e+01
  +1.99498783935e+01
  +1.91427768795e+01
  +1.84068482473e+01
  +1.77335141680e+01
  +1.71155298183e+01
  +1.65467348964e+01
  +1.60218584332e+01
  +1.55363643087e+01
  +1.50863279051e+01
  +1.46683368126e+01
  +1.42794102906e+01
  +1.39169334763e+01
  +1.35786032863e+01
  +1.32623836562e+01
  +1.29664682915e+01
  +1.26892494999e+01
  +1.24292919792e+01
  +1.21853106646e+01
  +1.19561519229e+01
  +1.17407775181e+01
  +1.15382508845e+01
  +1.13477253305e+01
  +1.11684338634e+01
  +1.09996803832e+01
  +1.08408320356e+01
  +1.06913125518e+01
  +1.05505964292e+01
  +1.04182038348e+01
  +1.02936961284e+01
  +1.01766719210e+01
  +1.00667635964e+01
  +9.96363423536e+00
  +9.86697488942e+00
  +9.77650216096e+00
  +9.69195605122e+00
  +9.61309804360e+00
  +9.53970939451e+00
  +9.47158960736e+00
  +9.40855506898e+00
  +9.35043783025e+00
  +9.29708451536e+00
  +9.24835534594e+00
  +9.20412326821e+00
  +9.16427317280e+00
  +9.12870119820e+00
  +9.09731410996e+00
  +9.07002874862e+00
  +9.04677154060e+00
  +9.02747806655e+00
  +9.01209268276e+00
  +9.00056819157e+00
  +8.99286555751e+00
  +8.98895366590e+00
  +8.98880912185e+00
  +8.99241608708e+00
  +8.99976615316e+00
  +9.01085824952e+00
  +9.02569858515e+00
  +9.04430062328e+00
  +9.06668508826e+00
  +9.09288000455e+00
  +9.12292076764e+00
  +9.15685024713e+00
  +9.19471892256e+00
  +9.23658505246e+00
  +9.28251487788e+00
  +9.33258286134e+00
  +9.38687196298e+00
  +9.44547395554e+00
  +9.50848978038e+00
  +9.57602994693e+00
  +9.64821497846e+00
  +9.72517590731e+00
  +9.80705482317e+00
  +9.89400547869e+00
  +9.98619395676e+00
  +1.00837994049e+01
  +1.01870148424e+01
  +1.02960480468e+01
  +1.04111225271e+01
  +1.05324785917e+01
  +1.06603745205e+01
  +1.07950878510e+01
  +1.09369167909e+01
  +1.10861817689e+01
  +1.12432271395e+01
  +1.14084230570e+01
  +1.15821675388e+01
  +1.17648887367e+01
  +1.19570474420e+01
  +1.21591398488e+01
  +1.23717006079e+01
  +1.25953062030e+01
  +1.28305786899e+01
  +1.30781898420e+01
  +1.33388657518e+01
  +1.36133919471e+01
  +1.39026190855e+01
  +1.42074693045e+01
  +1.45289433108e+01
  +1.48681283095e+01
  +1.52262068869e+01
  +1.56044669776e+01
  +1.60043130687e+01
  +1.64272788171e+01
  +1.68750412848e+01
  +1.73494370303e+01
  +1.78524803343e+01
  +1.83863838843e+01
  +1.89535822998e+01
  +1.95567589452e+01
  +2.01988765578e+01
  +2.08832123123e+01
  +2.16133980605e+01
  +2.23934666180e+01
  +2.32279051378e+01
  +2.41217168125e+01
  +2.50804923843e+01
  +2.61104932414e+01
  +2.72187482352e+01
  +2.84131667864e+01
  +2.97026713856e+01
  +3.10973532391e+01
  +3.26086556079e+01
  +3.42495903577e+01
  +3.60349944268e+01
  +3.79818343608e+01
  +4.01095688211e+01
  +4.24405810889e+01
  +4.50006961180e+01
  +4.78197996615e+01
  +5.09325804203e+01
  +5.43794199335e+01
  +5.82074588327e+01
  +6.24718715687e+01
</dep>
<dep Rn frequency>
  +1.80501820201e+01
  +1.79715223598e+01
  +1.78823130252e+01
  +1.77826561913e+01
  +1.76726660825e+01
  +1.75524688712e+01
  +1.74222025664e+01
  +1.72820168932e+01
  +1.71320731620e+01
  +1.69725441295e+01
  +1.68036138505e+01
  +1.66254775219e+01
  +1.64383413179e+01
  +1.62424222190e+01
  +1.60379478326e+01
  +1.58251562076e+01
  +1.56042956426e+01
  +1.53756244884e+01
  +1.51394109452e+01
  +1.48959328546e+01
  +1.46454774876e+01
  +1.43883413284e+01
  +1.41248298547e+01
  +1.38552573154e+01
  +1.35799465051e+01
  +1.32992285370e+01
  +1.30134426138e+01
  +1.27229357980e+01
  +1.24280627803e+01
  +1.21291856489e+01
  +1.18266736581e+01
  +1.15209029974e+01
  +1.12122565616e+01
  +1.09011237221e+01
  +1.05879000993e+01
  +1.02729873377e+01
  +9.95679288212e+00
  +9.63972975717e+00
  +9.32221634903e+00
  +9.00467619032e+00
  +8.68753774806e+00
  +8.37123421511e+00
  +8.05620330505e+00
  +7.74288705086e+00
  +7.43173160739e+00
  +7.12318705773e+00
  +6.81770722368e+00
  +6.51574948026e+00
  +6.21777457431e+00
  +5.92424644723e+00
  +5.63563206183e+00
  +5.35240123322e+00
  +5.07502646373e+00
  +4.80398278171e+00
  +4.53974758417e+00
  +4.28280048305e+00
  +4.03362315501e+00
  +3.79269919459e+00
  +3.56051397050e+00
  +3.33755448474e+00
  +3.12430923450e+00
  +2.92126807643e+00
  +2.72892209297e+00
  +2.54776346062e+00
  +2.37828531959e+00
  +2.22098164466e+00
  +2.07634711689e+00
  +1.94487699563e+00
  +1.82706699066e+00
  +1.72341313393e+00
  +1.63441165045e+00
  +1.56055882798e+00
  +1.50235088499e+00
  +1.46028383647e+00
  +1.43485335704e+00
  +1.42655464098e+00
  +1.43588225853e+00
  +1.46333000801e+00
  +1.50939076330e+00
  +1.57455631599e+00
  +1.65931721175e+00
  +1.76416258033e+00
  +1.88957995861e+00
  +2.03605510617e+00
  +2.20407181274e+00
  +2.39411169695e+00
  +2.60665399581e+00
  +2.84217534433e+00
  +3.10114954465e+00
  +3.38404732403e+00
  +3.69133608126e+00
  +4.02347962068e+00
  +4.38093787333e+00
  +4.76416660467e+00
  +5.17361710811e+00
  +5.60973588392e+00
  +6.07296430292e+00
  +6.56373825426e+00
  +7.08248777688e+00
  +7.62963667403e+00
  +8.20560211029e+00
  +8.81079419070e+00
  +9.44561552135e+00
  +1.01104607512e+01
  +1.08057160941e+01
  +1.15317588320e+01
  +1.22889567968e+01
  +1.30776678324e+01
  +1.38982392364e+01
  +1.47510071795e+01
  +1.56362961049e+01
  +1.65544181058e+01
  +1.75056722810e+01
  +1.84903440700e+01
  +1.95087045651e+01
  +2.05610098040e+01
  +2.16475000391e+01
  +2.27683989876e+01
  +2.39239130596e+01
  +2.51142305669e+01
  +2.63395209117e+01
  +2.75999337562e+01
  +2.88955981741e+01
  +3.02266217847e+01
  +3.15930898701e+01
  +3.29950644775e+01
  +3.44325835069e+01
  +3.59056597868e+01
  +3.74142801376e+01
  +3.89584044261e+01
  +4.05379646123e+01
  +4.21528637898e+01
  +4.38029752232e+01
  +4.54881413840e+01
  +4.72081729870e+01
  +4.89628480314e+01
  +5.07519108479e+01
  +5.25750711556e+01
  +5.44320031315e+01
  +5.63223444962e+01
  +5.82456956197e+01
  +6.02016186493e+01
  +6.21896366662e+01
  +6.42092328722e+01
  +6.62598498122e+01
  +6.83408886365e+01
  +7.04517084070e+01
  +7.25916254526e+01
  +7.47599127776e+01
  +7.69557995283e+01
</dep>
<dep Fmin frequency>
  +1.02672279304e+00
  +1.03071306462e+00
  +1.03471440129e+00
  +1.03872666201e+00
  +1.04274970684e+00
  +1.04678339716e+00
  +1.05082759588e+00
  +1.05488216761e+00
  +1.05894697889e+00
  +1.06302189836e+00
  +1.06710679697e+00
  +1.07120154816e+00
  +1.07530602803e+00
  +1.07942011553e+00
  +1.08354369263e+00
  +1.08767664448e+00
  +1.09181885960e+00
  +1.09597022998e+00
  +1.10013065126e+00
  +1.10430002290e+00
  +1.10847824826e+00
  +1.11266523473e+00
  +1.11686089391e+00
  +1.12106514164e+00
  +1.12527789816e+00
  +1.12949908817e+00
  +1.13372864094e+00
  +1.13796649037e+00
  +1.14221257503e+00
  +1.14646683830e+00
  +1.15072922832e+00
  +1.15499969808e+00
  +1.15927820547e+00
  +1.16356471322e+00
  +1.16785918901e+00
  +1.17216160536e+00
  +1.17647193973e+00
  +1.18079017440e+00
  +1.18511629648e+00
  +1.18945029790e+00
  +1.19379217528e+00
  +1.19814192994e+00
  +1.20249956776e+00
  +1.20686509916e+00
  +1.21123853896e+00
  +1.21561990628e+00
  +1.22000922444e+00
  +1.22440652082e+00
  +1.22881182671e+00
  +1.23322517720e+00
  +1.23764661097e+00
  +1.24207617018e+00
  +1.24651390023e+00
  +1.25095984960e+00
  +1.25541406968e+00
  +1.25987661448e+00
  +1.26434754048e+00
  +1.26882690637e+00
  +1.27331477281e+00
  +1.27781120219e+00
  +1.28231625833e+00
  +1.28683000625e+00
  +1.29135251188e+00
  +1.29588384175e+00
  +1.30042406267e+00
  +1.30497324149e+00
  +1.30953144468e+00
  +1.31409873809e+00
  +1.31867518652e+00
  +1.32326085343e+00
  +1.32785580056e+00
  +1.33246008752e+00
  +1.33707377147e+00
  +1.34169690668e+00
  +1.34632954412e+00
  +1.35097173111e+00
  +1.35562351080e+00
  +1.36028492182e+00
  +1.36495599779e+00
  +1.36963676689e+00
  +1.37432725138e+00
  +1.37902746712e+00
  +1.38373742313e+00
  +1.38845712103e+00
  +1.39318655459e+00
  +1.39792570920e+00
  +1.40267456134e+00
  +1.40743307805e+00
  +1.41220121642e+00
  +1.41697892297e+00
  +1.42176613315e+00
  +1.42656277076e+00
  +1.43136874735e+00
  +1.43618396166e+00
  +1.44100829898e+00
  +1.44584163062e+00
  +1.45068381321e+00
  +1.45553468817e+00
  +1.46039408101e+00
  +1.46526180072e+00
  +1.47013763917e+00
  +1.47502137040e+00
  +1.47991275001e+00
  +1.48481151450e+00
  +1.48971738059e+00
  +1.49463004459e+00
  +1.49954918170e+00
  +1.50447444537e+00
  +1.50940546659e+00
  +1.51434185329e+00
  +1.51928318960e+00
  +1.52422903524e+00
  +1.52917892481e+00
  +1.53413236716e+00
  +1.53908884476e+00
  +1.54404781300e+00
  +1.54900869959e+00
  +1.55397090394e+00
  +1.55893379651e+00
  +1.56389671828e+00
  +1.56885898007e+00
  +1.57381986207e+00
  +1.57877861323e+00
  +1.58373445077e+00
  +1.58868655967e+00
  +1.59363409221e+00
  +1.59857616750e+00
  +1.60351187111e+00
  +1.60844025467e+00
  +1.61336033552e+00
  +1.61827109647e+00
  +1.62317148548e+00
  +1.62806041549e+00
  +1.63293676426e+00
  +1.63779937428e+00
  +1.64264705268e+00
  +1.64747857130e+00
  +1.65229266670e+00
  +1.65708804039e+00
  +1.66186335894e+00
  +1.66661725435e+00
  +1.67134832436e+00
  +1.67605513294e+00
  +1.68073621075e+00
  +1.68539005581e+00
  +1.69001513419e+00
  +1.69460988078e+00
  +1.69917270022e+00
  +1.70370196784e+00
  +1.70819603081e+00
</dep>
<dep Sopt frequency>
  +8.79974685991e-01+j3.04633219130e-01
  +8.55334228221e-01+j3.43669735453e-01
  +8.29271947614e-01+j3.80986951330e-01
  +8.01912259804e-01+j4.16545115472e-01
  +7.73378389580e-01+j4.50314092427e-01
  +7.43791616998e-01+j4.82272877988e-01
  +7.13270608245e-01+j5.12409063612e-01
  +6.81930832143e-01+j5.40718262421e-01
  +6.49884061486e-01+j5.67203508667e-01
  +6.17237956986e-01+j5.91874641573e-01
  +5.84095730396e-01+j6.14747683437e-01
  +5.50555882451e-01+j6.35844220758e-01
  +5.16712010531e-01+j6.55190795974e-01
  +4.82652680428e-01+j6.72818316261e-01
  +4.48461356319e-01+j6.88761484695e-01
  +4.14216382867e-01+j7.03058258016e-01
  +3.79991013372e-01+j7.15749334261e-01
  +3.45853478047e-01+j7.26877672579e-01
  +3.11867086659e-01+j7.36488046770e-01
  +2.78090360128e-01+j7.44626633347e-01
  +2.44577185965e-01+j7.51340634316e-01
  +2.11376992879e-01+j7.56677934328e-01
