<Qucs Dataset 0.0.18>
<indep acfrequency 100>
  +1.00000000000e+04
  +1.17681195243e+04
  +1.38488637139e+04
  +1.62975083462e+04
  +1.91791026167e+04
  +2.25701971963e+04
  +2.65608778295e+04
  +3.12571584969e+04
  +3.67837977183e+04
  +4.32876128108e+04
  +5.09413801482e+04
  +5.99484250319e+04
  +7.05480231072e+04
  +8.30217568132e+04
  +9.77009957299e+04
  +1.14975699540e+05
  +1.35304777458e+05
  +1.59228279334e+05
  +1.87381742286e+05
  +2.20513073990e+05
  +2.59502421140e+05
  +3.05385550883e+05
  +3.59381366380e+05
  +4.22924287439e+05
  +4.97702356433e+05
  +5.85702081806e+05
  +6.89261210435e+05
  +8.11130830790e+05
  +9.54548456662e+05
  +1.12332403298e+06
  +1.32194114847e+06
  +1.55567614393e+06
  +1.83073828030e+06
  +2.15443469003e+06
  +2.53536449397e+06
  +2.98364724028e+06
  +3.51119173422e+06
  +4.13201240012e+06
  +4.86260158007e+06
  +5.72236765935e+06
  +6.73415065775e+06
  +7.92482898354e+06
  +9.32603346883e+06
  +1.09749876549e+07
  +1.29154966501e+07
  +1.51991108295e+07
  +1.78864952906e+07
  +2.10490414451e+07
  +2.47707635599e+07
  +2.91505306283e+07
  +3.43046928631e+07
  +4.03701725860e+07
  +4.75081016210e+07
  +5.59081018251e+07
  +6.57933224658e+07
  +7.74263682681e+07
  +9.11162756115e+07
  +1.07226722201e+08
  +1.26185688307e+08
  +1.48496826225e+08
  +1.74752840001e+08
  +2.05651230835e+08
  +2.42012826479e+08
  +2.84803586844e+08
  +3.35160265094e+08
  +3.94420605944e+08
  +4.64158883361e+08
  +5.46227721768e+08
  +6.42807311728e+08
  +7.56463327555e+08
  +8.90215085445e+08
  +1.04761575279e+09
  +1.23284673944e+09
  +1.45082877850e+09
  +1.70735264747e+09
  +2.00923300257e+09
  +2.36448941265e+09
  +2.78255940221e+09
  +3.27454916288e+09
  +3.85352859371e+09
  +4.53487850813e+09
  +5.33669923121e+09
  +6.28029144183e+09
  +7.39072203353e+09
  +8.69749002618e+09
  +1.02353102190e+10
  +1.20450354026e+10
  +1.41747416293e+10
  +1.66810053720e+10
  +1.96304065004e+10
  +2.31012970008e+10
  +2.71858824273e+10
  +3.19926713780e+10
  +3.76493580679e+10
  +4.43062145758e+10
  +5.21400828800e+10
  +6.13590727341e+10
  +7.22080901839e+10
  +8.49753435909e+10
  +1.00000000000e+11
</indep>
<dep Gain acfrequency>
  +1.26694733747e+01
  +1.26694733747e+01
  +1.26694733747e+01
  +1.26694733747e+01
  +1.26694733746e+01
  +1.26694733746e+01
  +1.26694733746e+01
  +1.26694733745e+01
  +1.26694733744e+01
  +1.26694733743e+01
  +1.26694733741e+01
  +1.26694733739e+01
  +1.26694733736e+01
  +1.26694733732e+01
  +1.26694733726e+01
  +1.26694733718e+01
  +1.26694733707e+01
  +1.26694733692e+01
  +1.26694733671e+01
  +1.26694733642e+01
  +1.26694733601e+01
  +1.26694733545e+01
  +1.26694733467e+01
  +1.26694733359e+01
  +1.26694733210e+01
  +1.26694733003e+01
  +1.26694732717e+01
  +1.26694732320e+01
  +1.26694731771e+01
  +1.26694731011e+01
  +1.26694729958e+01
  +1.26694728499e+01
  +1.26694726480e+01
  +1.26694723682e+01
  +1.26694719809e+01
  +1.26694714444e+01
  +1.26694707014e+01
  +1.26694696725e+01
  +1.26694682476e+01
  +1.26694662742e+01
  +1.26694635414e+01
  +1.26694597566e+01
  +1.26694545152e+01
  +1.26694472565e+01
  +1.26694372040e+01
  +1.26694232825e+01
  +1.26694040028e+01
  +1.26693773028e+01
  +1.26693403266e+01
  +1.26692891193e+01
  +1.26692182040e+01
  +1.26691199964e+01
  +1.26689839937e+01
  +1.26687956526e+01
  +1.26685348352e+01
  +1.26681736591e+01
  +1.26676735218e+01
  +1.26669809851e+01
  +1.26660220861e+01
  +1.26646944755e+01
  +1.26628565676e+01
  +1.26603125806e+01
  +1.26567919511e+01
  +1.26519210739e+01
  +1.26451846398e+01
  +1.26358729974e+01
  +1.26230109697e+01
  +1.26052625119e+01
  +1.25808047581e+01
  +1.25471649173e+01
  +1.25010152590e+01
  +1.24379270006e+01
  +1.23520964826e+01
  +1.22360810235e+01
  +1.20806219749e+01
  +1.18746898054e+01
  +1.16059492843e+01
  +1.12618750020e+01
  +1.08316769247e+01
  +1.03089387791e+01
  +9.69441916383e+00
  +8.99800510030e+00
  +8.23873317100e+00
  +7.44240879306e+00
  +6.63744542677e+00
  +5.85038371216e+00
  +5.10253954343e+00
  +4.40848432570e+00
  +3.77620360539e+00
  +3.20830623410e+00
  +2.70362487214e+00
  +2.25875126921e+00
  +1.86927543812e+00
  +1.53064831865e+00
  +1.23866105289e+00
  +9.89572798226e-01
  +7.79964065783e-01
  +6.06450157245e-01
  +4.65422406129e-01
  +3.52949717740e-01
</dep>
<dep VCC.i acfrequency>
  -1.21417571278e-06+j2.21655605153e-12
  -1.21417571278e-06+j2.60846965468e-12
  -1.21417571278e-06+j3.06967826719e-12
  -1.21417571277e-06+j3.61243407495e-12
  -1.21417571277e-06+j4.25115559677e-12
  -1.21417571276e-06+j5.00281071791e-12
  -1.21417571276e-06+j5.88736744857e-12
  -1.21417571275e-06+j6.92832438179e-12
  -1.21417571273e-06+j8.15333494273e-12
  -1.21417571271e-06+j9.59494201264e-12
  -1.21417571268e-06+j1.12914424431e-11
  -1.21417571264e-06+j1.32879044269e-11
  -1.21417571258e-06+j1.56373647516e-11
  -1.21417571250e-06+j1.84022377431e-11
  -1.21417571240e-06+j2.16559733256e-11
  -1.21417571225e-06+j2.54850082481e-11
  -1.21417571204e-06+j2.99910623090e-11
  -1.21417571175e-06+j3.52938405831e-11
  -1.21417571135e-06+j4.15342134317e-11
  -1.21417571080e-06+j4.88779587791e-11
  -1.21417571004e-06+j5.75201660653e-11
  -1.21417570898e-06+j6.76904188722e-11
  -1.21417570751e-06+j7.96588938971e-11
  -1.21417570549e-06+j9.37435382978e-11
  -1.21417570268e-06+j1.10318516075e-10
  -1.21417569879e-06+j1.29824147872e-10
  -1.21417569340e-06+j1.52778608246e-10
  -1.21417568594e-06+j1.79791691145e-10
  -1.21417567560e-06+j2.11581009271e-10
  -1.21417566129e-06+j2.48991057656e-10
  -1.21417564147e-06+j2.93015647872e-10
  -1.21417561403e-06+j3.44824308799e-10
  -1.21417557601e-06+j4.05793355264e-10
  -1.21417552337e-06+j4.77542449797e-10
  -1.21417545047e-06+j5.61977628662e-10
  -1.21417534951e-06+j6.61341934909e-10
  -1.21417520969e-06+j7.78275003195e-10
  -1.21417501605e-06+j9.15883178626e-10
  -1.21417474789e-06+j1.07782203139e-09
  -1.21417437652e-06+j1.26839345759e-09
  -1.21417386221e-06+j1.49265994316e-09
  -1.21417314995e-06+j1.75657902205e-09
  -1.21417216355e-06+j2.06716149363e-09
  -1.21417079750e-06+j2.43265759104e-09
  -1.21416890569e-06+j2.86277602751e-09
  -1.21416628575e-06+j3.36894170951e-09
  -1.21416265745e-06+j3.96459891371e-09
  -1.21415763270e-06+j4.66556790132e-09
  -1.21415067407e-06+j5.49046431261e-09
  -1.21414103729e-06+j6.46119226967e-09
  -1.21412769169e-06+j7.60352393919e-09
  -1.21410921005e-06+j8.94778038522e-09
  -1.21408361601e-06+j1.05296308763e-08
  -1.21404817298e-06+j1.23910303773e-08
  -1.21399909187e-06+j1.45813176829e-08
  -1.21393112671e-06+j1.71584993760e-08
  -1.21383701539e-06+j2.01907472309e-08
  -1.21370670624e-06+j2.37581382739e-08
  -1.21352628955e-06+j2.79546665491e-08
  -1.21327652237e-06+j3.28905521152e-08
  -1.21293079467e-06+j3.86948632968e-08
  -1.21245232962e-06+j4.55184484145e-08
  -1.21179033922e-06+j5.35371361174e-08
  -1.21087476267e-06+j6.29550978748e-08
  -1.20960909863e-06+j7.40081545879e-08
  -1.20786070494e-06+j8.69666246620e-08
  -1.20544779265e-06+j1.02137013001e-07
  -1.20212222029e-06+j1.19861372093e-07
  -1.19754717261e-06+j1.40512452790e-07
  -1.19126903775e-06+j1.64481720191e-07
  -1.18268355275e-06+j1.92155882316e-07
  -1.17099803586e-06+j2.23875826461e-07
  -1.15519495725e-06+j2.59870155079e-07
  -1.13400804952e-06+j3.00154907482e-07
  -1.10593113547e-06+j3.44393777959e-07
  -1.06929080433e-06+j3.91722990768e-07
  -1.02242207810e-06+j4.40566618964e-07
  -9.63979837309e-07+j4.88503344181e-07
  -8.93380916103e-07+j5.32285038812e-07
  -8.11291502214e-07+j5.68120850577e-07
  -7.19973509374e-07+j5.92281232787e-07
  -6.23256863376e-07+j6.01922339108e-07
  -5.26004372474e-07+j5.95847180591e-07
  -4.33183230561e-07+j5.74857958992e-07
  -3.48894043270e-07+j5.41519586500e-07
  -2.75735562338e-07+j4.99456281091e-07
  -2.14676396336e-07+j4.52511580495e-07
  -1.65342362646e-07+j4.04083500640e-07
  -1.26492942670e-07+j3.56774029380e-07
  -9.64833407423e-08+j3.12322982964e-07
  -7.36063257886e-08+j2.71717411035e-07
  -5.62960564554e-08+j2.35370206134e-07
  -4.32222890723e-08+j2.03299220553e-07
  -3.33142699523e-08+j1.75275982286e-07
  -2.57464726562e-08+j1.50937595924e-07
  -1.99064192177e-08+j1.29866472848e-07
  -1.53550862575e-08+j1.11644603567e-07
  -1.17852988669e-08+j9.58871958427e-08
  -8.98234873281e-09+j8.22588121594e-08
  -6.79109385484e-09+j7.04755731873e-08
</dep>
<dep V1.i acfrequency>
  -4.83867722728e-07+j8.90756905513e-13
  -4.83867722727e-07+j1.04825337312e-12
  -4.83867722727e-07+j1.23359709867e-12
  -4.83867722725e-07+j1.45171181019e-12
  -4.83867722724e-07+j1.70839180972e-12
  -4.83867722721e-07+j2.01045590111e-12
  -4.83867722718e-07+j2.36592853426e-12
  -4.83867722714e-07+j2.78425297770e-12
  -4.83867722707e-07+j3.27654218271e-12
  -4.83867722699e-07+j3.85587400321e-12
  -4.83867722687e-07+j4.53763861395e-12
  -4.83867722671e-07+j5.33994735654e-12
  -4.83867722648e-07+j6.28411387426e-12
  -4.83867722617e-07+j7.39522031721e-12
  -4.83867722573e-07+j8.70278365940e-12
  -4.83867722513e-07+j1.02415398286e-11
  -4.83867722429e-07+j1.20523664795e-11
  -4.83867722314e-07+j1.41833689248e-11
  -4.83867722153e-07+j1.66911580710e-11
  -4.83867721932e-07+j1.96423543089e-11
  -4.83867721624e-07+j2.31153573100e-11
  -4.83867721199e-07+j2.72024287433e-11
  -4.83867720610e-07+j3.20121432413e-11
  -4.83867719794e-07+j3.76722727259e-11
  -4.83867718664e-07+j4.43331807156e-11
  -4.83867717100e-07+j5.21718167867e-11
  -4.83867714933e-07+j6.13964172997e-11
  -4.83867711932e-07+j7.22520372664e-11
  -4.83867707776e-07+j8.50270603120e-11
  -4.83867702020e-07+j1.00060859664e-10
  -4.83867694050e-07+j1.17752813682e-10
  -4.83867683011e-07+j1.38572915410e-10
  -4.83867667724e-07+j1.63074257982e-10
  -4.83867646553e-07+j1.91907727523e-10
  -4.83867617234e-07+j2.25839293817e-10
  -4.83867576630e-07+j2.65770357970e-10
  -4.83867520399e-07+j3.12761697483e-10
  -4.83867442524e-07+j3.68061644571e-10
  -4.83867334677e-07+j4.33139245936e-10
  -4.83867185321e-07+j5.09723284205e-10
  -4.83866978480e-07+j5.99848196634e-10
  -4.83866692029e-07+j7.05908109165e-10
  -4.83866295327e-07+j8.30720418494e-10
  -4.83865745941e-07+j9.77600606629e-10
  -4.83864985107e-07+j1.15045026796e-09
  -4.83863931442e-07+j1.35386067516e-09
  -4.83862472242e-07+j1.59323461532e-09
  -4.83860451432e-07+j1.87492970070e-09
  -4.83857652866e-07+j2.20642690849e-09
  -4.83853777225e-07+j2.59652874111e-09
  -4.83848410005e-07+j3.05559213156e-09
  -4.83840977211e-07+j3.59580205301e-09
  -4.83830684015e-07+j4.23149273030e-09
  -4.83816429831e-07+j4.97952438160e-09
  -4.83796690794e-07+j5.85972451383e-09
  -4.83769357133e-07+j6.89540389117e-09
  -4.83731508224e-07+j8.11395827275e-09
  -4.83679101574e-07+j9.54756765617e-09
  -4.83606543088e-07+j1.12340046930e-08
  -4.83506093807e-07+j1.32175625236e-08
  -4.83367051925e-07+j1.55501084544e-08
  -4.83174626857e-07+j1.82922619317e-08
  -4.82908393118e-07+j2.15146803410e-08
  -4.82540174264e-07+j2.52994097844e-08
  -4.82031160253e-07+j2.97412130973e-08
  -4.81328006262e-07+j3.49487131044e-08
  -4.80357602133e-07+j4.10450693014e-08
  -4.79020152786e-07+j4.81677177873e-08
  -4.77180201422e-07+j5.64664172682e-08
  -4.74655319627e-07+j6.60984247708e-08
  -4.71202492657e-07+j7.72190504572e-08
  -4.66502931452e-07+j8.99651359502e-08
  -4.60147423793e-07+j1.04428315598e-07
  -4.51626730242e-07+j1.20614676568e-07
  -4.40335140597e-07+j1.38388529383e-07
  -4.25599712681e-07+j1.57401962199e-07
  -4.06750936981e-07+j1.77020550452e-07
  -3.83248008288e-07+j1.96269755235e-07
  -3.54856658501e-07+j2.13842384539e-07
  -3.21845218775e-07+j2.28212840663e-07
  -2.85123970175e-07+j2.37880052725e-07
  -2.46234049055e-07+j2.41699045480e-07
  -2.07132285227e-07+j2.39187083909e-07
  -1.69817846759e-07+j2.30665405952e-07
  -1.35941822317e-07+j2.17164163147e-07
  -1.06551846581e-07+j2.00139611017e-07
  -8.20406439302e-08+j1.81136438337e-07
  -6.22617311248e-08+j1.61520642363e-07
  -4.67211159465e-08+j1.42338963317e-07
  -3.47630588573e-08+j1.24292838349e-07
  -2.57072107042e-08+j1.07783078906e-07
  -1.89298203939e-08+j9.29823755619e-08
  -1.39003342052e-08+j7.99077351979e-08
  -1.01892723269e-08+j6.84800177161e-08
  -7.46072897809e-09+j5.85675919733e-08
  -5.45840680334e-09+j5.00158876064e-08
  -3.99024543890e-09+j4.26660913497e-08
  -2.91412369031e-09+j3.63661074555e-08
  -2.12565961820e-09+j3.09762572109e-08
  -1.54839662888e-09+j2.63715608259e-08
</dep>
<dep _net12.v acfrequency>
  +6.33473668733e-04-j1.27293502594e-09
  +6.33473668732e-04-j1.49800515320e-09
  +6.33473668731e-04-j1.76287036909e-09
  +6.33473668729e-04-j2.07456692094e-09
  +6.33473668727e-04-j2.44137514868e-09
  +6.33473668723e-04-j2.87303945533e-09
  +6.33473668719e-04-j3.38102717082e-09
  +6.33473668712e-04-j3.97883318609e-09
  +6.33473668703e-04-j4.68233845008e-09
  +6.33473668691e-04-j5.51023185330e-09
  +6.33473668674e-04-j6.48450670549e-09
  +6.33473668650e-04-j7.63104499641e-09
  +6.33473668618e-04-j8.98030496092e-09
  +6.33473668573e-04-j1.05681302138e-08
  +6.33473668510e-04-j1.24367019494e-08
  +6.33473668423e-04-j1.46356595011e-08
  +6.33473668303e-04-j1.72234190296e-08
  +6.33473668136e-04-j2.02687253710e-08
  +6.33473667906e-04-j2.38524782692e-08
  +6.33473667586e-04-j2.80698815094e-08
  +6.33473667144e-04-j3.30329720426e-08
  +6.33473666532e-04-j3.88735962897e-08
  +6.33473665683e-04-j4.57469126916e-08
  +6.33473664509e-04-j5.38355135509e-08
  +6.33473662882e-04-j6.33542756628e-08
  +6.33473660629e-04-j7.45560685946e-08
  +6.33473657509e-04-j8.77384722521e-08
  +6.33473653187e-04-j1.03251682188e-07
  +6.33473647203e-04-j1.21507812655e-07
  +6.33473638916e-04-j1.42991844530e-07
  +6.33473627439e-04-j1.68274508946e-07
  +6.33473611544e-04-j1.98027448859e-07
  +6.33473589532e-04-j2.33041061297e-07
  +6.33473559048e-04-j2.74245494233e-07
  +6.33473516831e-04-j3.22735355779e-07
  +6.33473458365e-04-j3.79798791990e-07
  +6.33473377396e-04-j4.46951705514e-07
  +6.33473265264e-04-j5.25978023779e-07
  +6.33473109973e-04-j6.18977085870e-07
  +6.33472894913e-04-j7.28419406022e-07
  +6.33472597080e-04-j8.57212293581e-07
  +6.33472184615e-04-j1.00877707016e-06
  +6.33471613399e-04-j1.18713993126e-06
  +6.33470822332e-04-j1.39703885950e-06
  +6.33469726796e-04-j1.64404941895e-06
  +6.33468209609e-04-j1.93473275473e-06
  +6.33466108488e-04-j2.27680970106e-06
  +6.33463198696e-04-j2.67936557639e-06
  +6.33459169004e-04-j3.15309103026e-06
  +6.33453588416e-04-j3.71056521641e-06
  +6.33445860084e-04-j4.36658861333e-06
  +6.33435157506e-04-j5.13857400551e-06
  +6.33420336195e-04-j6.04700547715e-06
  +6.33399811407e-04-j7.11597674050e-06
  +6.33371388909e-04-j8.37382168068e-06
  +6.33332030814e-04-j9.85385155673e-06
  +6.33277531682e-04-j1.15952146810e-05
  +6.33202070682e-04-j1.36438952927e-05
  +6.33097592816e-04-j1.60538682048e-05
  +6.32952954687e-04-j1.88884237194e-05
  +6.32752746682e-04-j2.22216717471e-05
  +6.32475671755e-04-j2.61402225287e-05
  +6.32092319201e-04-j3.07450197840e-05
  +6.31562117807e-04-j3.61532640301e-05
  +6.30829185294e-04-j4.25002990362e-05
  +6.29816711303e-04-j4.99412272714e-05
  +6.28419426531e-04-j5.86518474370e-05
  +6.26493640406e-04-j6.88282356221e-05
  +6.23844317716e-04-j8.06838779092e-05
  +6.20208797898e-04-j9.44426580698e-05
  +6.15237199561e-04-j1.10325176365e-04
  +6.08470566818e-04-j1.28524859463e-04
  +5.99319804841e-04-j1.49169334372e-04
  +5.87051901867e-04-j1.72262188380e-04
  +5.70795138807e-04-j1.97601816195e-04
  +5.49581339025e-04-j2.24679764845e-04
  +5.22447856499e-04-j2.52573522390e-04
  +4.88618312216e-04-j2.79869105776e-04
  +4.47759151968e-04-j3.04671633622e-04
  +4.00262581209e-04-j3.24769784559e-04
  +3.47447922734e-04-j3.37985722033e-04
  +2.91546370095e-04-j3.42652817801e-04
  +2.35391916230e-04-j3.38056883425e-04
  +1.81884608535e-04-j3.24640741105e-04
  +1.33429529189e-04-j3.03868006252e-04
  +9.15706634969e-05-j2.77817003683e-04
  +5.69187734330e-05-j2.48696658022e-04
  +2.93199636501e-05-j2.18465500381e-04
  +8.13287690406e-06-j1.88634939729e-04
  -7.50475651840e-06-j1.60239666933e-04
  -1.84835158966e-05-j1.33911643494e-04
  -2.56162583728e-05-j1.09994093238e-04
  -2.96037775879e-05-j8.86515257140e-05
  -3.10481440834e-05-j6.99515792346e-05
  -3.04886358414e-05-j5.39086829220e-05
  -2.84364408534e-05-j4.04907969675e-05
  -2.53889240524e-05-j2.96017295988e-05
  -2.18155205427e-05-j2.10603311110e-05
  -1.81234618473e-05-j1.45974371376e-05
  -1.46232112381e-05-j9.87904100697e-06
</dep>
<dep _net11.v acfrequency>
  +6.33473668733e-04-j1.15352805251e-09
  +6.33473668732e-04-j1.35748559966e-09
  +6.33473668731e-04-j1.59750527893e-09
  +6.33473668730e-04-j1.87996330632e-09
  +6.33473668728e-04-j2.21236328901e-09
  +6.33473668725e-04-j2.60353556162e-09
  +6.33473668720e-04-j3.06387176749e-09
  +6.33473668715e-04-j3.60560091667e-09
  +6.33473668707e-04-j4.24311425440e-09
  +6.33473668696e-04-j4.99334757003e-09
  +6.33473668680e-04-j5.87623110294e-09
  +6.33473668659e-04-j6.91521899697e-09
  +6.33473668630e-04-j8.13791236896e-09
  +6.33473668589e-04-j9.57679254304e-09
  +6.33473668533e-04-j1.12700839296e-08
  +6.33473668455e-04-j1.32627694717e-08
  +6.33473668347e-04-j1.56077856340e-08
  +6.33473668197e-04-j1.83674286807e-08
  +6.33473667990e-04-j2.16150095998e-08
  +6.33473667703e-04-j2.54368016374e-08
  +6.33473667306e-04-j2.99343321796e-08
  +6.33473666755e-04-j3.52270798661e-08
  +6.33473665993e-04-j4.14556485854e-08
  +6.33473664938e-04-j4.87855026690e-08
  +6.33473663476e-04-j5.74113625124e-08
  +6.33473661452e-04-j6.75623773917e-08
  +6.33473658648e-04-j7.95082128935e-08
  +6.33473654766e-04-j9.35662146696e-08
  +6.33473649390e-04-j1.10109838822e-07
  +6.33473641944e-04-j1.29578572865e-07
  +6.33473631632e-04-j1.52489610816e-07
  +6.33473617351e-04-j1.79451592537e-07
  +6.33473597574e-04-j2.11180772310e-07
  +6.33473570185e-04-j2.48520046107e-07
  +6.33473532254e-04-j2.92461342960e-07
  +6.33473479725e-04-j3.44171975145e-07
  +6.33473406977e-04-j4.05025646983e-07
  +6.33473306230e-04-j4.76638945714e-07
  +6.33473166707e-04-j5.60914283314e-07
  +6.33472973483e-04-j6.60090429180e-07
  +6.33472705891e-04-j7.76801974742e-07
  +6.33472335306e-04-j9.14149307465e-07
  +6.33471822088e-04-j1.07578094950e-06
  +6.33471111342e-04-j1.26599044241e-06
  +6.33470127042e-04-j1.48983034208e-06
  +6.33468763903e-04-j1.75324633644e-06
  +6.33466876120e-04-j2.06323502321e-06
  +6.33464261774e-04-j2.42802949727e-06
  +6.33460641239e-04-j2.85731760980e-06
  +6.33455627278e-04-j3.36249858640e-06
  +6.33448683644e-04-j3.95698464025e-06
  +6.33439067755e-04-j4.65655529845e-06
  +6.33425751329e-04-j5.47977337396e-06
  +6.33407310529e-04-j6.44847285157e-06
  +6.33381773912e-04-j7.58833037475e-06
  +6.33346412044e-04-j8.92953344067e-06
  +6.33297446478e-04-j1.05075596765e-05
  +6.33229647397e-04-j1.23640824033e-05
  +6.33135777650e-04-j1.45480176048e-05
  +6.33005825259e-04-j1.71167255912e-05
  +6.32825945167e-04-j2.01373757017e-05
  +6.32577002612e-04-j2.36884720928e-05
  +6.32232572887e-04-j2.78615193574e-05
  +6.31756203754e-04-j3.27627726076e-05
  +6.31097686125e-04-j3.85149585963e-05
  +6.30188007012e-04-j4.52587584003e-05
  +6.28932582620e-04-j5.31536872108e-05
  +6.27202306243e-04-j6.23777631344e-05
  +6.24821934602e-04-j7.31249856558e-05
  +6.21555455551e-04-j8.55991021879e-05
  +6.17088473566e-04-j1.00001398312e-04
  +6.11008559005e-04-j1.16509335373e-04
  +6.02786293357e-04-j1.35241973029e-04
  +5.91762838307e-04-j1.56207799295e-04
  +5.77154526284e-04-j1.79232008023e-04
  +5.58090669425e-04-j2.03865388442e-04
  +5.33704951151e-04-j2.29288243252e-04
  +5.03297449348e-04-j2.54241070875e-04
  +4.66564642205e-04-j2.77034238368e-04
  +4.23852982365e-04-j2.95695790279e-04
  +3.76339093007e-04-j3.08285718623e-04
  +3.26015328340e-04-j3.13324882540e-04
  +2.75411328331e-04-j3.10191022493e-04
  +2.27110903710e-04-j2.99302063756e-04
  +1.83246812316e-04-j2.81993058919e-04
  +1.45170190377e-04-j2.60150179210e-04
  +1.13383750119e-04-j2.35773616593e-04
  +8.76912331057e-05-j2.10631570100e-04
  +6.74452749076e-05-j1.86077722956e-04
