<Qucs Dataset 0.0.18>
<indep frequency 39>
  +1.00000000000e+09
  +1.50000000000e+09
  +2.00000000000e+09
  +2.50000000000e+09
  +3.00000000000e+09
  +3.50000000000e+09
  +4.00000000000e+09
  +4.50000000000e+09
  +5.00000000000e+09
  +5.50000000000e+09
  +6.00000000000e+09
  +6.50000000000e+09
  +7.00000000000e+09
  +7.50000000000e+09
  +8.00000000000e+09
  +8.50000000000e+09
  +9.00000000000e+09
  +9.50000000000e+09
  +1.00000000000e+10
  +1.05000000000e+10
  +1.10000000000e+10
  +1.15000000000e+10
  +1.20000000000e+10
  +1.25000000000e+10
  +1.30000000000e+10
  +1.35000000000e+10
  +1.40000000000e+10
  +1.45000000000e+10
  +1.50000000000e+10
  +1.55000000000e+10
  +1.60000000000e+10
  +1.65000000000e+10
  +1.70000000000e+10
  +1.75000000000e+10
  +1.80000000000e+10
  +1.85000000000e+10
  +1.90000000000e+10
  +1.95000000000e+10
  +2.00000000000e+10
</indep>
<dep Rn frequency>
  +3.20237216061e+01
  +3.14273669874e+01
  +3.06045898978e+01
  +2.95674906858e+01
  +2.83315998424e+01
  +2.69158578213e+01
  +2.53425905353e+01
  +2.36374806233e+01
  +2.18295345985e+01
  +1.99510460052e+01
  +1.80375547238e+01
  +1.61278025792e+01
  +1.42636854217e+01
  +1.24902018589e+01
  +1.08553988320e+01
  +9.41031423718e+00
  +8.20891680371e+00
  +7.30804344898e+00
  +6.76733433608e+00
  +6.64916586746e+00
  +7.01858185235e+00
  +7.94322308937e+00
  +9.49325560916e+00
  +1.17412978228e+01
  +1.47623468234e+01
  +1.86337040863e+01
  +2.34349008144e+01
  +2.92476231695e+01
  +3.61556376311e+01
  +4.42447167155e+01
  +5.36025652884e+01
  +6.43187476928e+01
  +7.64846159123e+01
  +9.01932389808e+01
  +1.05539333841e+02
  +1.22619197846e+02
  +1.41530643101e+02
  +1.62372932800e+02
  +1.85246719756e+02
</dep>
<dep Fmin frequency>
  +1.02732990113e+00
  +1.04124914049e+00
  +1.05533748399e+00
  +1.06959451138e+00
  +1.08401971973e+00
  +1.09861252407e+00
  +1.11337225820e+00
  +1.12829817572e+00
  +1.14338945122e+00
  +1.15864518166e+00
  +1.17406438796e+00
  +1.18964601676e+00
  +1.20538894231e+00
  +1.22129196862e+00
  +1.23735383171e+00
  +1.25357320210e+00
  +1.26994868733e+00
  +1.28647883478e+00
  +1.30316213454e+00
  +1.31999702245e+00
  +1.33698188325e+00
  +1.35411505390e+00
  +1.37139482693e+00
  +1.38881945397e+00
  +1.40638714934e+00
  +1.42409609371e+00
  +1.44194443788e+00
  +1.45993030657e+00
  +1.47805180230e+00
  +1.49630700931e+00
  +1.51469399751e+00
  +1.53321082644e+00
  +1.55185554928e+00
  +1.57062621684e+00
  +1.58952088154e+00
  +1.60853760142e+00
  +1.62767444407e+00
  +1.64692949057e+00
  +1.66630083939e+00
</dep>
<dep Sopt frequency>
  -3.90228894215e-01-j9.06948359797e-01
  +2.16676274808e-02-j9.67356009840e-01
  +3.26791510047e-01-j8.83821905026e-01
  +5.26811142266e-01-j7.46768035022e-01
  +6.48615196810e-01-j5.99528651320e-01
  +7.15930643923e-01-j4.58948292033e-01
  +7.44922469799e-01-j3.30484494353e-01
  +7.45783931800e-01-j2.15383226528e-01
  +7.24817309548e-01-j1.13687345357e-01
  +6.85987841884e-01-j2.54401530658e-02
  +6.31990562268e-01+j4.88616865541e-02
  +5.65007860555e-01+j1.08149875196e-01
  +4.87284311252e-01+j1.50858780102e-01
  +4.01570287313e-01+j1.75160259027e-01
  +3.11417388123e-01+j1.79355385670e-01
  +2.21258855845e-01+j1.62393538268e-01
  +1.36198178565e-01+j1.24424861545e-01
  +6.14826116020e-02+j6.72216441272e-02
  +1.75346590775e-03-j5.71693879926e-03
  -3.97113824782e-02-j8.94857668000e-02
  -6.15027262899e-02-j1.78466646912e-01
  -6.41602519981e-02-j2.67178238120e-01
  -4.98326845695e-02-j3.51012664036e-01
  -2.16809469369e-02-j4.26668341511e-01
  +1.67591418761e-02-j4.92237803103e-01
  +6.20896250604e-02-j5.47032820472e-01
  +1.11369458769e-01-j5.91277248752e-01
  +1.62250969112e-01-j6.25780877849e-01
  +2.12984897974e-01-j6.51662295635e-01
  +2.62350834640e-01-j6.70145954964e-01
  +3.09557536443e-01-j6.82431147253e-01
  +3.54141107378e-01-j6.89618224012e-01
  +3.95875222554e-01-j6.92674973313e-01
  +4.34698460755e-01-j6.92428421259e-01
  +4.70658746322e-01-j6.89571139150e-01
  +5.03872613567e-01-j6.84674732317e-01
  +5.34496327375e-01-j6.78205981556e-01
  +5.62706014922e-01-j6.70543055989e-01
  +5.88684405378e-01-j6.61990473811e-01
</dep>
<dep F frequency>
  +3.11831676698e+00
  +2.23033962607e+00
  +1.91072748111e+00
  +1.75346101965e+00
  +1.65860211291e+00
  +1.59217746589e+00
  +1.54028153203e+00
  +1.49656866211e+00
  +1.45800327059e+00
  +1.42317682775e+00
  +1.39156108493e+00
  +1.36314606732e+00
  +1.33825159317e+00
  +1.31742311251e+00
  +1.30137110725e+00
  +1.29093417902e+00
  +1.28705558969e+00
  +1.29076773159e+00
  +1.30318142512e+00
  +1.32547823889e+00
  +1.35890474996e+00
  +1.40476807753e+00
  +1.46443226937e+00
  +1.53931527060e+00
  +1.63088629765e+00
  +1.74066349969e+00
  +1.87021182841e+00
  +2.02114106285e+00
  +2.19510395259e+00
  +2.39379445478e+00
  +2.61894604815e+00
  +2.87233011297e+00
  +3.15575436968e+00
  +3.47106137195e+00
  +3.82012705140e+00
  +4.20485931330e+00
  +4.62719668288e+00
  +5.08910700296e+00
  +5.59258618398e+00
</dep>
<dep S[2,2] frequency>
  +7.82179249582e-01-j5.33087669378e-02
  +7.97426883958e-01-j9.48545149716e-02
  +8.09287010692e-01-j1.44290459086e-01
  +8.16697262527e-01-j1.99600975666e-01
  +8.19293932215e-01-j2.60124253097e-01
  +8.16307239111e-01-j3.26022840624e-01
  +8.06170280401e-01-j3.97683974479e-01
  +7.86371326096e-01-j4.75180111459e-01
  +7.53446550715e-01-j5.57651985242e-01
  +7.03251654644e-01-j6.42521220855e-01
  +6.31805810646e-01-j7.24629506791e-01
  +5.36989786030e-01-j7.95772591905e-01
  +4.20920797196e-01-j8.45529759772e-01
  +2.91775315192e-01-j8.64170813773e-01
  +1.63021829749e-01-j8.46961907973e-01
  +4.92322205787e-02-j7.97102574509e-01
  -3.92354040637e-02-j7.24663982680e-01
  -9.90056113590e-02-j6.42208738156e-01
  -1.32693850770e-01-j5.60420428232e-01
  -1.45989496316e-01-j4.86085604649e-01
  -1.45051215196e-01-j4.22295372693e-01
  -1.35100751652e-01-j3.69608862336e-01
  -1.20016636821e-01-j3.27216446170e-01
  -1.02448249423e-01-j2.93748312982e-01
  -8.40991899264e-02-j2.67731551693e-01
  -6.60088399459e-02-j2.47806446856e-01
  -4.87750764384e-02-j2.32805493965e-01
  -3.27130501464e-02-j2.21763992289e-01
  -1.79621693249e-02-j2.13901248238e-01
  -4.55579487812e-03-j2.08592265350e-01
  +7.53435110855e-03-j2.05339061732e-01
  +1.83703622495e-02-j2.03745242224e-01
  +2.80309910506e-02-j2.03494826521e-01
  +3.66012667840e-02-j2.04335195094e-01
  +4.41663775730e-02-j2.06063597651e-01
  +5.08082145386e-02-j2.08516580793e-01
  +5.66035619317e-02-j2.11561738832e-01
  +6.16232915185e-02-j2.15091283956e-01
  +6.59321573615e-02-j2.19017029082e-01
</dep>
<dep S[2,1] frequency>
  -1.35496203128e+00-j1.82528077626e+00
  -2.35321216220e+00-j1.89877610444e+00
  -3.17653124672e+00-j1.60738432202e+00
  -3.79605996112e+00-j1.13043828570e+00
  -4.24729262101e+00-j5.60798375350e-01
  -4.56617204015e+00+j6.54187646743e-02
  -4.77230535667e+00+j7.39464875736e-01
  -4.86722192174e+00+j1.46237486102e+00
  -4.83592098549e+00+j2.23381404359e+00
  -4.64994270918e+00+j3.04256543731e+00
  -4.27413245724e+00+j3.85692029289e+00
  -3.68038972273e+00+j4.61728411436e+00
  -2.86888636088e+00+j5.23813197639e+00
  -1.88857216599e+00+j5.62771557521e+00
  -8.39506231430e-01+j5.72389753340e+00
  +1.54814594923e-01+j5.52556820122e+00
  +9.91783726734e-01+j5.09429037088e+00
  +1.62001020815e+00+j4.52462080652e+00
  +2.03963607996e+00+j3.90737068343e+00
  +2.28284256063e+00+j3.30798536234e+00
  +2.39264986108e+00+j2.76322873925e+00
  +2.40946539683e+00+j2.28781533216e+00
  +2.36561906061e+00+j1.88293481096e+00
  +2.28472851273e+00+j1.54293103275e+00
  +2.18308555344e+00+j1.25949518048e+00
  +2.07148689740e+00+j1.02393223656e+00
  +1.95685722571e+00+j8.28219015162e-01
  +1.84349285073e+00+j6.65393900545e-01
  +1.73394855959e+00+j5.29613040401e-01
  +1.62964550180e+00+j4.16059293822e-01
  +1.53127842279e+00+j3.20799770750e-01
  +1.43908469916e+00+j2.40637508975e-01
  +1.35302043725e+00+j1.72976578998e-01
  +1.27287489626e+00+j1.15706952698e-01
  +1.19834428009e+00+j6.71095116201e-02
  +1.12907887067e+00+j2.57791353345e-02
  +1.06471271593e+00-j9.43693041617e-03
  +1.00488192966e+00-j3.94882059283e-02
  +9.49235581572e-01-j6.51600704277e-02
</dep>
<dep S[1,2] frequency>
  -8.03120220895e-03+j5.69090930358e-03
  -1.28297961699e-02+j1.48640478785e-02
  -1.51145035330e-02+j2.68541069990e-02
  -1.44749593215e-02+j4.03203694441e-02
  -1.09089425793e-02+j5.44992731887e-02
  -4.34860914406e-03+j6.89465903488e-02
  +5.45171251197e-03+j8.32649235709e-02
  +1.88871841123e-02+j9.68994839854e-02
  +3.63942408485e-02+j1.08971381019e-01
  +5.82427400457e-02+j1.18147542573e-01
  +8.41958760992e-02+j1.22614844426e-01
  +1.13072128612e-01+j1.20302493274e-01
  +1.42417222143e-01+j1.09499372647e-01
  +1.68684624372e-01+j8.97900336242e-02
  +1.88209389909e-01+j6.27827274408e-02
  +1.98617252005e-01+j3.19083548477e-02
  +1.99702158118e-01+j1.19212485901e-03
  +1.93154402446e-01-j2.61639592558e-02
  +1.81526474989e-01-j4.84806142447e-02
  +1.67255614816e-01-j6.54561388960e-02
  +1.52172489177e-01-j7.76295988778e-02
  +1.37436624203e-01-j8.58766512595e-02
  +1.23675064451e-01-j9.10957711784e-02
  +1.11159314173e-01-j9.40656123697e-02
  +9.99498073976e-02-j9.54060348168e-02
  +8.99941946545e-02-j9.55877240928e-02
  +8.11875555082e-02-j9.49585093781e-02
  +7.34066069518e-02-j9.37714170117e-02
  +6.65278029237e-02-j9.22088381455e-02
  +6.04360546048e-02-j9.04015325863e-02
  +5.50282490277e-02-j8.84428959153e-02
  +5.02140234499e-02-j8.63994091058e-02
  +4.59151878858e-02-j8.43181939084e-02
  +4.20645594576e-02-j8.22324428548e-02
  +3.86046123088e-02-j8.01653145517e-02
  +3.54861455790e-02-j7.81327299350e-02
  +3.26670619623e-02-j7.61453839557e-02
  +3.01112909281e-02-j7.42101971751e-02
  +2.77878609106e-02-j7.23313667239e-02
</dep>
<dep S[1,1] frequency>
  -3.79189312467e-01+j9.24446151012e-01
  +6.72066425531e-02+j9.94513172666e-01
  +4.20053278288e-01+j8.98733719421e-01
  +6.65922978193e-01+j7.25215324634e-01
  +8.22331534565e-01+j5.21755602997e-01
  +9.07846912176e-01+j3.10081659964e-01
  +9.34748659165e-01+j9.98169454788e-02
  +9.09090897583e-01-j1.03409348528e-01
  +8.32570211512e-01-j2.93468789041e-01
  +7.05077475073e-01-j4.61016332871e-01
  +5.28153491118e-01-j5.92100391926e-01
  +3.09421088175e-01-j6.68892944186e-01
  +6.67032620862e-02-j6.73919728957e-01
  -1.71430938283e-01-j5.97856610876e-01
  -3.71921256355e-01-j4.47194183280e-01
  -5.08754426673e-01-j2.45320375227e-01
  -5.72238571314e-01-j2.43965996341e-02
  -5.69481819751e-01+j1.86457807231e-01
  -5.17437211420e-01+j3.68698598657e-01
  -4.34806122070e-01+j5.15042476761e-01
  -3.37084314098e-01+j6.26106310622e-01
  -2.35079954993e-01+j7.06498770098e-01
  -1.35417679934e-01+j7.62047358641e-01
  -4.16748131686e-02+j7.98319758201e-01
  +4.45435167239e-02+j8.20035033912e-01
  +1.22804684737e-01+j8.30950965027e-01
  +1.93320354332e-01+j8.33957430870e-01
  +2.56621981836e-01+j8.31233418244e-01
  +3.13371863820e-01+j8.24403925222e-01
  +3.64258538887e-01+j8.14673727058e-01
  +4.09942463703e-01+j8.02933434111e-01
  +4.51030659226e-01+j7.89840473684e-01
  +4.88067502422e-01+j7.75879689221e-01
  +5.21534139980e-01+j7.61408217284e-01
  +5.51852203924e-01+j7.46688568808e-01
  +5.79389403879e-01+j7.31912989946e-01
  +6.04465674408e-01+j7.17221422466e-01
  +6.27359189986e-01+j7.02714778944e-01
  +6.48311918858e-01+j6.88464787622e-01
</dep>
