<Qucs Dataset 0.0.18>
<indep time 300>
  +0.00000000000e+00
  +3.34448160535e-08
  +6.68896321070e-08
  +1.00334448161e-07
  +1.33779264214e-07
  +1.67224080268e-07
  +2.00668896321e-07
  +2.34113712375e-07
  +2.67558528428e-07
  +3.01003344482e-07
  +3.34448160535e-07
  +3.67892976589e-07
  +4.01337792642e-07
  +4.34782608696e-07
  +4.68227424749e-07
  +5.01672240803e-07
  +5.35117056856e-07
  +5.68561872910e-07
  +6.02006688963e-07
  +6.35451505017e-07
  +6.68896321070e-07
  +7.02341137124e-07
  +7.35785953177e-07
  +7.69230769231e-07
  +8.02675585284e-07
  +8.36120401338e-07
  +8.69565217391e-07
  +9.03010033445e-07
  +9.36454849498e-07
  +9.69899665552e-07
  +1.00334448161e-06
  +1.03678929766e-06
  +1.07023411371e-06
  +1.10367892977e-06
  +1.13712374582e-06
  +1.17056856187e-06
  +1.20401337793e-06
  +1.23745819398e-06
  +1.27090301003e-06
  +1.30434782609e-06
  +1.33779264214e-06
  +1.37123745819e-06
  +1.40468227425e-06
  +1.43812709030e-06
  +1.47157190635e-06
  +1.50501672241e-06
  +1.53846153846e-06
  +1.57190635452e-06
  +1.60535117057e-06
  +1.63879598662e-06
  +1.67224080268e-06
  +1.70568561873e-06
  +1.73913043478e-06
  +1.77257525084e-06
  +1.80602006689e-06
  +1.83946488294e-06
  +1.87290969900e-06
  +1.90635451505e-06
  +1.93979933110e-06
  +1.97324414716e-06
  +2.00668896321e-06
  +2.04013377926e-06
  +2.07357859532e-06
  +2.10702341137e-06
  +2.14046822742e-06
  +2.17391304348e-06
  +2.20735785953e-06
  +2.24080267559e-06
  +2.27424749164e-06
  +2.30769230769e-06
  +2.34113712375e-06
  +2.37458193980e-06
  +2.40802675585e-06
  +2.44147157191e-06
  +2.47491638796e-06
  +2.50836120401e-06
  +2.54180602007e-06
  +2.57525083612e-06
  +2.60869565217e-06
  +2.64214046823e-06
  +2.67558528428e-06
  +2.70903010033e-06
  +2.74247491639e-06
  +2.77591973244e-06
  +2.80936454849e-06
  +2.84280936455e-06
  +2.87625418060e-06
  +2.90969899666e-06
  +2.94314381271e-06
  +2.97658862876e-06
  +3.01003344482e-06
  +3.04347826087e-06
  +3.07692307692e-06
  +3.11036789298e-06
  +3.14381270903e-06
  +3.17725752508e-06
  +3.21070234114e-06
  +3.24414715719e-06
  +3.27759197324e-06
  +3.31103678930e-06
  +3.34448160535e-06
  +3.37792642140e-06
  +3.41137123746e-06
  +3.44481605351e-06
  +3.47826086957e-06
  +3.51170568562e-06
  +3.54515050167e-06
  +3.57859531773e-06
  +3.61204013378e-06
  +3.64548494983e-06
  +3.67892976589e-06
  +3.71237458194e-06
  +3.74581939799e-06
  +3.77926421405e-06
  +3.81270903010e-06
  +3.84615384615e-06
  +3.87959866221e-06
  +3.91304347826e-06
  +3.94648829431e-06
  +3.97993311037e-06
  +4.01337792642e-06
  +4.04682274247e-06
  +4.08026755853e-06
  +4.11371237458e-06
  +4.14715719064e-06
  +4.18060200669e-06
  +4.21404682274e-06
  +4.24749163880e-06
  +4.28093645485e-06
  +4.31438127090e-06
  +4.34782608696e-06
  +4.38127090301e-06
  +4.41471571906e-06
  +4.44816053512e-06
  +4.48160535117e-06
  +4.51505016722e-06
  +4.54849498328e-06
  +4.58193979933e-06
  +4.61538461538e-06
  +4.64882943144e-06
  +4.68227424749e-06
  +4.71571906355e-06
  +4.74916387960e-06
  +4.78260869565e-06
  +4.81605351171e-06
  +4.84949832776e-06
  +4.88294314381e-06
  +4.91638795987e-06
  +4.94983277592e-06
  +4.98327759197e-06
  +5.01672240803e-06
  +5.05016722408e-06
  +5.08361204013e-06
  +5.11705685619e-06
  +5.15050167224e-06
  +5.18394648829e-06
  +5.21739130435e-06
  +5.25083612040e-06
  +5.28428093645e-06
  +5.31772575251e-06
  +5.35117056856e-06
  +5.38461538462e-06
  +5.41806020067e-06
  +5.45150501672e-06
  +5.48494983278e-06
  +5.51839464883e-06
  +5.55183946488e-06
  +5.58528428094e-06
  +5.61872909699e-06
  +5.65217391304e-06
  +5.68561872910e-06
  +5.71906354515e-06
  +5.75250836120e-06
  +5.78595317726e-06
  +5.81939799331e-06
  +5.85284280936e-06
  +5.88628762542e-06
  +5.91973244147e-06
  +5.95317725753e-06
  +5.98662207358e-06
  +6.02006688963e-06
  +6.05351170569e-06
  +6.08695652174e-06
  +6.12040133779e-06
  +6.15384615385e-06
  +6.18729096990e-06
  +6.22073578595e-06
  +6.25418060201e-06
  +6.28762541806e-06
  +6.32107023411e-06
  +6.35451505017e-06
  +6.38795986622e-06
  +6.42140468227e-06
  +6.45484949833e-06
  +6.48829431438e-06
  +6.52173913043e-06
  +6.55518394649e-06
  +6.58862876254e-06
  +6.62207357860e-06
  +6.65551839465e-06
  +6.68896321070e-06
  +6.72240802676e-06
  +6.75585284281e-06
  +6.78929765886e-06
  +6.82274247492e-06
  +6.85618729097e-06
  +6.88963210702e-06
  +6.92307692308e-06
  +6.95652173913e-06
  +6.98996655518e-06
  +7.02341137124e-06
  +7.05685618729e-06
  +7.09030100334e-06
  +7.12374581940e-06
  +7.15719063545e-06
  +7.19063545151e-06
  +7.22408026756e-06
  +7.25752508361e-06
  +7.29096989967e-06
  +7.32441471572e-06
  +7.35785953177e-06
  +7.39130434783e-06
  +7.42474916388e-06
  +7.45819397993e-06
  +7.49163879599e-06
  +7.52508361204e-06
  +7.55852842809e-06
  +7.59197324415e-06
  +7.62541806020e-06
  +7.65886287625e-06
  +7.69230769231e-06
  +7.72575250836e-06
  +7.75919732441e-06
  +7.79264214047e-06
  +7.82608695652e-06
  +7.85953177258e-06
  +7.89297658863e-06
  +7.92642140468e-06
  +7.95986622074e-06
  +7.99331103679e-06
  +8.02675585284e-06
  +8.06020066890e-06
  +8.09364548495e-06
  +8.12709030100e-06
  +8.16053511706e-06
  +8.19397993311e-06
  +8.22742474916e-06
  +8.26086956522e-06
  +8.29431438127e-06
  +8.32775919732e-06
  +8.36120401338e-06
  +8.39464882943e-06
  +8.42809364548e-06
  +8.46153846154e-06
  +8.49498327759e-06
  +8.52842809365e-06
  +8.56187290970e-06
  +8.59531772575e-06
  +8.62876254181e-06
  +8.66220735786e-06
  +8.69565217391e-06
  +8.72909698997e-06
  +8.76254180602e-06
  +8.79598662207e-06
  +8.82943143813e-06
  +8.86287625418e-06
  +8.89632107023e-06
  +8.92976588629e-06
  +8.96321070234e-06
  +8.99665551839e-06
  +9.03010033445e-06
  +9.06354515050e-06
  +9.09698996656e-06
  +9.13043478261e-06
  +9.16387959866e-06
  +9.19732441472e-06
  +9.23076923077e-06
  +9.26421404682e-06
  +9.29765886288e-06
  +9.33110367893e-06
  +9.36454849498e-06
  +9.39799331104e-06
  +9.43143812709e-06
  +9.46488294314e-06
  +9.49832775920e-06
  +9.53177257525e-06
  +9.56521739130e-06
  +9.59866220736e-06
  +9.63210702341e-06
  +9.66555183946e-06
  +9.69899665552e-06
  +9.73244147157e-06
  +9.76588628763e-06
  +9.79933110368e-06
  +9.83277591973e-06
  +9.86622073579e-06
  +9.89966555184e-06
  +9.93311036789e-06
  +9.96655518395e-06
  +1.00000000000e-05
</indep>
<dep V1.It time>
  -8.00000000159e-04
  -8.00000000159e-04
  -8.00000000159e-04
  -8.00000000159e-04
  -8.00000000159e-04
  -8.00000000159e-04
  -8.00000000159e-04
  -8.00000000159e-04
  -8.00000000159e-04
  -8.00000000159e-04
  -8.00000000159e-04
  -8.00000000159e-04
  -8.00000000159e-04
  -8.00000000159e-04
  -8.00000000159e-04
  -8.00000000159e-04
  -8.00000000159e-04
  -8.00000000159e-04
  -8.00000000159e-04
  -8.00000000159e-04
  -8.00000000159e-04
  -8.00000000159e-04
  -8.00000000159e-04
  -8.00000000159e-04
  -8.00000000159e-04
  -8.00000000159e-04
  -8.00000000159e-04
  -8.00000000159e-04
  -8.00000000159e-04
  -8.00000000159e-04
  -8.00000000159e-04
  -8.00000000159e-04
  -8.00000000159e-04
  -8.00000000159e-04
  -8.00000000159e-04
  -8.00000000159e-04
  -8.00000000159e-04
  -8.00000000159e-04
  -8.00000000159e-04
  -8.00000000159e-04
  -8.00000000159e-04
  -8.00000000159e-04
  -8.00000000159e-04
  -8.00000000159e-04
  -8.00000000159e-04
  -8.00000000159e-04
  -8.00000000159e-04
  -8.00000000159e-04
  -8.00000000159e-04
  -8.00000000159e-04
  -8.00000000159e-04
  -8.00000000159e-04
  -8.00000000159e-04
  -8.00000000159e-04
  -8.00000000159e-04
  -8.00000000159e-04
  -8.00000000159e-04
  -8.00000000159e-04
  -8.00000000159e-04
  -8.00000000159e-04
  -8.00000000159e-04
  -8.00000000159e-04
  -8.00000000159e-04
  -8.00000000159e-04
  -8.00000000159e-04
  -8.00000000159e-04
  -8.00000000159e-04
  -8.00000000159e-04
  -8.00000000159e-04
  -8.00000000159e-04
  -8.00000000159e-04
  -8.00000000159e-04
  -8.00000000159e-04
  -8.00000000159e-04
  -8.00000000159e-04
  -8.00000000159e-04
  -8.00000000159e-04
  -8.00000000159e-04
  -8.00000000159e-04
  -8.00000000159e-04
  -8.00000000159e-04
  -8.00000000159e-04
  -8.00000000159e-04
  -8.00000000159e-04
  -8.00000000159e-04
  -8.00000000159e-04
  -8.00000000159e-04
  -8.00000000159e-04
  -8.00000000159e-04
  -8.00000000159e-04
  -8.00000000159e-04
  -8.00000000159e-04
  -8.00000000159e-04
  -8.00000000159e-04
  -8.00000000159e-04
  -8.00000000159e-04
  -8.00000000159e-04
  -8.00000000159e-04
  -8.00000000159e-04
  -8.00000000159e-04
  -8.00000000159e-04
  -8.00000000159e-04
  -8.00000000159e-04
  -8.00000000159e-04
  -8.00000000159e-04
  -8.00000000159e-04
  -8.00000000159e-04
  -8.00000000159e-04
  -8.00000000159e-04
  -8.00000000159e-04
  -8.00000000159e-04
  -8.00000000159e-04
  -8.00000000159e-04
  -8.00000000159e-04
  -8.00000000159e-04
  -8.00000000159e-04
  -8.00000000159e-04
  -8.00000000159e-04
  -8.00000000159e-04
  -8.00000000159e-04
  -8.00000000159e-04
  -8.00000000159e-04
  -8.00000000159e-04
  -8.00000000159e-04
  -8.00000000159e-04
  -8.00000000159e-04
  -8.00000000159e-04
  -8.00000000159e-04
  -8.00000000159e-04
  -8.00000000159e-04
  -8.00000000159e-04
  -8.00000000159e-04
  -8.00000000159e-04
  -8.00000000159e-04
  -8.00000000159e-04
  -8.00000000159e-04
  -8.00000000159e-04
  -8.00000000159e-04
  -8.00000000159e-04
  -8.00000000159e-04
  -8.00000000159e-04
  -8.00000000159e-04
  -8.00000000159e-04
  -8.00000000159e-04
  -8.00000000159e-04
  -8.00000000159e-04
  -8.00000000159e-04
  -8.00000000159e-04
  -8.00000000159e-04
  -8.00000000159e-04
  -8.00000000159e-04
  -8.00000000159e-04
  -8.00000000159e-04
  -8.00000000159e-04
  -8.00000000159e-04
  -8.00000000159e-04
  -8.00000000159e-04
  -8.00000000159e-04
  -8.00000000159e-04
  -8.00000000159e-04
  -8.00000000159e-04
  -8.00000000159e-04
  -8.00000000159e-04
  -8.00000000159e-04
  -8.00000000159e-04
  -8.00000000159e-04
  -8.00000000159e-04
  -8.00000000159e-04
  -8.00000000159e-04
  -8.00000000159e-04
  -8.00000000159e-04
  -8.00000000159e-04
  -8.00000000159e-04
  -8.00000000159e-04
  -8.00000000159e-04
  -8.00000000159e-04
  -8.00000000159e-04
  -8.00000000159e-04
  -8.00000000159e-04
  -8.00000000159e-04
  -8.00000000159e-04
  -8.00000000159e-04
  -8.00000000159e-04
  -8.00000000159e-04
  -8.00000000159e-04
  -8.00000000159e-04
  -8.00000000159e-04
  -8.00000000159e-04
  -8.00000000159e-04
  -8.00000000159e-04
  -8.00000000159e-04
  -8.00000000159e-04
  -8.00000000159e-04
  -8.00000000159e-04
  -8.00000000159e-04
  -8.00000000159e-04
  -8.00000000159e-04
  -8.00000000159e-04
  -8.00000000159e-04
  -8.00000000159e-04
  -8.00000000159e-04
  -8.00000000159e-04
  -8.00000000159e-04
  -8.00000000159e-04
  -8.00000000159e-04
  -8.00000000159e-04
  -8.00000000159e-04
  -8.00000000159e-04
  -8.00000000159e-04
  -8.00000000159e-04
  -8.00000000159e-04
  -8.00000000159e-04
  -8.00000000159e-04
  -8.00000000159e-04
  -8.00000000159e-04
  -8.00000000159e-04
  -8.00000000159e-04
  -8.00000000159e-04
  -8.00000000159e-04
  -8.00000000159e-04
  -8.00000000159e-04
  -8.00000000159e-04
  -8.00000000159e-04
  -8.00000000159e-04
  -8.00000000159e-04
  -8.00000000159e-04
  -8.00000000159e-04
  -8.00000000159e-04
  -8.00000000159e-04
  -8.00000000159e-04
  -8.00000000159e-04
  -8.00000000159e-04
  -8.00000000159e-04
  -8.00000000159e-04
  -8.00000000159e-04
  -8.00000000159e-04
  -8.00000000159e-04
  -8.00000000159e-04
  -8.00000000159e-04
  -8.00000000159e-04
  -8.00000000159e-04
  -8.00000000159e-04
  -8.00000000159e-04
  -8.00000000159e-04
  -8.00000000159e-04
  -8.00000000159e-04
  -8.00000000159e-04
  -8.00000000159e-04
  -8.00000000159e-04
  -8.00000000159e-04
  -8.00000000159e-04
  -8.00000000159e-04
  -8.00000000159e-04
  -8.00000000159e-04
  -8.00000000159e-04
  -8.00000000159e-04
  -8.00000000159e-04
  -8.00000000159e-04
  -8.00000000159e-04
  -8.00000000159e-04
  -8.00000000159e-04
  -8.00000000159e-04
  -8.00000000159e-04
  -8.00000000159e-04
  -8.00000000159e-04
  -8.00000000159e-04
  -8.00000000159e-04
  -8.00000000159e-04
  -8.00000000159e-04
  -8.00000000159e-04
  -8.00000000159e-04
  -8.00000000159e-04
  -8.00000000159e-04
  -8.00000000159e-04
  -8.00000000159e-04
  -8.00000000159e-04
  -8.00000000159e-04
  -8.00000000159e-04
  -8.00000000159e-04
  -8.00000000159e-04
  -8.00000000159e-04
  -8.00000000159e-04
  -8.00000000159e-04
  -8.00000000159e-04
  -8.00000000159e-04
  -8.00000000159e-04
  -8.00000000159e-04
  -8.00000000159e-04
  -8.00000000159e-04
  -8.00000000159e-04
  -8.00000000159e-04
  -8.00000000159e-04
  -8.00000000159e-04
  -8.00000000159e-04
  -8.00000000159e-04
  -8.00000000159e-04
  -8.00000000159e-04
  -8.00000000159e-04
  -8.00000000159e-04
  -8.00000000159e-04
</dep>
<dep _net3.Vt time>
  +5.99999999921e+00
  +5.99999999921e+00
  +5.99999999921e+00
  +5.99999999921e+00
  +5.99999999921e+00
  +5.99999999921e+00
  +5.99999999921e+00
  +5.99999999921e+00
  +5.99999999921e+00
  +5.99999999921e+00
  +5.99999999921e+00
  +5.99999999921e+00
  +5.99999999921e+00
  +5.99999999921e+00
  +5.99999999921e+00
  +5.99999999921e+00
  +5.99999999921e+00
  +5.99999999921e+00
  +5.99999999921e+00
  +5.99999999921e+00
  +5.99999999921e+00
  +5.99999999921e+00
  +5.99999999921e+00
  +5.99999999921e+00
  +5.99999999921e+00
  +5.99999999921e+00
  +5.99999999921e+00
  +5.99999999921e+00
  +5.99999999921e+00
  +5.99999999921e+00
  +5.99999999921e+00
  +5.99999999921e+00
  +5.99999999921e+00
  +5.99999999921e+00
  +5.99999999921e+00
  +5.99999999921e+00
  +5.99999999921e+00
  +5.99999999921e+00
  +5.99999999921e+00
  +5.99999999921e+00
  +5.99999999921e+00
  +5.99999999921e+00
  +5.99999999921e+00
  +5.99999999921e+00
  +5.99999999921e+00
  +5.99999999921e+00
  +5.99999999921e+00
  +5.99999999921e+00
  +5.99999999921e+00
  +5.99999999921e+00
  +5.99999999921e+00
  +5.99999999921e+00
  +5.99999999921e+00
  +5.99999999921e+00
  +5.99999999921e+00
  +5.99999999921e+00
  +5.99999999921e+00
  +5.99999999921e+00
  +5.99999999921e+00
  +5.99999999921e+00
  +5.99999999921e+00
  +5.99999999921e+00
  +5.99999999921e+00
  +5.99999999921e+00
  +5.99999999921e+00
  +5.99999999921e+00
  +5.99999999921e+00
  +5.99999999921e+00
  +5.99999999921e+00
  +5.99999999921e+00
  +5.99999999921e+00
  +5.99999999921e+00
  +5.99999999921e+00
  +5.99999999921e+00
  +5.99999999921e+00
  +5.99999999921e+00
  +5.99999999921e+00
  +5.99999999921e+00
  +5.99999999921e+00
  +5.99999999921e+00
  +5.99999999921e+00
  +5.99999999921e+00
  +5.99999999921e+00
  +5.99999999921e+00
  +5.99999999921e+00
  +5.99999999921e+00
  +5.99999999921e+00
  +5.99999999921e+00
  +5.99999999921e+00
  +5.99999999921e+00
  +5.99999999921e+00
  +5.99999999921e+00
  +5.99999999921e+00
  +5.99999999921e+00
  +5.99999999921e+00
  +5.99999999921e+00
  +5.99999999921e+00
  +5.99999999921e+00
  +5.99999999921e+00
  +5.99999999921e+00
  +5.99999999921e+00
  +5.99999999921e+00
  +5.99999999921e+00
  +5.99999999921e+00
  +5.99999999921e+00
  +5.99999999921e+00
  +5.99999999921e+00
  +5.99999999921e+00
  +5.99999999921e+00
  +5.99999999921e+00
  +5.99999999921e+00
  +5.99999999921e+00
  +5.99999999921e+00
  +5.99999999921e+00
  +5.99999999921e+00
  +5.99999999921e+00
  +5.99999999921e+00
  +5.99999999921e+00
  +5.99999999921e+00
  +5.99999999921e+00
  +5.99999999921e+00
  +5.99999999921e+00
  +5.99999999921e+00
  +5.99999999921e+00
  +5.99999999921e+00
  +5.99999999921e+00
  +5.99999999921e+00
  +5.99999999921e+00
  +5.99999999921e+00
  +5.99999999921e+00
  +5.99999999921e+00
  +5.99999999921e+00
  +5.99999999921e+00
  +5.99999999921e+00
  +5.99999999921e+00
  +5.99999999921e+00
  +5.99999999921e+00
  +5.99999999921e+00
  +5.99999999921e+00
  +5.99999999921e+00
  +5.99999999921e+00
  +5.99999999921e+00
  +5.99999999921e+00
  +5.99999999921e+00
  +5.99999999921e+00
  +5.99999999921e+00
  +5.99999999921e+00
  +5.99999999921e+00
  +5.99999999921e+00
  +5.99999999921e+00
  +5.99999999921e+00
  +5.99999999921e+00
  +5.99999999921e+00
  +5.99999999921e+00
  +5.99999999921e+00
  +5.99999999921e+00
  +5.99999999921e+00
  +5.99999999921e+00
  +5.99999999921e+00
  +5.99999999921e+00
  +5.99999999921e+00
  +5.99999999921e+00
  +5.99999999921e+00
  +5.99999999921e+00
  +5.99999999921e+00
  +5.99999999921e+00
  +5.99999999921e+00
  +5.99999999921e+00
  +5.99999999921e+00
  +5.99999999921e+00
  +5.99999999921e+00
  +5.99999999921e+00
  +5.99999999921e+00
  +5.99999999921e+00
  +5.99999999921e+00
  +5.99999999921e+00
  +5.99999999921e+00
  +5.99999999921e+00
  +5.99999999921e+00
  +5.99999999921e+00
  +5.99999999921e+00
  +5.99999999921e+00
  +5.99999999921e+00
  +5.99999999921e+00
  +5.99999999921e+00
  +5.99999999921e+00
  +5.99999999921e+00
  +5.99999999921e+00
  +5.99999999921e+00
  +5.99999999921e+00
  +5.99999999921e+00
  +5.99999999921e+00
  +5.99999999921e+00
  +5.99999999921e+00
  +5.99999999921e+00
  +5.99999999921e+00
  +5.99999999921e+00
  +5.99999999921e+00
  +5.99999999921e+00
  +5.99999999921e+00
  +5.99999999921e+00
  +5.99999999921e+00
  +5.99999999921e+00
  +5.99999999921e+00
  +5.99999999921e+00
  +5.99999999921e+00
  +5.99999999921e+00
  +5.99999999921e+00
  +5.99999999921e+00
  +5.99999999921e+00
  +5.99999999921e+00
  +5.99999999921e+00
  +5.99999999921e+00
  +5.99999999921e+00
  +5.99999999921e+00
  +5.99999999921e+00
  +5.99999999921e+00
  +5.99999999921e+00
  +5.99999999921e+00
  +5.99999999921e+00
  +5.99999999921e+00
  +5.99999999921e+00
  +5.99999999921e+00
  +5.99999999921e+00
  +5.99999999921e+00
  +5.99999999921e+00
  +5.99999999921e+00
  +5.99999999921e+00
  +5.99999999921e+00
  +5.99999999921e+00
  +5.99999999921e+00
  +5.99999999921e+00
  +5.99999999921e+00
  +5.99999999921e+00
  +5.99999999921e+00
  +5.99999999921e+00
  +5.99999999921e+00
  +5.99999999921e+00
  +5.99999999921e+00
  +5.99999999921e+00
  +5.99999999921e+00
  +5.99999999921e+00
  +5.99999999921e+00
  +5.99999999921e+00
  +5.99999999921e+00
  +5.99999999921e+00
  +5.99999999921e+00
  +5.99999999921e+00
  +5.99999999921e+00
  +5.99999999921e+00
  +5.99999999921e+00
  +5.99999999921e+00
  +5.99999999921e+00
  +5.99999999921e+00
  +5.99999999921e+00
  +5.99999999921e+00
  +5.99999999921e+00
  +5.99999999921e+00
  +5.99999999921e+00
  +5.99999999921e+00
  +5.99999999921e+00
  +5.99999999921e+00
  +5.99999999921e+00
  +5.99999999921e+00
  +5.99999999921e+00
  +5.99999999921e+00
  +5.99999999921e+00
  +5.99999999921e+00
  +5.99999999921e+00
  +5.99999999921e+00
  +5.99999999921e+00
  +5.99999999921e+00
  +5.99999999921e+00
  +5.99999999921e+00
  +5.99999999921e+00
  +5.99999999921e+00
  +5.99999999921e+00
  +5.99999999921e+00
  +5.99999999921e+00
  +5.99999999921e+00
  +5.99999999921e+00
  +5.99999999921e+00
  +5.99999999921e+00
  +5.99999999921e+00
  +5.99999999921e+00
  +5.99999999921e+00
  +5.99999999921e+00
  +5.99999999921e+00
  +5.99999999921e+00
  +5.99999999921e+00
  +5.99999999921e+00
  +5.99999999921e+00
  +5.99999999921e+00
  +5.99999999921e+00
  +5.99999999921e+00
  +5.99999999921e+00
  +5.99999999921e+00
  +5.99999999921e+00
  +5.99999999921e+00
  +5.99999999921e+00
</dep>
<dep _net1.Vt time>
  +1.00000000000e+01
  +1.00000000000e+01
  +1.00000000000e+01
  +1.00000000000e+01
  +1.00000000000e+01
  +1.00000000000e+01
  +1.00000000000e+01
  +1.00000000000e+01
  +1.00000000000e+01
  +1.00000000000e+01
  +1.00000000000e+01
  +1.00000000000e+01
  +1.00000000000e+01
  +1.00000000000e+01
  +1.00000000000e+01
  +1.00000000000e+01
  +1.00000000000e+01
  +1.00000000000e+01
  +1.00000000000e+01
  +1.00000000000e+01
  +1.00000000000e+01
  +1.00000000000e+01
  +1.00000000000e+01
  +1.00000000000e+01
  +1.00000000000e+01
  +1.00000000000e+01
  +1.00000000000e+01
  +1.00000000000e+01
  +1.00000000000e+01
  +1.00000000000e+01
  +1.00000000000e+01
  +1.00000000000e+01
  +1.00000000000e+01
  +1.00000000000e+01
  +1.00000000000e+01
  +1.00000000000e+01
  +1.00000000000e+01
  +1.00000000000e+01
  +1.00000000000e+01
  +1.00000000000e+01
  +1.00000000000e+01
  +1.00000000000e+01
  +1.00000000000e+01
  +1.00000000000e+01
  +1.00000000000e+01
  +1.00000000000e+01
