<Qucs Dataset 0.0.20>
<indep frequency 191>
  +1.00000000000000000000e+09
  +1.10000000000000000000e+09
  +1.20000000000000000000e+09
  +1.30000000000000000000e+09
  +1.40000000000000000000e+09
  +1.50000000000000000000e+09
  +1.60000000000000000000e+09
  +1.70000000000000000000e+09
  +1.80000000000000000000e+09
  +1.90000000000000000000e+09
  +2.00000000000000000000e+09
  +2.10000000000000000000e+09
  +2.20000000000000000000e+09
  +2.30000000000000000000e+09
  +2.40000000000000000000e+09
  +2.50000000000000000000e+09
  +2.60000000000000000000e+09
  +2.70000000000000000000e+09
  +2.80000000000000000000e+09
  +2.90000000000000000000e+09
  +3.00000000000000000000e+09
  +3.10000000000000000000e+09
  +3.20000000000000000000e+09
  +3.30000000000000000000e+09
  +3.40000000000000000000e+09
  +3.50000000000000000000e+09
  +3.60000000000000000000e+09
  +3.70000000000000000000e+09
  +3.80000000000000000000e+09
  +3.90000000000000000000e+09
  +4.00000000000000000000e+09
  +4.10000000000000000000e+09
  +4.20000000000000000000e+09
  +4.30000000000000000000e+09
  +4.40000000000000000000e+09
  +4.50000000000000000000e+09
  +4.60000000000000000000e+09
  +4.70000000000000000000e+09
  +4.80000000000000000000e+09
  +4.90000000000000000000e+09
  +5.00000000000000000000e+09
  +5.10000000000000000000e+09
  +5.20000000000000000000e+09
  +5.30000000000000000000e+09
  +5.40000000000000000000e+09
  +5.50000000000000000000e+09
  +5.60000000000000000000e+09
  +5.70000000000000000000e+09
  +5.80000000000000000000e+09
  +5.90000000000000000000e+09
  +6.00000000000000000000e+09
  +6.10000000000000000000e+09
  +6.20000000000000000000e+09
  +6.30000000000000000000e+09
  +6.40000000000000000000e+09
  +6.50000000000000000000e+09
  +6.60000000000000000000e+09
  +6.70000000000000000000e+09
  +6.80000000000000000000e+09
  +6.90000000000000000000e+09
  +7.00000000000000000000e+09
  +7.10000000000000000000e+09
  +7.20000000000000000000e+09
  +7.30000000000000000000e+09
  +7.40000000000000000000e+09
  +7.50000000000000000000e+09
  +7.60000000000000000000e+09
  +7.70000000000000000000e+09
  +7.80000000000000000000e+09
  +7.90000000000000000000e+09
  +8.00000000000000000000e+09
  +8.10000000000000000000e+09
  +8.20000000000000000000e+09
  +8.30000000000000000000e+09
  +8.40000000000000000000e+09
  +8.50000000000000000000e+09
  +8.60000000000000000000e+09
  +8.70000000000000000000e+09
  +8.80000000000000000000e+09
  +8.90000000000000000000e+09
  +9.00000000000000000000e+09
  +9.10000000000000000000e+09
  +9.20000000000000000000e+09
  +9.30000000000000000000e+09
  +9.40000000000000000000e+09
  +9.50000000000000000000e+09
  +9.60000000000000000000e+09
  +9.70000000000000000000e+09
  +9.80000000000000000000e+09
  +9.90000000000000000000e+09
  +1.00000000000000000000e+10
  +1.01000000000000000000e+10
  +1.02000000000000000000e+10
  +1.03000000000000000000e+10
  +1.04000000000000000000e+10
  +1.05000000000000000000e+10
  +1.06000000000000000000e+10
  +1.07000000000000000000e+10
  +1.08000000000000000000e+10
  +1.09000000000000000000e+10
  +1.10000000000000000000e+10
  +1.11000000000000000000e+10
  +1.12000000000000000000e+10
  +1.13000000000000000000e+10
  +1.14000000000000000000e+10
  +1.15000000000000000000e+10
  +1.16000000000000000000e+10
  +1.17000000000000000000e+10
  +1.18000000000000000000e+10
  +1.19000000000000000000e+10
  +1.20000000000000000000e+10
  +1.21000000000000000000e+10
  +1.22000000000000000000e+10
  +1.23000000000000000000e+10
  +1.24000000000000000000e+10
  +1.25000000000000000000e+10
  +1.26000000000000000000e+10
  +1.27000000000000000000e+10
  +1.28000000000000000000e+10
  +1.29000000000000000000e+10
  +1.30000000000000000000e+10
  +1.31000000000000000000e+10
  +1.32000000000000000000e+10
  +1.33000000000000000000e+10
  +1.34000000000000000000e+10
  +1.35000000000000000000e+10
  +1.36000000000000000000e+10
  +1.37000000000000000000e+10
  +1.38000000000000000000e+10
  +1.39000000000000000000e+10
  +1.40000000000000000000e+10
  +1.41000000000000000000e+10
  +1.42000000000000000000e+10
  +1.43000000000000000000e+10
  +1.44000000000000000000e+10
  +1.45000000000000000000e+10
  +1.46000000000000000000e+10
  +1.47000000000000000000e+10
  +1.48000000000000000000e+10
  +1.49000000000000000000e+10
  +1.50000000000000000000e+10
  +1.51000000000000000000e+10
  +1.52000000000000000000e+10
  +1.53000000000000000000e+10
  +1.54000000000000000000e+10
  +1.55000000000000000000e+10
  +1.56000000000000000000e+10
  +1.57000000000000000000e+10
  +1.58000000000000000000e+10
  +1.59000000000000000000e+10
  +1.60000000000000000000e+10
  +1.61000000000000000000e+10
  +1.62000000000000000000e+10
  +1.63000000000000000000e+10
  +1.64000000000000000000e+10
  +1.65000000000000000000e+10
  +1.66000000000000000000e+10
  +1.67000000000000000000e+10
  +1.68000000000000000000e+10
  +1.69000000000000000000e+10
  +1.70000000000000000000e+10
  +1.71000000000000000000e+10
  +1.72000000000000000000e+10
  +1.73000000000000000000e+10
  +1.74000000000000000000e+10
  +1.75000000000000000000e+10
  +1.76000000000000000000e+10
  +1.77000000000000000000e+10
  +1.78000000000000000000e+10
  +1.79000000000000000000e+10
  +1.80000000000000000000e+10
  +1.81000000000000000000e+10
  +1.82000000000000000000e+10
  +1.83000000000000000000e+10
  +1.84000000000000000000e+10
  +1.85000000000000000000e+10
  +1.86000000000000000000e+10
  +1.87000000000000000000e+10
  +1.88000000000000000000e+10
  +1.89000000000000000000e+10
  +1.90000000000000000000e+10
  +1.91000000000000000000e+10
  +1.92000000000000000000e+10
  +1.93000000000000000000e+10
  +1.94000000000000000000e+10
  +1.95000000000000000000e+10
  +1.96000000000000000000e+10
  +1.97000000000000000000e+10
  +1.98000000000000000000e+10
  +1.99000000000000000000e+10
  +2.00000000000000000000e+10
</indep>
<dep dB_S21 frequency>
  +1.67136899138628756134e+01
  +1.66978817248114808081e+01
  +1.66806341910039961363e+01
  +1.66619647432494595307e+01
  +1.66418920670336127898e+01
  +1.66204360427447070947e+01
  +1.65976176831564288250e+01
  +1.65734590685601155258e+01
  +1.65479832799422545975e+01
  +1.65212143306034029422e+01
  +1.64931770966099975340e+01
  +1.64638972464641071269e+01
  +1.64334011703653359859e+01
  +1.64017159094250928320e+01
  +1.63688690851788862801e+01
  +1.63348888297223062693e+01
  +1.62998037167776814726e+01
  +1.62636426939758536037e+01
  +1.62264350166147117704e+01
  +1.61882101831327176455e+01
  +1.61489978725106766433e+01
  +1.61088278837909939512e+01
  +1.60677300778785046020e+01
  +1.60257343217633803079e+01
  +1.59828704352820416545e+01
  +1.59391681405099099322e+01
  +1.58946570138567402353e+01
  +1.58493664409156131967e+01
  +1.58033255740950746571e+01
  +1.57565632930473285001e+01
  +1.57091081678867325877e+01
  +1.56609884251779050146e+01
  +1.56122319166582492755e+01
  +1.55628660906467821690e+01
  +1.55129179660800069485e+01
  +1.54624141091050368857e+01
  +1.54113806121524454795e+01
  +1.53598430754028285605e+01
  +1.53078265905561128335e+01
  +1.52553557268068669117e+01
  +1.52024545189258084577e+01
  +1.51491464573443739283e+01
  +1.50954544801375529772e+01
  +1.50414009667999124531e+01
  +1.49870077337081131219e+01
  +1.49322960311654018284e+01
  +1.48772865419237518836e+01
  +1.48219993810810191093e+01
  +1.47664540972533959717e+01
  +1.47106696749251781853e+01
  +1.46546645378814091032e+01
  +1.45984565536319799151e+01
  +1.45420630387392293414e+01
  +1.44855007649646783108e+01
  +1.44287859661544555223e+01
  +1.43719343457864923153e+01
  +1.43149610851071393824e+01
  +1.42578808517877426709e+01
  +1.42007078090367535594e+01
  +1.41434556251059397880e+01
  +1.40861374831335695035e+01
  +1.40287660912709721828e+01
  +1.39713536930425270555e+01
  +1.39139120778928422340e+01
  +1.38564525918778080893e+01
  +1.37989861484602513997e+01
  +1.37415232393733059979e+01
  +1.36840739455179267736e+01
  +1.36266479478641642231e+01
  +1.35692545383277956006e+01
  +1.35119026305972926849e+01
  +1.34546007708878327946e+01
  +1.33973571486019160659e+01
  +1.33401796068778253357e+01
  +1.32830756530097531254e+01
  +1.32260524687245517583e+01
  +1.31691169203025975065e+01
  +1.31122755685313396867e+01
  +1.30555346784819192862e+01
  +1.29989002291005721901e+01
  +1.29423779226077062532e+01
  +1.28859731936990797863e+01
  +1.28296912185440898924e+01
  +1.27735369235778044583e+01
  +1.27175149940837783902e+01
  +1.26616298825657676019e+01
  +1.26058858169073157995e+01
  +1.25502868083186420733e+01
  +1.24948366590710175927e+01
  +1.24395389700195089233e+01
  +1.23843971479151235826e+01
  +1.23294144125083384722e+01
  +1.22745938034458603738e+01
  +1.22199381869632528463e+01
  +1.21654502623761366920e+01
  +1.21111325683730690628e+01
  +1.20569874891133785866e+01
  +1.20030172601333191551e+01
  +1.19492239740645107560e+01
  +1.18956095861681596659e+01
  +1.18421759196891258625e+01
  +1.17889246710339445912e+01
  +1.17358574147766496765e+01
  +1.16829756084968661156e+01
  +1.16302805974541172418e+01
  +1.15777736191025510948e+01
  +1.15254558074505482068e+01
  +1.14733281972690122075e+01
  +1.14213917281529511172e+01
  +1.13696472484402022474e+01
  +1.13180955189915088965e+01
  +1.12667372168360522267e+01
  +1.12155729386864795316e+01
  +1.11646032043272818157e+01
  +1.11138284598804926162e+01
  +1.10632490809525556585e+01
  +1.10128653756660952467e+01
  +1.09626775875801456550e+01
  +1.09126858985027297422e+01
  +1.08628904311990268639e+01
  +1.08132912519986756905e+01
  +1.07638883733056225367e+01
  +1.07146817560137144199e+01
  +1.06656713118312254096e+01
  +1.06168569055175048277e+01
  +1.05682383570346676294e+01
  +1.05198154436173183512e+01
  +1.04715879017631134928e+01
  +1.04235554291470648991e+01
  +1.03757176864620532797e+01
  +1.03280742991883656146e+01
  +1.02806248592947078180e+01
  +1.02333689268730516631e+01
  +1.01863060317098756968e+01
  +1.01394356747959530907e+01
  +1.00927573297769423988e+01
  +1.00462704443470123294e+01
  +9.99997444158738169051e+00
  +9.95386872125209620776e+00
  +9.90795266100271021514e+00
  +9.86222561759380411672e+00
  +9.81668692801139997073e+00
  +9.77133591056561279231e+00
  +9.72617186593958393814e+00
  +9.68119407819619226530e+00
  +9.63640181574406717857e+00
  +9.59179433226456978900e+00
  +9.54737086760108866201e+00
  +9.50313064861204992440e+00
  +9.45907288998918893697e+00
  +9.41519679504220263766e+00
  +9.37150155645109883551e+00
  +9.32798635698757117041e+00
  +9.28465037020644068377e+00
  +9.24149276110840567355e+00
  +9.19851268677514433136e+00
  +9.15570929697777025069e+00
  +9.11308173475985405787e+00
  +9.07062913699570039228e+00
  +9.02835063492515388361e+00
  +8.98624535466547058604e+00
  +8.94431241770151785886e+00
  +8.90255094135482671902e+00
  +8.86096003923249142531e+00
  +8.81953882165662150783e+00
  +8.77828639607513139254e+00
  +8.73720186745458349264e+00
  +8.69628433865572958439e+00
  +8.65553291079250541884e+00
  +8.61494668357508253109e+00
  +8.57452475563756699728e+00
  +8.53426622485103081317e+00
  +8.49417018862229866727e+00
  +8.45423574417924861280e+00
  +8.41446198884295881726e+00
  +8.37484802028733632540e+00
  +8.33539293678669501730e+00
  +8.29609583745169310021e+00
  +8.25695582245424475332e+00
  +8.21797199324160487777e+00
  +8.17914345274029663813e+00
  +8.14046930555005587848e+00
  +8.10194865812843900699e+00
  +8.06358061896622047016e+00
  +8.02536429875411450041e+00
  +7.98729881054102275328e+00
  +7.94938326988432031328e+00
  +7.91161679499239589575e+00
  +7.87399850685965141395e+00
  +7.83652752939449914749e+00
  +7.79920298954052260143e+00
</dep>
<dep StabFact frequency>
  +2.21206306487292357621e-02
  +2.43324888222449207953e-02
  +2.65442884789536537316e-02
  +2.87560243098812402807e-02
  +3.09676910088149404121e-02
  +3.31792832726072253746e-02
  +3.53907958013432583089e-02
  +3.76022232986063381643e-02
  +3.98135604717063662505e-02
  +4.20248020319148735124e-02
  +4.42359426946768927169e-02
  +4.64469771798714653466e-02
  +4.86579002120096498762e-02
  +5.08687065205082680763e-02
  +5.30793908398742644850e-02
  +5.52899479099655533076e-02
  +5.75003724762149712180e-02
  +5.97106592898602531183e-02
  +6.19208031081655008165e-02
  +6.41307986946653696414e-02
  +6.63406408193803892592e-02
  +6.85503242590603523166e-02
  +7.07598437973982197224e-02
  +7.29691942252718717121e-02
  +7.51783703409630160719e-02
  +7.73873669503876704390e-02
  +7.95961788673305303821e-02
  +8.18048009136604359348e-02
  +8.40132279195681674899e-02
  +8.62214547237841189009e-02
  +8.84294761738132206741e-02
  +9.06372871261542784049e-02
  +9.28448824465233912839e-02
  +9.50522570100952729488e-02
  +9.72594057016993307485e-02
  +9.94663234160755027613e-02
  +1.01673005058073084861e-01
  +1.03879445542892356880e-01
  +1.06085639796292832693e-01
  +1.08291582754828669133e-01
  +1.10497269366059275297e-01
  +1.12702694588778851159e-01
  +1.14907853393238584827e-01
  +1.17112740761356942665e-01
  +1.19317351686951830803e-01
  +1.21521681175957199650e-01
  +1.23725724246635290782e-01
  +1.25929475929805356760e-01
  +1.28132931269058392143e-01
  +1.30336085320965716638e-01
  +1.32538933155312094181e-01
  +1.34741469855301998493e-01
  +1.36943690517776106574e-01
  +1.39145590253431788996e-01
  +1.41347164187033025318e-01
  +1.43548407457627757999e-01
  +1.45749315218757419244e-01
  +1.47949882638679669489e-01
  +1.50150104900567266109e-01
  +1.52349977202729885972e-01
  +1.54549494758826649887e-01
  +1.56748652798066767655e-01
  +1.58947446565428862630e-01
  +1.61145871321869776915e-01
  +1.63343922344525716017e-01
  +1.65541594926927854159e-01
  +1.67738884379207864317e-01
  +1.69935786028303420503e-01
  +1.72132295218166059270e-01
  +1.74328407309966043615e-01
  +1.76524117682294146014e-01
  +1.78719421731371702622e-01
  +1.80914314871245318628e-01
  +1.83108792533999475971e-01
  +1.85302850169952737502e-01
  +1.87496483247857698151e-01
  +1.89689687255101796515e-01
  +1.91882457697912178762e-01
  +1.94074790101548932952e-01
  +1.96266680010505761844e-01
  +1.98458122988706242573e-01
  +2.00649114619699253659e-01
  +2.02839650506859286994e-01
  +2.05029726273577350693e-01
  +2.07219337563456618145e-01
  +2.09408480040504996200e-01
  +2.11597149389330246860e-01
  +2.13785341315328697442e-01
  +2.15973051544876837315e-01
  +2.18160275825525079574e-01
  +2.20347009926185360973e-01
  +2.22533249637313995661e-01
  +2.24718990771106186255e-01
  +2.26904229161685483396e-01
  +2.29088960665278618123e-01
  +2.31273181160409707635e-01
  +2.33456886548084524557e-01
  +2.35640072751968909781e-01
  +2.37822735718577038533e-01
  +2.40004871417444309856e-01
  +2.42186475841323106684e-01
  +2.44367545006341391201e-01
  +2.46548074952210594102e-01
  +2.48728061742371053811e-01
  +2.50907501464192106422e-01
  +2.53086390229143809449e-01
  +2.55264724172967527593e-01
  +2.57442499455853623935e-01
  +2.59619712262618096421e-01
  +2.61796358802863726734e-01
  +2.63972435311168873717e-01
  +2.66147938047242738069e-01
  +2.68322863296107438913e-01
  +2.70497207368257386317e-01
  +2.72670966599832587107e-01
  +2.74844137352786066497e-01
  +2.77016716015043962251e-01
  +2.79188699000680218276e-01
  +2.81360082750074513847e-01
  +2.83530863730072690831e-01
  +2.85701038434157950086e-01
  +2.87870603382602452402e-01
  +2.90039555122637460194e-01
  +2.92207890228603106575e-01
  +2.94375605302114873307e-01
  +2.96542696972213082329e-01
  +2.98709161895527597341e-01
  +3.00874996756425594491e-01
  +3.03040198267175375779e-01
  +3.05204763168084203251e-01
  +3.07368688227669606405e-01
  +3.09531970242798104564e-01
  +3.11694606038836530271e-01
  +3.13856592469807904600e-01
  +3.16017926418534211841e-01
  +3.18178604796789721298e-01
  +3.20338624545434325075e-01
  +3.22497982634576740857e-01
  +3.24656676063704574542e-01
  +3.26814701861832201946e-01
  +3.28972057087651426066e-01
  +3.31128738829658320064e-01
  +3.33284744206298222391e-01
  +3.35440070366116005474e-01
  +3.37594714487878977405e-01
  +3.39748673780718213333e-01
  +3.41901945484274827347e-01
  +3.44054526868820986785e-01
  +3.46206415235400633001e-01
  +3.48357607915967482093e-01
  +3.50508102273502764046e-01
  +3.52657895702164103646e-01
  +3.54806985627399928962e-01
  +3.56955369506086528375e-01
  +3.59103044826656669919e-01
  +3.61250009109218894743e-01
  +3.63396259905691576542e-01
  +3.65541794799928376758e-01
  +3.67686611407827990128e-01
  +3.69830707377472922559e-01
  +3.71974080389248062950e-01
  +3.74116728155949651580e-01
  +3.76258648422913954956e-01
  +3.78399838968145163509e-01
  +3.80540297602410926281e-01
  +3.82680022169373690311e-01
  +3.84819010545705442183e-01
  +3.86957260641194344952e-01
  +3.89094770398865141825e-01
  +3.91231537795086958820e-01
  +3.93367560839689656138e-01
  +3.95502837576063359659e-01
  +3.97637366081285192898e-01
  +3.99771144466205263779e-01
  +4.01904170875572730459e-01
  +4.04036443488128338419e-01
  +4.06167960516720050190e-01
  +4.08298720208394527731e-01
  +4.10428720844513428290e-01
  +4.12557960740844442693e-01
  +4.14686438247663879952e-01
  +4.16814151749866135255e-01
  +4.18941099667044847266e-01
  +4.21067280453608638879e-01
  +4.23192692598857778119e-01
  +4.25317334627101473199e-01
  +4.27441205097740084540e-01
  +4.29564302605351444608e-01
  +4.31686625779796162572e-01
  +4.33808173286311382633e-01
  +4.35928943825584835903e-01
</dep>
<dep NFmin frequency>
  +7.99052821926624912141e-02
  +8.78925327793829286316e-02
  +9.58790774908486465034e-02
  +1.03864888868624966056e-01
  +1.11849939465215583723e-01
  +1.19834201845011659171e-01
  +1.27817648585173665454e-01
  +1.35800252276599503487e-01
  +1.43781985524839395207e-01
  +1.51762820951013288617e-01
  +1.59742731192735909485e-01
  +1.67721688905048182949e-01
  +1.75699666761326728226e-01
  +1.83676637454225771817e-01
  +1.91652573696557582128e-01
  +1.99627448222252118493e-01
  +2.07601233787248456997e-01
  +2.15573903170417247033e-01
  +2.23545429174466403488e-01
  +2.31515784626863674323e-01
  +2.39484942380740084555e-01
  +2.47452875315801346101e-01
  +2.55419556339225695130e-01
  +2.63384958386581213841e-01
  +2.71349054422721058799e-01
  +2.79311817442681187273e-01
  +2.87273220472595125496e-01
  +2.95233236570565715784e-01
  +3.03191838827584769778e-01
  +3.11149000368409589523e-01
  +3.19104694352459750117e-01
  +3.27058893974709441466e-01
  +3.35011572466557772110e-01
  +3.42962703096740262332e-01
  +3.50912259172171114852e-01
  +3.58860214038867919584e-01
  +3.66806541082788040153e-01
  +3.74751213730731003171e-01
  +3.82694205451187319245e-01
  +3.90635489755228659803e-01
  +3.98575040197353958060e-01
  +4.06512830376368983210e-01
  +4.14448833936240712550e-01
  +4.22383024566947484768e-01
  +4.30315376005344585320e-01
  +4.38245862036019895314e-01
  +4.46174456492122173401e-01
  +4.54101133256233413515e-01
  +4.62025866261193018936e-01
  +4.69948629490942293430e-01
  +4.77869396981361271859e-01
  +4.85788142821111101899e-01
  +4.93704841152452278408e-01
  +5.01619466172073646959e-01
  +5.09531992131917244038e-01
  +5.17442393340009409997e-01
  +5.25350644161255653231e-01
  +5.33256719018275426869e-01
  +5.41160592392198269707e-01
  +5.49062238823473269811e-01
  +5.56961632912680748575e-01
  +5.64858749321313080571e-01
  +5.72753562772590707475e-01
  +5.80646048052237073733e-01
  +5.88536180009278431235e-01
  +5.96423933556818774981e-01
  +6.04309283672824326672e-01
  +6.12192205400907907276e-01
  +6.20072673851081890284e-01
  +6.27950664200547348237e-01
  +6.35826151694446783935e-01
  +6.43699111646626076499e-01
  +6.51569519440388322806e-01
  +6.59437350529262222842e-01
  +6.67302580437728387608e-01
  +6.75165184761974401795e-01
  +6.83025139170634898456e-01
  +6.90882419405526082556e-01
  +6.98737001282374481370e-01
  +7.06588860691547249182e-01
  +7.14437973598775366568e-01
  +7.22284316045858965083e-01
  +7.30127864151407401927e-01
  +7.37968594111519271550e-01
  +7.45806482200511489111e-01
  +7.53641504771598080836e-01
  +7.61473638257606944002e-01
  +7.69302859171653086179e-01
  +7.77129144107836955513e-01
