<Qucs Dataset 0.0.6>
<indep frequency 191>
  +1.00000000000e+09
  +1.10000000000e+09
  +1.20000000000e+09
  +1.30000000000e+09
  +1.40000000000e+09
  +1.50000000000e+09
  +1.60000000000e+09
  +1.70000000000e+09
  +1.80000000000e+09
  +1.90000000000e+09
  +2.00000000000e+09
  +2.10000000000e+09
  +2.20000000000e+09
  +2.30000000000e+09
  +2.40000000000e+09
  +2.50000000000e+09
  +2.60000000000e+09
  +2.70000000000e+09
  +2.80000000000e+09
  +2.90000000000e+09
  +3.00000000000e+09
  +3.10000000000e+09
  +3.20000000000e+09
  +3.30000000000e+09
  +3.40000000000e+09
  +3.50000000000e+09
  +3.60000000000e+09
  +3.70000000000e+09
  +3.80000000000e+09
  +3.90000000000e+09
  +4.00000000000e+09
  +4.10000000000e+09
  +4.20000000000e+09
  +4.30000000000e+09
  +4.40000000000e+09
  +4.50000000000e+09
  +4.60000000000e+09
  +4.70000000000e+09
  +4.80000000000e+09
  +4.90000000000e+09
  +5.00000000000e+09
  +5.10000000000e+09
  +5.20000000000e+09
  +5.30000000000e+09
  +5.40000000000e+09
  +5.50000000000e+09
  +5.60000000000e+09
  +5.70000000000e+09
  +5.80000000000e+09
  +5.90000000000e+09
  +6.00000000000e+09
  +6.10000000000e+09
  +6.20000000000e+09
  +6.30000000000e+09
  +6.40000000000e+09
  +6.50000000000e+09
  +6.60000000000e+09
  +6.70000000000e+09
  +6.80000000000e+09
  +6.90000000000e+09
  +7.00000000000e+09
  +7.10000000000e+09
  +7.20000000000e+09
  +7.30000000000e+09
  +7.40000000000e+09
  +7.50000000000e+09
  +7.60000000000e+09
  +7.70000000000e+09
  +7.80000000000e+09
  +7.90000000000e+09
  +8.00000000000e+09
  +8.10000000000e+09
  +8.20000000000e+09
  +8.30000000000e+09
  +8.40000000000e+09
  +8.50000000000e+09
  +8.60000000000e+09
  +8.70000000000e+09
  +8.80000000000e+09
  +8.90000000000e+09
  +9.00000000000e+09
  +9.10000000000e+09
  +9.20000000000e+09
  +9.30000000000e+09
  +9.40000000000e+09
  +9.50000000000e+09
  +9.60000000000e+09
  +9.70000000000e+09
  +9.80000000000e+09
  +9.90000000000e+09
  +1.00000000000e+10
  +1.01000000000e+10
  +1.02000000000e+10
  +1.03000000000e+10
  +1.04000000000e+10
  +1.05000000000e+10
  +1.06000000000e+10
  +1.07000000000e+10
  +1.08000000000e+10
  +1.09000000000e+10
  +1.10000000000e+10
  +1.11000000000e+10
  +1.12000000000e+10
  +1.13000000000e+10
  +1.14000000000e+10
  +1.15000000000e+10
  +1.16000000000e+10
  +1.17000000000e+10
  +1.18000000000e+10
  +1.19000000000e+10
  +1.20000000000e+10
  +1.21000000000e+10
  +1.22000000000e+10
  +1.23000000000e+10
  +1.24000000000e+10
  +1.25000000000e+10
  +1.26000000000e+10
  +1.27000000000e+10
  +1.28000000000e+10
  +1.29000000000e+10
  +1.30000000000e+10
  +1.31000000000e+10
  +1.32000000000e+10
  +1.33000000000e+10
  +1.34000000000e+10
  +1.35000000000e+10
  +1.36000000000e+10
  +1.37000000000e+10
  +1.38000000000e+10
  +1.39000000000e+10
  +1.40000000000e+10
  +1.41000000000e+10
  +1.42000000000e+10
  +1.43000000000e+10
  +1.44000000000e+10
  +1.45000000000e+10
  +1.46000000000e+10
  +1.47000000000e+10
  +1.48000000000e+10
  +1.49000000000e+10
  +1.50000000000e+10
  +1.51000000000e+10
  +1.52000000000e+10
  +1.53000000000e+10
  +1.54000000000e+10
  +1.55000000000e+10
  +1.56000000000e+10
  +1.57000000000e+10
  +1.58000000000e+10
  +1.59000000000e+10
  +1.60000000000e+10
  +1.61000000000e+10
  +1.62000000000e+10
  +1.63000000000e+10
  +1.64000000000e+10
  +1.65000000000e+10
  +1.66000000000e+10
  +1.67000000000e+10
  +1.68000000000e+10
  +1.69000000000e+10
  +1.70000000000e+10
  +1.71000000000e+10
  +1.72000000000e+10
  +1.73000000000e+10
  +1.74000000000e+10
  +1.75000000000e+10
  +1.76000000000e+10
  +1.77000000000e+10
  +1.78000000000e+10
  +1.79000000000e+10
  +1.80000000000e+10
  +1.81000000000e+10
  +1.82000000000e+10
  +1.83000000000e+10
  +1.84000000000e+10
  +1.85000000000e+10
  +1.86000000000e+10
  +1.87000000000e+10
  +1.88000000000e+10
  +1.89000000000e+10
  +1.90000000000e+10
  +1.91000000000e+10
  +1.92000000000e+10
  +1.93000000000e+10
  +1.94000000000e+10
  +1.95000000000e+10
  +1.96000000000e+10
  +1.97000000000e+10
  +1.98000000000e+10
  +1.99000000000e+10
  +2.00000000000e+10
</indep>
<dep dB_S21 frequency>
  +1.46755106689e+01
  +1.46502718889e+01
  +1.46232846117e+01
  +1.45944857930e+01
  +1.45638506560e+01
  +1.45313788015e+01
  +1.44970860668e+01
  +1.44609995284e+01
  +1.44231542989e+01
  +1.43835913893e+01
  +1.43423562236e+01
  +1.42994975688e+01
  +1.42550667331e+01
  +1.42091169464e+01
  +1.41617028657e+01
  +1.41128801701e+01
  +1.40627052206e+01
  +1.40112347713e+01
  +1.39585257178e+01
  +1.39046348787e+01
  +1.38496188027e+01
  +1.37935335985e+01
  +1.37364347838e+01
  +1.36783771527e+01
  +1.36194146584e+01
  +1.35596003099e+01
  +1.34989860829e+01
  +1.34376228420e+01
  +1.33755602746e+01
  +1.33128468355e+01
  +1.32495297004e+01
  +1.31856547288e+01
  +1.31212664357e+01
  +1.30564079695e+01
  +1.29911210981e+01
  +1.29254462008e+01
  +1.28594222657e+01
  +1.27930868931e+01
  +1.27264763025e+01
  +1.26596253448e+01
  +1.25925675175e+01
  +1.25253349837e+01
  +1.24579585937e+01
  +1.23904679087e+01
  +1.23228912278e+01
  +1.22552556153e+01
  +1.21875869311e+01
  +1.21199098605e+01
  +1.20522479470e+01
  +1.19846236238e+01
  +1.19170582477e+01
  +1.18495721321e+01
  +1.17821845802e+01
  +1.17149139193e+01
  +1.16477775336e+01
  +1.15807918977e+01
  +1.15139726094e+01
  +1.14473344222e+01
  +1.13808912769e+01
  +1.13146563336e+01
  +1.12486420016e+01
  +1.11828599700e+01
  +1.11173212367e+01
  +1.10520361371e+01
  +1.09870143717e+01
  +1.09222650331e+01
  +1.08577966323e+01
  +1.07936171239e+01
  +1.07297339305e+01
  +1.06661539668e+01
  +1.06028836618e+01
  +1.05399289817e+01
  +1.04772954503e+01
  +1.04149881703e+01
  +1.03530118423e+01
  +1.02913707844e+01
  +1.02300689499e+01
  +1.01691099449e+01
  +1.01084970453e+01
  +1.00482332128e+01
  +9.98832111020e+00
  +9.92876311629e+00
  +9.86956134004e+00
  +9.81071763413e+00
  +9.75223360790e+00
  +9.69411063979e+00
  +9.63634988921e+00
  +9.57895230786e+00
  +9.52191865057e+00
  +9.46524948567e+00
  +9.40894520486e+00
  +9.35300603266e+00
  +9.29743203539e+00
  +9.24222312980e+00
  +9.18737909121e+00
  +9.13289956141e+00
  +9.07878405601e+00
  +9.02503197162e+00
  +8.97164259261e+00
  +8.91861509750e+00
  +8.86594856518e+00
  +8.81364198072e+00
  +8.76169424095e+00
  +8.71010415976e+00
  +8.65887047315e+00
  +8.60799184406e+00
  +8.55746686691e+00
  +8.50729407195e+00
  +8.45747192945e+00
  +8.40799885355e+00
  +8.35887320609e+00
  +8.31009330011e+00
  +8.26165740325e+00
  +8.21356374097e+00
  +8.16581049962e+00
  +8.11839582928e+00
  +8.07131784660e+00
  +8.02457463736e+00
  +7.97816425897e+00
  +7.93208474286e+00
  +7.88633409665e+00
  +7.84091030638e+00
  +7.79581133841e+00
  +7.75103514144e+00
  +7.70657964824e+00
  +7.66244277745e+00
  +7.61862243512e+00
  +7.57511651634e+00
  +7.53192290667e+00
  +7.48903948350e+00
  +7.44646411742e+00
  +7.40419467340e+00
  +7.36222901205e+00
  +7.32056499063e+00
  +7.27920046420e+00
  +7.23813328653e+00
  +7.19736131113e+00
  +7.15688239204e+00
  +7.11669438474e+00
  +7.07679514693e+00
  +7.03718253926e+00
  +6.99785442601e+00
  +6.95880867583e+00
  +6.92004316226e+00
  +6.88155576443e+00
  +6.84334436752e+00
  +6.80540686331e+00
  +6.76774115070e+00
  +6.73034513611e+00
  +6.69321673395e+00
  +6.65635386701e+00
  +6.61975446683e+00
  +6.58341647406e+00
  +6.54733783878e+00
  +6.51151652079e+00
  +6.47595048994e+00
  +6.44063772635e+00
  +6.40557622066e+00
  +6.37076397430e+00
  +6.33619899962e+00
  +6.30187932017e+00
  +6.26780297082e+00
  +6.23396799793e+00
  +6.20037245953e+00
  +6.16701442542e+00
  +6.13389197732e+00
  +6.10100320894e+00
  +6.06834622615e+00
  +6.03591914700e+00
  +6.00372010182e+00
  +5.97174723332e+00
  +5.93999869660e+00
  +5.90847265924e+00
  +5.87716730133e+00
  +5.84608081550e+00
  +5.81521140695e+00
  +5.78455729347e+00
  +5.75411670546e+00
  +5.72388788594e+00
  +5.69386909055e+00
  +5.66405858753e+00
  +5.63445465772e+00
  +5.60505559458e+00
  +5.57585970412e+00
  +5.54686530490e+00
  +5.51807072801e+00
  +5.48947431702e+00
  +5.46107442798e+00
  +5.43286942934e+00
  +5.40485770193e+00
  +5.37703763892e+00
</dep>
<dep StabFact frequency>
  +1.07747654370e+00
  +1.07802640748e+00
  +1.07848899918e+00
  +1.07890540631e+00
  +1.07930473069e+00
  +1.07970861099e+00
  +1.08013381251e+00
  +1.08059376399e+00
  +1.08109949739e+00
  +1.08166023776e+00
  +1.08228378254e+00
  +1.08297675159e+00
  +1.08374475669e+00
  +1.08459252032e+00
  +1.08552396261e+00
  +1.08654226813e+00
  +1.08764994014e+00
  +1.08884884711e+00
  +1.09014026453e+00
  +1.09152491395e+00
  +1.09300300028e+00
  +1.09457424812e+00
  +1.09623793729e+00
  +1.09799293776e+00
  +1.09983774394e+00
  +1.10177050817e+00
  +1.10378907345e+00
  +1.10589100506e+00
  +1.10807362110e+00
  +1.11033402176e+00
  +1.11266911726e+00
  +1.11507565434e+00
  +1.11755024126e+00
  +1.12008937130e+00
  +1.12268944473e+00
  +1.12534678925e+00
  +1.12805767891e+00
  +1.13081835157e+00
  +1.13362502494e+00
  +1.13647391119e+00
  +1.13936123032e+00
  +1.14228322215e+00
  +1.14523615729e+00
  +1.14821634676e+00
  +1.15122015077e+00
  +1.15424398639e+00
  +1.15728433429e+00
  +1.16033774467e+00
  +1.16340084242e+00
  +1.16647033147e+00
  +1.16954299851e+00
  +1.17261571612e+00
  +1.17568544528e+00
  +1.17874923740e+00
  +1.18180423589e+00
  +1.18484767723e+00
  +1.18787689180e+00
  +1.19088930419e+00
  +1.19388243332e+00
  +1.19685389228e+00
  +1.19980138779e+00
  +1.20272271961e+00
  +1.20561577966e+00
  +1.20847855094e+00
  +1.21130910637e+00
  +1.21410560745e+00
  +1.21686630280e+00
  +1.21958952666e+00
  +1.22227369720e+00
  +1.22491731488e+00
  +1.22751896064e+00
  +1.23007729411e+00
  +1.23259105178e+00
  +1.23505904508e+00
  +1.23748015850e+00
  +1.23985334771e+00
  +1.24217763756e+00
  +1.24445212024e+00
  +1.24667595329e+00
  +1.24884835773e+00
  +1.25096861613e+00
  +1.25303607074e+00
  +1.25505012160e+00
  +1.25701022474e+00
  +1.25891589028e+00
  +1.26076668072e+00
  +1.26256220909e+00
  +1.26430213728e+00
  +1.26598617429e+00
  +1.26761407454e+00
  +1.26918563628e+00
  +1.27070069993e+00
  +1.27215914654e+00
  +1.27356089621e+00
  +1.27490590663e+00
  +1.27619417158e+00
  +1.27742571949e+00
  +1.27860061207e+00
  +1.27971894291e+00
  +1.28078083618e+00
  +1.28178644534e+00
  +1.28273595183e+00
  +1.28362956391e+00
  +1.28446751545e+00
  +1.28525006472e+00
  +1.28597749336e+00
  +1.28665010521e+00
  +1.28726822528e+00
  +1.28783219873e+00
  +1.28834238987e+00
  +1.28879918117e+00
  +1.28920297236e+00
  +1.28955417950e+00
  +1.28985323411e+00
  +1.29010058232e+00
  +1.29029668404e+00
  +1.29044201217e+00
  +1.29053705184e+00
  +1.29058229965e+00
  +1.29057826295e+00
  +1.29052545916e+00
  +1.29042441511e+00
  +1.29027566634e+00
  +1.29007975656e+00
  +1.28983723696e+00
  +1.28954866567e+00
  +1.28921460723e+00
  +1.28883563198e+00
  +1.28841231561e+00
  +1.28794523859e+00
  +1.28743498577e+00
  +1.28688214583e+00
  +1.28628731091e+00
  +1.28565107612e+00
  +1.28497403916e+00
  +1.28425679992e+00
  +1.28349996009e+00
  +1.28270412281e+00
  +1.28186989230e+00
  +1.28099787355e+00
  +1.28008867194e+00
  +1.27914289302e+00
  +1.27816114214e+00
  +1.27714402419e+00
  +1.27609214334e+00
  +1.27500610276e+00
  +1.27388650440e+00
  +1.27273394870e+00
  +1.27154903444e+00
  +1.27033235847e+00
  +1.26908451551e+00
  +1.26780609796e+00
  +1.26649769572e+00
  +1.26515989601e+00
  +1.26379328320e+00
  +1.26239843865e+00
  +1.26097594053e+00
  +1.25952636374e+00
  +1.25805027970e+00
  +1.25654825627e+00
  +1.25502085763e+00
  +1.25346864412e+00
  +1.25189217218e+00
  +1.25029199421e+00
  +1.24866865849e+00
  +1.24702270912e+00
  +1.24535468587e+00
  +1.24366512415e+00
  +1.24195455494e+00
  +1.24022350468e+00
  +1.23847249525e+00
  +1.23670204387e+00
  +1.23491266310e+00
  +1.23310486073e+00
  +1.23127913978e+00
  +1.22943599844e+00
  +1.22757593003e+00
  +1.22569942296e+00
  +1.22380696073e+00
  +1.22189902187e+00
  +1.21997607993e+00
  +1.21803860346e+00
  +1.21608705600e+00
  +1.21412189605e+00
  +1.21214357707e+00
  +1.21015254747e+00
  +1.20814925058e+00
  +1.20613412471e+00
  +1.20410760307e+00
  +1.20207011382e+00
  +1.20002208007e+00
</dep>
<dep NFmin frequency>
  +1.05848881819e+00
  +1.05955730348e+00
  +1.06055105328e+00
  +1.06150687061e+00
  +1.06244889460e+00
  +1.06339345761e+00
  +1.06435189929e+00
  +1.06533226334e+00
  +1.06634035651e+00
  +1.06738042983e+00
  +1.06845562836e+00
  +1.06956829540e+00
  +1.07072018245e+00
  +1.07191259704e+00
  +1.07314650847e+00
  +1.07442262473e+00
  +1.07574144926e+00
  +1.07710332337e+00
  +1.07850845829e+00
  +1.07995695983e+00
  +1.08144884733e+00
  +1.08298406858e+00
  +1.08456251156e+00
  +1.08618401380e+00
  +1.08784836993e+00
  +1.08955533780e+00
  +1.09130464350e+00
  +1.09309598549e+00
  +1.09492903803e+00
  +1.09680345414e+00
  +1.09871886798e+00
  +1.10067489700e+00
  +1.10267114373e+00
  +1.10470719732e+00
  +1.10678263497e+00
  +1.10889702306e+00
  +1.11104991828e+00
  +1.11324086855e+00
  +1.11546941391e+00
  +1.11773508730e+00
  +1.12003741523e+00
  +1.12237591849e+00
  +1.12475011272e+00
  +1.12715950895e+00
  +1.12960361416e+00
  +1.13208193173e+00
  +1.13459396191e+00
  +1.13713920224e+00
  +1.13971714794e+00
  +1.14232729232e+00
  +1.14496912710e+00
  +1.14764214278e+00
  +1.15034582897e+00
  +1.15307967466e+00
  +1.15584316855e+00
  +1.15863579933e+00
  +1.16145705593e+00
  +1.16430642778e+00
  +1.16718340504e+00
  +1.17008747890e+00
  +1.17301814169e+00
  +1.17597488721e+00
  +1.17895721086e+00
  +1.18196460984e+00
  +1.18499658337e+00
  +1.18805263283e+00
  +1.19113226196e+00
  +1.19423497699e+00
  +1.19736028682e+00
  +1.20050770314e+00
  +1.20367674060e+00
  +1.20686691689e+00
  +1.21007775293e+00
  +1.21330877294e+00
  +1.21655950455e+00
  +1.21982947893e+00
  +1.22311823088e+00
  +1.22642529892e+00
  +1.22975022538e+00
  +1.23309255645e+00
  +1.23645184233e+00
  +1.23982763722e+00
  +1.24321949944e+00
  +1.24662699145e+00
  +1.25004967996e+00
  +1.25348713591e+00
  +1.25693893460e+00
  +1.26040465566e+00
  +1.26388388311e+00
  +1.26737620544e+00
  +1.27088121558e+00
  +1.27439851094e+00
  +1.27792769347e+00
  +1.28146836963e+00
  +1.28502015045e+00
  +1.28858265151e+00
  +1.29215549298e+00
  +1.29573829960e+00
  +1.29933070071e+00
  +1.30293233021e+00
  +1.30654282663e+00
  +1.31016183305e+00
  +1.31378899715e+00
  +1.31742397117e+00
  +1.32106641191e+00
  +1.32471598073e+00
  +1.32837234352e+00
  +1.33203517068e+00
  +1.33570413712e+00
  +1.33937892222e+00
  +1.34305920984e+00
  +1.34674468826e+00
  +1.35043505016e+00
  +1.35412999263e+00
  +1.35782921711e+00
  +1.36153242937e+00
  +1.36523933947e+00
  +1.36894966175e+00
  +1.37266311480e+00
  +1.37637942138e+00
  +1.38009830845e+00
  +1.38381950709e+00
  +1.38754275250e+00
  +1.39126778393e+00
  +1.39499434465e+00
  +1.39872218194e+00
  +1.40245104702e+00
  +1.40618069501e+00
  +1.40991088493e+00
  +1.41364137960e+00
  +1.41737194568e+00
  +1.42110235352e+00
  +1.42483237724e+00
  +1.42856179460e+00
  +1.43229038698e+00
  +1.43601793937e+00
  +1.43974424028e+00
  +1.44346908174e+00
  +1.44719225924e+00
  +1.45091357166e+00
  +1.45463282129e+00
  +1.45834981372e+00
  +1.46206435785e+00
  +1.46577626581e+00
  +1.46948535294e+00
  +1.47319143774e+00
  +1.47689434182e+00
  +1.48059388986e+00
  +1.48428990960e+00
  +1.48798223172e+00
  +1.49167068989e+00
  +1.49535512066e+00
  +1.49903536346e+00
  +1.50271126050e+00
  +1.50638265682e+00
  +1.51004940016e+00
  +1.51371134096e+00
  +1.51736833232e+00
  +1.52102022995e+00
  +1.52466689213e+00
  +1.52830817966e+00
  +1.53194395586e+00
  +1.53557408646e+00
  +1.53919843963e+00
  +1.54281688589e+00
  +1.54642929812e+00
  +1.55003555145e+00
  +1.55363552331e+00
  +1.55722909331e+00
  +1.56081614325e+00
  +1.56439655707e+00
  +1.56797022081e+00
  +1.57153702258e+00
  +1.57509685250e+00
  +1.57864960272e+00
  +1.58219516729e+00
  +1.58573344224e+00
  +1.58926432542e+00
  +1.59278771659e+00
  +1.59630351729e+00
  +1.59981163084e+00
  +1.60331196231e+00
  +1.60680441849e+00
  +1.61028890783e+00
  +1.61376534045e+00
  +1.61723362807e+00
  +1.62069368397e+00
  +1.62414542301e+00
  +1.62758876156e+00
  +1.63102361745e+00
  +1.63444991000e+00
</dep>
<dep Rn frequency>
  +1.36901737970e+01
  +1.36812953985e+01
  +1.36714358401e+01
  +1.36606269292e+01
  +1.36488904131e+01
  +1.36362418974e+01
  +1.36226931189e+01
  +1.36082533160e+01
  +1.35929300852e+01
  +1.35767299317e+01
  +1.35596586321e+01
  +1.35417214808e+01
  +1.35229234584e+01
  +1.35032693508e+01
  +1.34827638340e+01
  +1.34614115348e+01
  +1.34392170761e+01
  +1.34161851101e+01
  +1.33923203424e+01
  +1.33676275516e+01
  +1.33421116024e+01
  +1.33157774570e+01
  +1.32886301826e+01
  +1.32606749580e+01
  +1.32319170780e+01
  +1.32023619568e+01
  +1.31720151303e+01
  +1.31408822582e+01
  +1.31089691250e+01
  +1.30762816405e+01
  +1.30428258403e+01
  +1.30086078856e+01
  +1.29736340629e+01
  +1.29379107839e+01
  +1.29014445839e+01
  +1.28642421220e+01
  +1.28263101791e+01
  +1.27876556576e+01
  +1.27482855797e+01
  +1.27082070862e+01
  +1.26674274355e+01
  +1.26259540015e+01
  +1.25837942727e+01
  +1.25409558503e+01
  +1.24974464469e+01
  +1.24532738847e+01
  +1.24084460936e+01
  +1.23629711102e+01
  +1.23168570753e+01
  +1.22701122325e+01
  +1.22227449267e+01
  +1.21747636018e+01
  +1.21261767990e+01
  +1.20769931552e+01
  +1.20272214011e+01
  +1.19768703591e+01
  +1.19259489415e+01
  +1.18744661488e+01
  +1.18224310677e+01
  +1.17698528690e+01
  +1.17167408059e+01
  +1.16631042121e+01
  +1.16089524996e+01
  +1.15542951572e+01
  +1.14991417481e+01
  +1.14435019082e+01
  +1.13873853442e+01
  +1.13308018314e+01
  +1.12737612122e+01
  +1.12162733937e+01
  +1.11583483461e+01
  +1.10999961003e+01
  +1.10412267466e+01
  +1.09820504323e+01
  +1.09224773600e+01
  +1.08625177855e+01
  +1.08021820161e+01
  +1.07414804085e+01
  +1.06804233669e+01
  +1.06190213414e+01
  +1.05572848257e+01
  +1.04952243556e+01
  +1.04328505069e+01
  +1.03701738936e+01
  +1.03072051662e+01
  +1.02439550096e+01
  +1.01804341415e+01
  +1.01166533106e+01
  +1.00526232948e+01
  +9.98835489927e+00
  +9.92385895479e+00
  +9.85914631611e+00
  +9.79422786009e+00
  +9.72911448404e+00
  +9.66381710400e+00
  +9.59834665307e+00
  +9.53271407977e+00
  +9.46693034636e+00
  +9.40100642722e+00
  +9.33495330728e+00
  +9.26878198036e+00
  +9.20250344766e+00
  +9.13612871618e+00
  +9.06966879719e+00
  +9.00313470469e+00
  +8.93653745399e+00
  +8.86988806014e+00
  +8.80319753655e+00
  +8.73647689353e+00
  +8.66973713686e+00
  +8.60298926642e+00
  +8.53624427483e+00
  +8.46951314607e+00
  +8.40280685417e+00
  +8.33613636188e+00
  +8.26951261943e+00
  +8.20294656322e+00
  +8.13644911459e+00
  +8.07003117863e+00
  +8.00370364291e+00
  +7.93747737639e+00
  +7.87136322819e+00
  +7.80537202649e+00
  +7.73951457743e+00
  +7.67380166398e+00
  +7.60824404490e+00
  +7.54285245369e+00
  +7.47763759756e+00
  +7.41261015642e+00
  +7.34778078190e+00
  +7.28316009639e+00
  +7.21875869212e+00
  +7.15458713020e+00
  +7.09065593975e+00
  +7.02697561702e+00
  +6.96355662453e+00
  +6.90040939023e+00
  +6.83754430671e+00
  +6.77497173037e+00
  +6.71270198067e+00
  +6.65074533937e+00
  +6.58911204978e+00
  +6.52781231609e+00
  +6.46685630261e+00
  +6.40625413315e+00
  +6.34601589036e+00
  +6.28615161503e+00
  +6.22667130556e+00
  +6.16758491729e+00
  +6.10890236196e+00
  +6.05063350711e+00
  +5.99278817556e+00
  +5.93537614488e+00
  +5.87840714685e+00
  +5.82189086700e+00
  +5.76583694412e+00
  +5.71025496977e+00
  +5.65515448787e+00
  +5.60054499427e+00
  +5.54643593629e+00
  +5.49283671237e+00
  +5.43975667166e+00
  +5.38720511366e+00
  +5.33519128787e+00
  +5.28372439341e+00
  +5.23281357875e+00
  +5.18246794134e+00
  +5.13269652736e+00
  +5.08350833140e+00
  +5.03491229616e+00
  +4.98691731226e+00
  +4.93953221793e+00
  +4.89276579877e+00
  +4.84662678755e+00
  +4.80112386397e+00
  +4.75626565448e+00
  +4.71206073204e+00
  +4.66851761598e+00
  +4.62564477179e+00
  +4.58345061095e+00
