<Qucs Dataset 0.0.6>
<indep frequency 191>
  +1.00000000000e+09
  +1.10000000000e+09
  +1.20000000000e+09
  +1.30000000000e+09
  +1.40000000000e+09
  +1.50000000000e+09
  +1.60000000000e+09
  +1.70000000000e+09
  +1.80000000000e+09
  +1.90000000000e+09
  +2.00000000000e+09
  +2.10000000000e+09
  +2.20000000000e+09
  +2.30000000000e+09
  +2.40000000000e+09
  +2.50000000000e+09
  +2.60000000000e+09
  +2.70000000000e+09
  +2.80000000000e+09
  +2.90000000000e+09
  +3.00000000000e+09
  +3.10000000000e+09
  +3.20000000000e+09
  +3.30000000000e+09
  +3.40000000000e+09
  +3.50000000000e+09
  +3.60000000000e+09
  +3.70000000000e+09
  +3.80000000000e+09
  +3.90000000000e+09
  +4.00000000000e+09
  +4.10000000000e+09
  +4.20000000000e+09
  +4.30000000000e+09
  +4.40000000000e+09
  +4.50000000000e+09
  +4.60000000000e+09
  +4.70000000000e+09
  +4.80000000000e+09
  +4.90000000000e+09
  +5.00000000000e+09
  +5.10000000000e+09
  +5.20000000000e+09
  +5.30000000000e+09
  +5.40000000000e+09
  +5.50000000000e+09
  +5.60000000000e+09
  +5.70000000000e+09
  +5.80000000000e+09
  +5.90000000000e+09
  +6.00000000000e+09
  +6.10000000000e+09
  +6.20000000000e+09
  +6.30000000000e+09
  +6.40000000000e+09
  +6.50000000000e+09
  +6.60000000000e+09
  +6.70000000000e+09
  +6.80000000000e+09
  +6.90000000000e+09
  +7.00000000000e+09
  +7.10000000000e+09
  +7.20000000000e+09
  +7.30000000000e+09
  +7.40000000000e+09
  +7.50000000000e+09
  +7.60000000000e+09
  +7.70000000000e+09
  +7.80000000000e+09
  +7.90000000000e+09
  +8.00000000000e+09
  +8.10000000000e+09
  +8.20000000000e+09
  +8.30000000000e+09
  +8.40000000000e+09
  +8.50000000000e+09
  +8.60000000000e+09
  +8.70000000000e+09
  +8.80000000000e+09
  +8.90000000000e+09
  +9.00000000000e+09
  +9.10000000000e+09
  +9.20000000000e+09
  +9.30000000000e+09
  +9.40000000000e+09
  +9.50000000000e+09
  +9.60000000000e+09
  +9.70000000000e+09
  +9.80000000000e+09
  +9.90000000000e+09
  +1.00000000000e+10
  +1.01000000000e+10
  +1.02000000000e+10
  +1.03000000000e+10
  +1.04000000000e+10
  +1.05000000000e+10
  +1.06000000000e+10
  +1.07000000000e+10
  +1.08000000000e+10
  +1.09000000000e+10
  +1.10000000000e+10
  +1.11000000000e+10
  +1.12000000000e+10
  +1.13000000000e+10
  +1.14000000000e+10
  +1.15000000000e+10
  +1.16000000000e+10
  +1.17000000000e+10
  +1.18000000000e+10
  +1.19000000000e+10
  +1.20000000000e+10
  +1.21000000000e+10
  +1.22000000000e+10
  +1.23000000000e+10
  +1.24000000000e+10
  +1.25000000000e+10
  +1.26000000000e+10
  +1.27000000000e+10
  +1.28000000000e+10
  +1.29000000000e+10
  +1.30000000000e+10
  +1.31000000000e+10
  +1.32000000000e+10
  +1.33000000000e+10
  +1.34000000000e+10
  +1.35000000000e+10
  +1.36000000000e+10
  +1.37000000000e+10
  +1.38000000000e+10
  +1.39000000000e+10
  +1.40000000000e+10
  +1.41000000000e+10
  +1.42000000000e+10
  +1.43000000000e+10
  +1.44000000000e+10
  +1.45000000000e+10
  +1.46000000000e+10
  +1.47000000000e+10
  +1.48000000000e+10
  +1.49000000000e+10
  +1.50000000000e+10
  +1.51000000000e+10
  +1.52000000000e+10
  +1.53000000000e+10
  +1.54000000000e+10
  +1.55000000000e+10
  +1.56000000000e+10
  +1.57000000000e+10
  +1.58000000000e+10
  +1.59000000000e+10
  +1.60000000000e+10
  +1.61000000000e+10
  +1.62000000000e+10
  +1.63000000000e+10
  +1.64000000000e+10
  +1.65000000000e+10
  +1.66000000000e+10
  +1.67000000000e+10
  +1.68000000000e+10
  +1.69000000000e+10
  +1.70000000000e+10
  +1.71000000000e+10
  +1.72000000000e+10
  +1.73000000000e+10
  +1.74000000000e+10
  +1.75000000000e+10
  +1.76000000000e+10
  +1.77000000000e+10
  +1.78000000000e+10
  +1.79000000000e+10
  +1.80000000000e+10
  +1.81000000000e+10
  +1.82000000000e+10
  +1.83000000000e+10
  +1.84000000000e+10
  +1.85000000000e+10
  +1.86000000000e+10
  +1.87000000000e+10
  +1.88000000000e+10
  +1.89000000000e+10
  +1.90000000000e+10
  +1.91000000000e+10
  +1.92000000000e+10
  +1.93000000000e+10
  +1.94000000000e+10
  +1.95000000000e+10
  +1.96000000000e+10
  +1.97000000000e+10
  +1.98000000000e+10
  +1.99000000000e+10
  +2.00000000000e+10
</indep>
<dep dB_S21 frequency>
  +1.41527850795e+01
  +1.41378210155e+01
  +1.41214916687e+01
  +1.41038128301e+01
  +1.40848014390e+01
  +1.40644755307e+01
  +1.40428541831e+01
  +1.40199574594e+01
  +1.39958063507e+01
  +1.39704227161e+01
  +1.39438292216e+01
  +1.39160492791e+01
  +1.38871069840e+01
  +1.38570270525e+01
  +1.38258347604e+01
  +1.37935558802e+01
  +1.37602166206e+01
  +1.37258435663e+01
  +1.36904636181e+01
  +1.36541039361e+01
  +1.36167918826e+01
  +1.35785549680e+01
  +1.35394207981e+01
  +1.34994170229e+01
  +1.34585712886e+01
  +1.34169111907e+01
  +1.33744642301e+01
  +1.33312577710e+01
  +1.32873190018e+01
  +1.32426748977e+01
  +1.31973521861e+01
  +1.31513773144e+01
  +1.31047764199e+01
  +1.30575753026e+01
  +1.30097993992e+01
  +1.29614737610e+01
  +1.29126230324e+01
  +1.28632714324e+01
  +1.28134427383e+01
  +1.27631602706e+01
  +1.27124468806e+01
  +1.26613249392e+01
  +1.26098163282e+01
  +1.25579424324e+01
  +1.25057241338e+01
  +1.24531818071e+01
  +1.24003353167e+01
  +1.23472040148e+01
  +1.22938067409e+01
  +1.22401618225e+01
  +1.21862870765e+01
  +1.21321998116e+01
  +1.20779168324e+01
  +1.20234544431e+01
  +1.19688284526e+01
  +1.19140541804e+01
  +1.18591464629e+01
  +1.18041196599e+01
  +1.17489876624e+01
  +1.16937638998e+01
  +1.16384613486e+01
  +1.15830925404e+01
  +1.15276695710e+01
  +1.14722041089e+01
  +1.14167074050e+01
  +1.13611903013e+01
  +1.13056632409e+01
  +1.12501362772e+01
  +1.11946190834e+01
  +1.11391209621e+01
  +1.10836508554e+01
  +1.10282173537e+01
  +1.09728287056e+01
  +1.09174928276e+01
  +1.08622173129e+01
  +1.08070094413e+01
  +1.07518761880e+01
  +1.06968242327e+01
  +1.06418599688e+01
  +1.05869895118e+01
  +1.05322187081e+01
  +1.04775531438e+01
  +1.04229981522e+01
  +1.03685588229e+01
  +1.03142400092e+01
  +1.02600463360e+01
  +1.02059822074e+01
  +1.01520518144e+01
  +1.00982591417e+01
  +1.00446079751e+01
  +9.99110190849e+00
  +9.93774435012e+00
  +9.88453852957e+00
  +9.83148750387e+00
  +9.77859416374e+00
  +9.72586123957e+00
  +9.67329130725e+00
  +9.62088679380e+00
  +9.56864998287e+00
  +9.51658302006e+00
  +9.46468791804e+00
  +9.41296656158e+00
  +9.36142071233e+00
  +9.31005201357e+00
  +9.25886199467e+00
  +9.20785207551e+00
  +9.15702357072e+00
  +9.10637769376e+00
  +9.05591556090e+00
  +9.00563819504e+00
  +8.95554652941e+00
  +8.90564141114e+00
  +8.85592360473e+00
  +8.80639379535e+00
  +8.75705259210e+00
  +8.70790053108e+00
  +8.65893807839e+00
  +8.61016563304e+00
  +8.56158352971e+00
  +8.51319204148e+00
  +8.46499138237e+00
  +8.41698170988e+00
  +8.36916312737e+00
  +8.32153568640e+00
  +8.27409938897e+00
  +8.22685418967e+00
  +8.17979999773e+00
  +8.13293667907e+00
  +8.08626405818e+00
  +8.03978192001e+00
  +7.99349001171e+00
  +7.94738804442e+00
  +7.90147569484e+00
  +7.85575260690e+00
  +7.81021839324e+00
  +7.76487263669e+00
  +7.71971489172e+00
  +7.67474468578e+00
  +7.62996152061e+00
  +7.58536487352e+00
  +7.54095419858e+00
  +7.49672892783e+00
  +7.45268847234e+00
  +7.40883222334e+00
  +7.36515955325e+00
  +7.32166981664e+00
  +7.27836235124e+00
  +7.23523647882e+00
  +7.19229150611e+00
  +7.14952672561e+00
  +7.10694141644e+00
  +7.06453484510e+00
  +7.02230626624e+00
  +6.98025492337e+00
  +6.93838004957e+00
  +6.89668086815e+00
  +6.85515659326e+00
  +6.81380643056e+00
  +6.77262957776e+00
  +6.73162522522e+00
  +6.69079255645e+00
  +6.65013074870e+00
  +6.60963897336e+00
  +6.56931639654e+00
  +6.52916217945e+00
  +6.48917547889e+00
  +6.44935544765e+00
  +6.40970123490e+00
  +6.37021198660e+00
  +6.33088684588e+00
  +6.29172495334e+00
  +6.25272544746e+00
  +6.21388746487e+00
  +6.17521014070e+00
  +6.13669260884e+00
  +6.09833400225e+00
  +6.06013345324e+00
  +6.02209009369e+00
  +5.98420305536e+00
  +5.94647147006e+00
  +5.90889446992e+00
  +5.87147118760e+00
  +5.83420075649e+00
  +5.79708231092e+00
  +5.76011498632e+00
  +5.72329791943e+00
  +5.68663024846e+00
  +5.65011111324e+00
  +5.61373965540e+00
  +5.57751501850e+00
  +5.54143634818e+00
</dep>
<dep StabFact frequency>
  +2.93660583322e-02
  +3.23020224124e-02
  +3.52378032133e-02
  +3.81733841088e-02
  +4.11087484823e-02
  +4.40438797271e-02
  +4.69787612475e-02
  +4.99133764593e-02
  +5.28477087908e-02
  +5.57817416836e-02
  +5.87154585928e-02
  +6.16488429888e-02
  +6.45818783569e-02
  +6.75145481990e-02
  +7.04468360339e-02
  +7.33787253981e-02
  +7.63101998466e-02
  +7.92412429539e-02
  +8.21718383143e-02
  +8.51019695428e-02
  +8.80316202763e-02
  +9.09607741737e-02
  +9.38894149171e-02
  +9.68175262121e-02
  +9.97450917893e-02
  +1.02672095404e-01
  +1.05598520838e-01
  +1.08524351900e-01
  +1.11449572426e-01
  +1.14374166279e-01
  +1.17298117353e-01
  +1.20221409571e-01
  +1.23144026885e-01
  +1.26065953281e-01
  +1.28987172774e-01
  +1.31907669413e-01
  +1.34827427280e-01
  +1.37746430492e-01
  +1.40664663199e-01
  +1.43582109587e-01
  +1.46498753879e-01
  +1.49414580334e-01
  +1.52329573249e-01
  +1.55243716958e-01
  +1.58156995837e-01
  +1.61069394298e-01
  +1.63980896795e-01
  +1.66891487824e-01
  +1.69801151920e-01
  +1.72709873663e-01
  +1.75617637675e-01
  +1.78524428622e-01
  +1.81430231212e-01
  +1.84335030202e-01
  +1.87238810392e-01
  +1.90141556629e-01
  +1.93043253807e-01
  +1.95943886868e-01
  +1.98843440802e-01
  +2.01741900647e-01
  +2.04639251492e-01
  +2.07535478476e-01
  +2.10430566789e-01
  +2.13324501670e-01
  +2.16217268413e-01
  +2.19108852363e-01
  +2.21999238920e-01
  +2.24888413536e-01
  +2.27776361719e-01
  +2.30663069031e-01
  +2.33548521089e-01
  +2.36432703569e-01
  +2.39315602202e-01
  +2.42197202775e-01
  +2.45077491137e-01
  +2.47956453193e-01
  +2.50834074906e-01
  +2.53710342301e-01
  +2.56585241462e-01
  +2.59458758536e-01
  +2.62330879728e-01
  +2.65201591307e-01
  +2.68070879605e-01
  +2.70938731015e-01
  +2.73805131996e-01
  +2.76670069069e-01
  +2.79533528820e-01
  +2.82395497901e-01
  +2.85255963028e-01
  +2.88114910986e-01
  +2.90972328624e-01
  +2.93828202858e-01
  +2.96682520674e-01
  +2.99535269124e-01
  +3.02386435328e-01
  +3.05236006478e-01
  +3.08083969832e-01
  +3.10930312722e-01
  +3.13775022546e-01
  +3.16618086776e-01
  +3.19459492954e-01
  +3.22299228694e-01
  +3.25137281683e-01
  +3.27973639679e-01
  +3.30808290516e-01
  +3.33641222098e-01
  +3.36472422405e-01
  +3.39301879491e-01
  +3.42129581484e-01
  +3.44955516589e-01
  +3.47779673085e-01
  +3.50602039326e-01
  +3.53422603745e-01
  +3.56241354850e-01
  +3.59058281226e-01
  +3.61873371536e-01
  +3.64686614521e-01
  +3.67497998999e-01
  +3.70307513868e-01
  +3.73115148104e-01
  +3.75920890763e-01
  +3.78724730978e-01
  +3.81526657966e-01
  +3.84326661020e-01
  +3.87124729517e-01
  +3.89920852914e-01
  +3.92715020746e-01
  +3.95507222635e-01
  +3.98297448279e-01
  +4.01085687462e-01
  +4.03871930050e-01
  +4.06656165989e-01
  +4.09438385311e-01
  +4.12218578129e-01
  +4.14996734640e-01
  +4.17772845125e-01
  +4.20546899949e-01
  +4.23318889562e-01
  +4.26088804495e-01
  +4.28856635369e-01
  +4.31622372885e-01
  +4.34386007831e-01
  +4.37147531082e-01
  +4.39906933596e-01
  +4.42664206418e-01
  +4.45419340679e-01
  +4.48172327596e-01
  +4.50923158472e-01
  +4.53671824698e-01
  +4.56418317749e-01
  +4.59162629191e-01
  +4.61904750672e-01
  +4.64644673933e-01
  +4.67382390797e-01
  +4.70117893178e-01
  +4.72851173077e-01
  +4.75582222583e-01
  +4.78311033872e-01
  +4.81037599209e-01
  +4.83761910949e-01
  +4.86483961531e-01
  +4.89203743487e-01
  +4.91921249435e-01
  +4.94636472084e-01
  +4.97349404229e-01
  +5.00060038756e-01
  +5.02768368641e-01
  +5.05474386946e-01
  +5.08178086825e-01
  +5.10879461520e-01
  +5.13578504363e-01
  +5.16275208776e-01
  +5.18969568269e-01
  +5.21661576443e-01
  +5.24351226987e-01
  +5.27038513683e-01
  +5.29723430399e-01
  +5.32405971095e-01
  +5.35086129820e-01
  +5.37763900713e-01
  +5.40439278003e-01
  +5.43112256010e-01
  +5.45782829142e-01
  +5.48450991899e-01
  +5.51116738868e-01
  +5.53780064728e-01
  +5.56440964249e-01
  +5.59099432289e-01
  +5.61755463797e-01
  +5.64409053811e-01
  +5.67060197459e-01
</dep>
<dep NFmin frequency>
  +6.71177248060e-02
  +7.38099182136e-02
  +8.04984385797e-02
  +8.71832579099e-02
  +9.38643483075e-02
  +1.00541681976e-01
  +1.07215231217e-01
  +1.13884968439e-01
  +1.20550866147e-01
  +1.27212896956e-01
  +1.33871033582e-01
  +1.40525248851e-01
  +1.47175515694e-01
  +1.53821807152e-01
  +1.60464096376e-01
  +1.67102356629e-01
  +1.73736561284e-01
  +1.80366683829e-01
  +1.86992697867e-01
  +1.93614577116e-01
  +2.00232295410e-01
  +2.06845826702e-01
  +2.13455145063e-01
  +2.20060224686e-01
  +2.26661039883e-01
  +2.33257565088e-01
  +2.39849774859e-01
  +2.46437643880e-01
  +2.53021146958e-01
  +2.59600259026e-01
  +2.66174955146e-01
  +2.72745210507e-01
  +2.79311000430e-01
  +2.85872300362e-01
  +2.92429085886e-01
  +2.98981332714e-01
  +3.05529016693e-01
  +3.12072113803e-01
  +3.18610600161e-01
  +3.25144452019e-01
  +3.31673645766e-01
  +3.38198157929e-01
  +3.44717965175e-01
  +3.51233044309e-01
  +3.57743372279e-01
  +3.64248926174e-01
  +3.70749683223e-01
  +3.77245620802e-01
  +3.83736716428e-01
  +3.90222947767e-01
  +3.96704292626e-01
  +4.03180728963e-01
  +4.09652234882e-01
  +4.16118788634e-01
  +4.22580368622e-01
  +4.29036953395e-01
  +4.35488521658e-01
  +4.41935052263e-01
  +4.48376524216e-01
  +4.54812916676e-01
  +4.61244208956e-01
  +4.67670380523e-01
  +4.74091410999e-01
  +4.80507280163e-01
  +4.86917967949e-01
  +4.93323454450e-01
  +4.99723719915e-01
  +5.06118744754e-01
  +5.12508509535e-01
  +5.18892994985e-01
  +5.25272181994e-01
  +5.31646051611e-01
  +5.38014585047e-01
  +5.44377763677e-01
  +5.50735569039e-01
  +5.57087982831e-01
  +5.63434986921e-01
  +5.69776563336e-01
  +5.76112694272e-01
  +5.82443362090e-01
  +5.88768549317e-01
  +5.95088238647e-01
  +6.01402412942e-01
  +6.07711055230e-01
  +6.14014148709e-01
  +6.20311676747e-01
  +6.26603622878e-01
  +6.32889970809e-01
  +6.39170704416e-01
  +6.45445807746e-01
  +6.51715265015e-01
  +6.57979060615e-01
  +6.64237179105e-01
  +6.70489605219e-01
  +6.76736323865e-01
  +6.82977320120e-01
  +6.89212579239e-01
  +6.95442086648e-01
  +7.01665827947e-01
  +7.07883788913e-01
  +7.14095955495e-01
  +7.20302313818e-01
  +7.26502850183e-01
  +7.32697551067e-01
  +7.38886403123e-01
  +7.45069393178e-01
  +7.51246508238e-01
  +7.57417735486e-01
  +7.63583062279e-01
  +7.69742476155e-01
  +7.75895964828e-01
  +7.82043516188e-01
  +7.88185118305e-01
  +7.94320759427e-01
  +8.00450427980e-01
  +8.06574112566e-01
  +8.12691801970e-01
  +8.18803485153e-01
  +8.24909151254e-01
  +8.31008789594e-01
  +8.37102389670e-01
  +8.43189941161e-01
  +8.49271433923e-01
  +8.55346857993e-01
  +8.61416203588e-01
  +8.67479461101e-01
  +8.73536621110e-01
  +8.79587674368e-01
  +8.85632611810e-01
  +8.91671424552e-01
  +8.97704103886e-01
  +9.03730641287e-01
  +9.09751028409e-01
  +9.15765257086e-01
  +9.21773319332e-01
  +9.27775207338e-01
  +9.33770913480e-01
  +9.39760430308e-01
  +9.45743750556e-01
  +9.51720867137e-01
  +9.57691773140e-01
  +9.63656461838e-01
  +9.69614926681e-01
  +9.75567161298e-01
  +9.81513159499e-01
  +9.87452915271e-01
  +9.93386422781e-01
  +9.99313676376e-01
  +1.00523467058e+00
  +1.01114940009e+00
  +1.01705785980e+00
  +1.02296004476e+00
  +1.02885595021e+00
  +1.03474557157e+00
  +1.04062890442e+00
  +1.04650594455e+00
  +1.05237668789e+00
  +1.05824113058e+00
  +1.06409926891e+00
  +1.06995109936e+00
  +1.07579661859e+00
  +1.08163582344e+00
  +1.08746871090e+00
  +1.09329527816e+00
  +1.09911552258e+00
  +1.10492944169e+00
  +1.11073703320e+00
  +1.11653829500e+00
  +1.12233322514e+00
  +1.12812182184e+00
  +1.13390408353e+00
  +1.13968000876e+00
  +1.14544959631e+00
  +1.15121284508e+00
  +1.15696975418e+00
  +1.16272032288e+00
  +1.16846455061e+00
  +1.17420243698e+00
  +1.17993398178e+00
  +1.18565918497e+00
  +1.19137804666e+00
  +1.19709056714e+00
  +1.20279674689e+00
  +1.20849658653e+00
  +1.21419008686e+00
  +1.21987724886e+00
  +1.22555807365e+00
  +1.23123256254e+00
  +1.23690071701e+00
  +1.24256253868e+00
  +1.24821802937e+00
</dep>
<dep Rn frequency>
  +1.00741167463e+01
  +1.00735789787e+01
  +1.00729900635e+01
  +1.00723500194e+01
  +1.00716588666e+01
  +1.00709166271e+01
  +1.00701233242e+01
  +1.00692789831e+01
  +1.00683836304e+01
  +1.00674372946e+01
  +1.00664400055e+01
  +1.00653917945e+01
  +1.00642926949e+01
  +1.00631427414e+01
  +1.00619419702e+01
  +1.00606904192e+01
  +1.00593881279e+01
  +1.00580351374e+01
  +1.00566314904e+01
  +1.00551772310e+01
  +1.00536724052e+01
  +1.00521170602e+01
  +1.00505112450e+01
  +1.00488550103e+01
  +1.00471484079e+01
  +1.00453914917e+01
  +1.00435843167e+01
  +1.00417269398e+01
  +1.00398194192e+01
  +1.00378618147e+01
  +1.00358541878e+01
  +1.00337966014e+01
  +1.00316891199e+01
  +1.00295318092e+01
  +1.00273247369e+01
  +1.00250679720e+01
  +1.00227615848e+01
  +1.00204056476e+01
  +1.00180002337e+01
  +1.00155454183e+01
  +1.00130412776e+01
  +1.00104878899e+01
  +1.00078853345e+01
  +1.00052336923e+01
  +1.00025330457e+01
  +9.99978347865e+00
  +9.99698507638e+00
  +9.99413792565e+00
  +9.99124211466e+00
  +9.98829773305e+00
  +9.98530487188e+00
  +9.98226362363e+00
  +9.97917408219e+00
  +9.97603634288e+00
  +9.97285050241e+00
  +9.96961665888e+00
  +9.96633491179e+00
  +9.96300536200e+00
  +9.95962811179e+00
  +9.95620326475e+00
  +9.95273092587e+00
  +9.94921120147e+00
  +9.94564419924e+00
  +9.94203002818e+00
  +9.93836879863e+00
  +9.93466062227e+00
  +9.93090561206e+00
  +9.92710388229e+00
  +9.92325554855e+00
  +9.91936072771e+00
  +9.91541953793e+00
  +9.91143209863e+00
  +9.90739853052e+00
  +9.90331895554e+00
  +9.89919349691e+00
  +9.89502227906e+00
  +9.89080542767e+00
  +9.88654306964e+00
  +9.88223533309e+00
  +9.87788234733e+00
  +9.87348424290e+00
  +9.86904115149e+00
  +9.86455320599e+00
  +9.86002054046e+00
  +9.85544329013e+00
  +9.85082159135e+00
  +9.84615558166e+00
  +9.84144539970e+00
  +9.83669118525e+00
  +9.83189307919e+00
  +9.82705122353e+00
  +9.82216576136e+00
  +9.81723683686e+00
  +9.81226459529e+00
  +9.80724918298e+00
  +9.80219074732e+00
  +9.79708943674e+00
  +9.79194540072e+00
  +9.78675878976e+00
  +9.78152975539e+00
  +9.77625845014e+00
  +9.77094502755e+00
  +9.76558964215e+00
  +9.76019244943e+00
  +9.75475360588e+00
  +9.74927326892e+00
  +9.74375159695e+00
  +9.73818874929e+00
  +9.73258488620e+00
  +9.72694016885e+00
  +9.72125475933e+00
  +9.71552882062e+00
  +9.70976251659e+00
  +9.70395601201e+00
  +9.69810947248e+00
  +9.69222306449e+00
  +9.68629695537e+00
  +9.68033131328e+00
  +9.67432630721e+00
  +9.66828210697e+00
  +9.66219888317e+00
  +9.65607680723e+00
  +9.64991605135e+00
  +9.64371678848e+00
  +9.63747919238e+00
  +9.63120343753e+00
  +9.62488969916e+00
  +9.61853815323e+00
  +9.61214897645e+00
  +9.60572234620e+00
  +9.59925844059e+00
  +9.59275743841e+00
  +9.58621951914e+00
  +9.57964486292e+00
  +9.57303365054e+00
  +9.56638606347e+00
  +9.55970228378e+00
  +9.55298249421e+00
  +9.54622687806e+00
  +9.53943561930e+00
  +9.53260890245e+00
  +9.52574691263e+00
  +9.51884983554e+00
  +9.51191785744e+00
  +9.50495116515e+00
  +9.49794994601e+00
  +9.49091438792e+00
  +9.48384467929e+00
  +9.47674100905e+00
  +9.46960356661e+00
  +9.46243254190e+00
  +9.45522812531e+00
  +9.44799050770e+00
  +9.44071988041e+00
  +9.43341643520e+00
  +9.42608036429e+00
  +9.41871186032e+00
  +9.41131111636e+00
  +9.40387832586e+00
  +9.39641368271e+00
  +9.38891738114e+00
  +9.38138961579e+00
  +9.37383058166e+00
  +9.36624047410e+00
  +9.35861948881e+00
  +9.35096782183e+00
  +9.34328566951e+00
  +9.33557322855e+00
  +9.32783069593e+00
  +9.32005826893e+00
  +9.31225614511e+00
  +9.30442452232e+00
  +9.29656359868e+00
  +9.28867357255e+00
  +9.28075464254e+00
  +9.27280700751e+00
  +9.26483086653e+00
  +9.25682641890e+00
  +9.24879386413e+00
  +9.24073340192e+00
