<Qucs Dataset 0.0.6>
<indep frequency 191>
  +1.00000000000e+09
  +1.10000000000e+09
  +1.20000000000e+09
  +1.30000000000e+09
  +1.40000000000e+09
  +1.50000000000e+09
  +1.60000000000e+09
  +1.70000000000e+09
  +1.80000000000e+09
  +1.90000000000e+09
  +2.00000000000e+09
  +2.10000000000e+09
  +2.20000000000e+09
  +2.30000000000e+09
  +2.40000000000e+09
  +2.50000000000e+09
  +2.60000000000e+09
  +2.70000000000e+09
  +2.80000000000e+09
  +2.90000000000e+09
  +3.00000000000e+09
  +3.10000000000e+09
  +3.20000000000e+09
  +3.30000000000e+09
  +3.40000000000e+09
  +3.50000000000e+09
  +3.60000000000e+09
  +3.70000000000e+09
  +3.80000000000e+09
  +3.90000000000e+09
  +4.00000000000e+09
  +4.10000000000e+09
  +4.20000000000e+09
  +4.30000000000e+09
  +4.40000000000e+09
  +4.50000000000e+09
  +4.60000000000e+09
  +4.70000000000e+09
  +4.80000000000e+09
  +4.90000000000e+09
  +5.00000000000e+09
  +5.10000000000e+09
  +5.20000000000e+09
  +5.30000000000e+09
  +5.40000000000e+09
  +5.50000000000e+09
  +5.60000000000e+09
  +5.70000000000e+09
  +5.80000000000e+09
  +5.90000000000e+09
  +6.00000000000e+09
  +6.10000000000e+09
  +6.20000000000e+09
  +6.30000000000e+09
  +6.40000000000e+09
  +6.50000000000e+09
  +6.60000000000e+09
  +6.70000000000e+09
  +6.80000000000e+09
  +6.90000000000e+09
  +7.00000000000e+09
  +7.10000000000e+09
  +7.20000000000e+09
  +7.30000000000e+09
  +7.40000000000e+09
  +7.50000000000e+09
  +7.60000000000e+09
  +7.70000000000e+09
  +7.80000000000e+09
  +7.90000000000e+09
  +8.00000000000e+09
  +8.10000000000e+09
  +8.20000000000e+09
  +8.30000000000e+09
  +8.40000000000e+09
  +8.50000000000e+09
  +8.60000000000e+09
  +8.70000000000e+09
  +8.80000000000e+09
  +8.90000000000e+09
  +9.00000000000e+09
  +9.10000000000e+09
  +9.20000000000e+09
  +9.30000000000e+09
  +9.40000000000e+09
  +9.50000000000e+09
  +9.60000000000e+09
  +9.70000000000e+09
  +9.80000000000e+09
  +9.90000000000e+09
  +1.00000000000e+10
  +1.01000000000e+10
  +1.02000000000e+10
  +1.03000000000e+10
  +1.04000000000e+10
  +1.05000000000e+10
  +1.06000000000e+10
  +1.07000000000e+10
  +1.08000000000e+10
  +1.09000000000e+10
  +1.10000000000e+10
  +1.11000000000e+10
  +1.12000000000e+10
  +1.13000000000e+10
  +1.14000000000e+10
  +1.15000000000e+10
  +1.16000000000e+10
  +1.17000000000e+10
  +1.18000000000e+10
  +1.19000000000e+10
  +1.20000000000e+10
  +1.21000000000e+10
  +1.22000000000e+10
  +1.23000000000e+10
  +1.24000000000e+10
  +1.25000000000e+10
  +1.26000000000e+10
  +1.27000000000e+10
  +1.28000000000e+10
  +1.29000000000e+10
  +1.30000000000e+10
  +1.31000000000e+10
  +1.32000000000e+10
  +1.33000000000e+10
  +1.34000000000e+10
  +1.35000000000e+10
  +1.36000000000e+10
  +1.37000000000e+10
  +1.38000000000e+10
  +1.39000000000e+10
  +1.40000000000e+10
  +1.41000000000e+10
  +1.42000000000e+10
  +1.43000000000e+10
  +1.44000000000e+10
  +1.45000000000e+10
  +1.46000000000e+10
  +1.47000000000e+10
  +1.48000000000e+10
  +1.49000000000e+10
  +1.50000000000e+10
  +1.51000000000e+10
  +1.52000000000e+10
  +1.53000000000e+10
  +1.54000000000e+10
  +1.55000000000e+10
  +1.56000000000e+10
  +1.57000000000e+10
  +1.58000000000e+10
  +1.59000000000e+10
  +1.60000000000e+10
  +1.61000000000e+10
  +1.62000000000e+10
  +1.63000000000e+10
  +1.64000000000e+10
  +1.65000000000e+10
  +1.66000000000e+10
  +1.67000000000e+10
  +1.68000000000e+10
  +1.69000000000e+10
  +1.70000000000e+10
  +1.71000000000e+10
  +1.72000000000e+10
  +1.73000000000e+10
  +1.74000000000e+10
  +1.75000000000e+10
  +1.76000000000e+10
  +1.77000000000e+10
  +1.78000000000e+10
  +1.79000000000e+10
  +1.80000000000e+10
  +1.81000000000e+10
  +1.82000000000e+10
  +1.83000000000e+10
  +1.84000000000e+10
  +1.85000000000e+10
  +1.86000000000e+10
  +1.87000000000e+10
  +1.88000000000e+10
  +1.89000000000e+10
  +1.90000000000e+10
  +1.91000000000e+10
  +1.92000000000e+10
  +1.93000000000e+10
  +1.94000000000e+10
  +1.95000000000e+10
  +1.96000000000e+10
  +1.97000000000e+10
  +1.98000000000e+10
  +1.99000000000e+10
  +2.00000000000e+10
</indep>
<dep dB_S21 frequency>
  -6.30942443287e+01
  -5.97523787692e+01
  -5.66958483613e+01
  -5.38784370860e+01
  -5.12642155649e+01
  -4.88246968864e+01
  -4.65369121192e+01
  -4.43820702351e+01
  -4.23446016335e+01
  -4.04114606160e+01
  -3.85716070017e+01
  -3.68156143755e+01
  -3.51353695869e+01
  -3.35238391439e+01
  -3.19748854093e+01
  -3.04831204039e+01
  -2.90437883691e+01
  -2.76526705863e+01
  -2.63060076119e+01
  -2.50004352755e+01
  -2.37329316656e+01
  -2.25007729658e+01
  -2.13014964871e+01
  -2.01328696044e+01
  -1.89928635822e+01
  -1.78796314916e+01
  -1.67914895858e+01
  -1.57269016356e+01
  -1.46844658338e+01
  -1.36629039624e+01
  -1.26610525896e+01
  -1.16778561227e+01
  -1.07123615959e+01
  -9.76371511206e+00
  -8.83115990016e+00
  -7.91403597881e+00
  -7.01178144313e+00
  -6.12393541182e+00
  -5.25014268032e+00
  -4.39016012248e+00
  -3.54386486257e+00
  -2.71126419335e+00
  -1.89250713743e+00
  -1.08789742640e+00
  -2.97907494639e-01
  +4.76807160215e-01
  +1.23539421728e+00
  +1.97679273536e+00
  +2.69972513684e+00
  +3.40269526947e+00
  +4.08399527228e+00
  +4.74172423863e+00
  +5.37382161922e+00
  +5.97811776190e+00
  +6.55240277853e+00
  +7.09451298156e+00
  +7.60243152426e+00
  +8.07439692851e+00
  +8.50901045735e+00
  +8.90533151572e+00
  +9.26295012735e+00
  +9.58202742304e+00
  +9.86329884271e+00
  +1.01080396944e+01
  +1.03179977349e+01
  +1.04953014216e+01
  +1.06423546555e+01
  +1.07617289669e+01
  +1.08560625154e+01
  +1.09279726335e+01
  +1.09799856884e+01
  +1.10144853539e+01
  +1.10336783390e+01
  +1.10395753109e+01
  +1.10339841230e+01
  +1.10185123534e+01
  +1.09945763911e+01
  +1.09634147249e+01
  +1.09261035700e+01
  +1.08835734291e+01
  +1.08366255951e+01
  +1.07859479343e+01
  +1.07321295467e+01
  +1.06756740938e+01
  +1.06170117153e+01
  +1.05565095480e+01
  +1.04944809194e+01
  +1.04311933155e+01
  +1.03668752445e+01
  +1.03017221170e+01
  +1.02359012638e+01
  +1.01695562025e+01
  +1.01028102567e+01
  +1.00357696187e+01
  +9.96852593806e+00
  +9.90115850597e+00
  +9.83373609717e+00
  +9.76631852262e+00
  +9.69895793771e+00
  +9.63169994469e+00
  +9.56458452190e+00
  +9.49764680745e+00
  +9.43091776071e+00
  +9.36442472123e+00
  +9.29819188164e+00
  +9.23224068832e+00
  +9.16659018165e+00
  +9.10125728543e+00
  +9.03625705381e+00
  +8.97160288236e+00
  +8.90730668926e+00
  +8.84337907121e+00
  +8.77982943809e+00
  +8.71666612983e+00
  +8.65389651815e+00
  +8.59152709554e+00
  +8.52956355352e+00
  +8.46801085171e+00
  +8.40687327908e+00
  +8.34615450862e+00
  +8.28585764626e+00
  +8.22598527493e+00
  +8.16653949440e+00
  +8.10752195741e+00
  +8.04893390272e+00
  +7.99077618525e+00
  +7.93304930388e+00
  +7.87575342700e+00
  +7.81888841620e+00
  +7.76245384818e+00
  +7.70644903518e+00
  +7.65087304395e+00
  +7.59572471350e+00
  +7.54100267167e+00
  +7.48670535066e+00
  +7.43283100157e+00
  +7.37937770803e+00
  +7.32634339905e+00
  +7.27372586102e+00
  +7.22152274905e+00
  +7.16973159758e+00
  +7.11834983043e+00
  +7.06737477016e+00
  +7.01680364693e+00
  +6.96663360685e+00
  +6.91686171979e+00
  +6.86748498672e+00
  +6.81850034665e+00
  +6.76990468313e+00
  +6.72169483031e+00
  +6.67386757872e+00
  +6.62641968064e+00
  +6.57934785509e+00
  +6.53264879260e+00
  +6.48631915964e+00
  +6.44035560273e+00
  +6.39475475233e+00
  +6.34951322646e+00
  +6.30462763410e+00
  +6.26009457831e+00
  +6.21591065922e+00
  +6.17207247673e+00
  +6.12857663307e+00
  +6.08541973519e+00
  +6.04259839695e+00
  +6.00010924115e+00
  +5.95794890144e+00
  +5.91611402406e+00
  +5.87460126944e+00
  +5.83340731373e+00
  +5.79252885013e+00
  +5.75196259015e+00
  +5.71170526480e+00
  +5.67175362560e+00
  +5.63210444557e+00
  +5.59275452010e+00
  +5.55370066772e+00
  +5.51493973087e+00
  +5.47646857648e+00
  +5.43828409658e+00
  +5.40038320883e+00
  +5.36276285694e+00
  +5.32542001109e+00
  +5.28835166827e+00
  +5.25155485259e+00
  +5.21502661552e+00
  +5.17876403611e+00
  +5.14276422115e+00
  +5.10702430535e+00
  +5.07154145139e+00
  +5.03631285000e+00
</dep>
<dep StabFact frequency>
  +1.09087111936e+00
  +1.08888671239e+00
  +1.08660108845e+00
  +1.08407902120e+00
  +1.08137071958e+00
  +1.07851725494e+00
  +1.07555363294e+00
  +1.07251057048e+00
  +1.06941555342e+00
  +1.06629347680e+00
  +1.06316704279e+00
  +1.06005701171e+00
  +1.05698236866e+00
  +1.05396044037e+00
  +1.05100698392e+00
  +1.04813626069e+00
  +1.04536110353e+00
  +1.04269298153e+00
  +1.04014206471e+00
  +1.03771728993e+00
  +1.03542642804e+00
  +1.03327615237e+00
  +1.03127210771e+00
  +1.02941897951e+00
  +1.02772056251e+00
  +1.02617982817e+00
  +1.02479899054e+00
  +1.02357956984e+00
  +1.02252245371e+00
  +1.02162795545e+00
  +1.02089586941e+00
  +1.02032552312e+00
  +1.01991582622e+00
  +1.01966531614e+00
  +1.01957220054e+00
  +1.01963439657e+00
  +1.01984956710e+00
  +1.02021515392e+00
  +1.02072840821e+00
  +1.02138641825e+00
  +1.02218613464e+00
  +1.02312439315e+00
  +1.02419793539e+00
  +1.02540342731e+00
  +1.02673747594e+00
  +1.02819664431e+00
  +1.02977746468e+00
  +1.03147645042e+00
  +1.03329010646e+00
  +1.03521493849e+00
  +1.03724746106e+00
  +1.03938420467e+00
  +1.04162172191e+00
  +1.04395659278e+00
  +1.04638542926e+00
  +1.04890487918e+00
  +1.05151162949e+00
  +1.05420240902e+00
  +1.05697399073e+00
  +1.05982319348e+00
  +1.06274688350e+00
  +1.06574197549e+00
  +1.06880543336e+00
  +1.07193427080e+00
  +1.07512555154e+00
  +1.07837638945e+00
  +1.08168394845e+00
  +1.08504544228e+00
  +1.08845813408e+00
  +1.09191933597e+00
  +1.09542640841e+00
  +1.09897675956e+00
  +1.10256784455e+00
  +1.10619716470e+00
  +1.10986226669e+00
  +1.11356074171e+00
  +1.11729022456e+00
  +1.12104839275e+00
  +1.12483296562e+00
  +1.12864170337e+00
  +1.13247240621e+00
  +1.13632291339e+00
  +1.14019110235e+00
  +1.14407488780e+00
  +1.14797222086e+00
  +1.15188108822e+00
  +1.15579951131e+00
  +1.15972554544e+00
  +1.16365727911e+00
  +1.16759283315e+00
  +1.17153036009e+00
  +1.17546804335e+00
  +1.17940409666e+00
  +1.18333676336e+00
  +1.18726431578e+00
  +1.19118505468e+00
  +1.19509730867e+00
  +1.19899943369e+00
  +1.20288981251e+00
  +1.20676685423e+00
  +1.21062899388e+00
  +1.21447469200e+00
  +1.21830243421e+00
  +1.22211073090e+00
  +1.22589811688e+00
  +1.22966315106e+00
  +1.23340441619e+00
  +1.23712051861e+00
  +1.24081008799e+00
  +1.24447177716e+00
  +1.24810426190e+00
  +1.25170624080e+00
  +1.25527643509e+00
  +1.25881358857e+00
  +1.26231646748e+00
  +1.26578386040e+00
  +1.26921457825e+00
  +1.27260745420e+00
  +1.27596134366e+00
  +1.27927512426e+00
  +1.28254769589e+00
  +1.28577798067e+00
  +1.28896492302e+00
  +1.29210748969e+00
  +1.29520466982e+00
  +1.29825547502e+00
  +1.30125893942e+00
  +1.30421411978e+00
  +1.30712009560e+00
  +1.30997596917e+00
  +1.31278086575e+00
  +1.31553393360e+00
  +1.31823434419e+00
  +1.32088129225e+00
  +1.32347399594e+00
  +1.32601169695e+00
  +1.32849366066e+00
  +1.33091917623e+00
  +1.33328755677e+00
  +1.33559813944e+00
  +1.33785028559e+00
  +1.34004338088e+00
  +1.34217683540e+00
  +1.34425008379e+00
  +1.34626258533e+00
  +1.34821382407e+00
  +1.35010330894e+00
  +1.35193057379e+00
  +1.35369517753e+00
  +1.35539670416e+00
  +1.35703476288e+00
  +1.35860898811e+00
  +1.36011903956e+00
  +1.36156460225e+00
  +1.36294538654e+00
  +1.36426112816e+00
  +1.36551158819e+00
  +1.36669655307e+00
  +1.36781583454e+00
  +1.36886926964e+00
  +1.36985672066e+00
  +1.37077807504e+00
  +1.37163324533e+00
  +1.37242216908e+00
  +1.37314480873e+00
  +1.37380115150e+00
  +1.37439120924e+00
  +1.37491501830e+00
  +1.37537263935e+00
  +1.37576415719e+00
  +1.37608968058e+00
  +1.37634934202e+00
  +1.37654329751e+00
  +1.37667172633e+00
  +1.37673483077e+00
  +1.37673283588e+00
  +1.37666598920e+00
  +1.37653456040e+00
  +1.37633884104e+00
  +1.37607914423e+00
  +1.37575580428e+00
  +1.37536917634e+00
  +1.37491963609e+00
  +1.37440757930e+00
  +1.37383342151e+00
  +1.37319759760e+00
  +1.37250056139e+00
  +1.37174278521e+00
  +1.37092475953e+00
  +1.37004699245e+00
  +1.36911000931e+00
</dep>
<dep NF frequency>
  +3.01523222268e+01
  +2.84886274758e+01
  +2.69687754869e+01
  +2.55698262686e+01
  +2.42739931861e+01
  +2.30672228225e+01
  +2.19382338572e+01
  +2.08778476444e+01
  +1.98785102400e+01
  +1.89339436255e+01
  +1.80388862504e+01
  +1.71888966449e+01
  +1.63802024045e+01
  +1.56095823538e+01
  +1.48742733276e+01
  +1.41718954541e+01
  +1.35003915043e+01
  +1.28579770493e+01
  +1.22430990013e+01
  +1.16544007215e+01
  +1.10906923246e+01
  +1.05509251378e+01
  +1.00341695286e+01
  +9.53959550425e+00
  +9.06645563636e+00
  +8.61406997846e+00
  +8.18181273380e+00
  +7.76910049753e+00
  +7.37538194814e+00
  +7.00012889828e+00
  +6.64282863771e+00
  +6.30297751382e+00
  +5.98007569833e+00
  +5.67362308608e+00
  +5.38311626375e+00
  +5.10804647528e+00
  +4.84789849890e+00
  +4.60215033909e+00
  +4.37027362691e+00
  +4.15173461532e+00
  +3.94599565274e+00
  +3.75251701860e+00
  +3.57075900856e+00
  +3.40018416473e+00
  +3.24025955658e+00
  +3.09045903018e+00
  +2.95026535711e+00
  +2.81917222845e+00
  +2.69668605274e+00
  +2.58232752995e+00
  +2.47563298531e+00
  +2.37615545674e+00
  +2.28346553868e+00
  +2.19715199150e+00
  +2.11682213129e+00
  +2.04210201820e+00
  +1.97263646407e+00
  +1.90808888123e+00
  +1.84814099459e+00
  +1.79249243867e+00
  +1.74086026021e+00
  +1.69297834548e+00
  +1.64859678991e+00
  +1.60748122561e+00
  +1.56941212062e+00
  +1.53418406194e+00
  +1.50160503249e+00
  +1.47149569057e+00
  +1.44368865894e+00
  +1.41802782920e+00
  +1.39436768601e+00
  +1.37257265449e+00
  +1.35251647347e+00
  +1.33408159632e+00
  +1.31715862029e+00
  +1.30164574520e+00
  +1.28744826135e+00
  +1.27447806642e+00
  +1.26265321099e+00
  +1.25189747168e+00
  +1.24213995110e+00
  +1.23331470356e+00
  +1.22536038534e+00
  +1.21821992832e+00
  +1.21184023586e+00
  +1.20617189955e+00
  +1.20116893570e+00
  +1.19678854042e+00
  +1.19299086197e+00
  +1.18973878948e+00
  +1.18699775683e+00
  +1.18473556062e+00
  +1.18292219146e+00
  +1.18152967746e+00
  +1.18053193915e+00
  +1.17990465502e+00
  +1.17962513690e+00
  +1.17967221445e+00
  +1.18002612811e+00
  +1.18066842991e+00
  +1.18158189152e+00
  +1.18275041905e+00
  +1.18415897403e+00
  +1.18579350018e+00
  +1.18764085551e+00
  +1.18968874934e+00
  +1.19192568388e+00
  +1.19434090002e+00
  +1.19692432710e+00
  +1.19966653616e+00
  +1.20255869664e+00
  +1.20559253615e+00
  +1.20876030308e+00
  +1.21205473187e+00
  +1.21546901073e+00
  +1.21899675165e+00
  +1.22263196252e+00
  +1.22636902114e+00
  +1.23020265108e+00
  +1.23412789924e+00
  +1.23814011492e+00
  +1.24223493032e+00
  +1.24640824238e+00
  +1.25065619593e+00
  +1.25497516785e+00
  +1.25936175243e+00
  +1.26381274763e+00
  +1.26832514230e+00
  +1.27289610426e+00
  +1.27752296910e+00
  +1.28220322986e+00
  +1.28693452724e+00
  +1.29171464055e+00
  +1.29654147919e+00
  +1.30141307477e+00
  +1.30632757363e+00
  +1.31128322992e+00
  +1.31627839910e+00
  +1.32131153184e+00
  +1.32638116837e+00
  +1.33148593308e+00
  +1.33662452958e+00
  +1.34179573596e+00
  +1.34699840046e+00
  +1.35223143731e+00
  +1.35749382287e+00
  +1.36278459203e+00
  +1.36810283479e+00
  +1.37344769307e+00
  +1.37881835772e+00
  +1.38421406570e+00
  +1.38963409746e+00
  +1.39507777439e+00
  +1.40054445657e+00
  +1.40603354051e+00
  +1.41154445711e+00
  +1.41707666970e+00
  +1.42262967226e+00
  +1.42820298763e+00
  +1.43379616595e+00
  +1.43940878311e+00
  +1.44504043931e+00
  +1.45069075771e+00
  +1.45635938318e+00
  +1.46204598105e+00
  +1.46775023603e+00
  +1.47347185111e+00
  +1.47921054655e+00
  +1.48496605896e+00
  +1.49073814038e+00
  +1.49652655743e+00
  +1.50233109054e+00
  +1.50815153314e+00
  +1.51398769103e+00
  +1.51983938163e+00
  +1.52570643339e+00
  +1.53158868516e+00
  +1.53748598566e+00
  +1.54339819291e+00
  +1.54932517373e+00
  +1.55526680326e+00
  +1.56122296451e+00
  +1.56719354794e+00
  +1.57317845102e+00
  +1.57917757789e+00
  +1.58519083894e+00
  +1.59121815052e+00
  +1.59725943456e+00
  +1.60331461832e+00
  +1.60938363403e+00
  +1.61546641865e+00
</dep>
<dep NFmin frequency>
  +9.80542982715e-01
  +9.81565936713e-01
  +9.82480403252e-01
  +9.83329410827e-01
  +9.84141233406e-01
  +9.84935049280e-01
  +9.85724213832e-01
  +9.86518241647e-01
  +9.87324040863e-01
  +9.88146707855e-01
  +9.88990052833e-01
  +9.89856954812e-01
  +9.90749606889e-01
  +9.91669688808e-01
  +9.92618490495e-01
  +9.93597001836e-01
  +9.94605978865e-01
  +9.95645993224e-01
  +9.96717469555e-01
  +9.97820714090e-01
  +9.98955936744e-01
  +1.00012326836e+00
  +1.00132277428e+00
  +1.00255446517e+00
  +1.00381830563e+00
  +1.00511422123e+00
  +1.00644210419e+00
  +1.00780181805e+00
  +1.00919320154e+00
  +1.01061607180e+00
  +1.01207022709e+00
  +1.01355544909e+00
  +1.01507150479e+00
  +1.01661814821e+00
  +1.01819512184e+00
  +1.01980215782e+00
  +1.02143897911e+00
  +1.02310530042e+00
  +1.02480082905e+00
  +1.02652526566e+00
  +1.02827830496e+00
  +1.03005963630e+00
  +1.03186894425e+00
  +1.03370590910e+00
  +1.03557020731e+00
  +1.03746151194e+00
  +1.03937949309e+00
  +1.04132381821e+00
  +1.04329415245e+00
  +1.04529015901e+00
  +1.04731149944e+00
  +1.04935783388e+00
  +1.05142882134e+00
  +1.05352412000e+00
  +1.05564338739e+00
  +1.05778628062e+00
  +1.05995245662e+00
  +1.06214157235e+00
  +1.06435328495e+00
  +1.06658725195e+00
  +1.06884313146e+00
  +1.07112058230e+00
  +1.07341926421e+00
  +1.07573883795e+00
  +1.07807896547e+00
  +1.08043931007e+00
  +1.08281953647e+00
  +1.08521931101e+00
  +1.08763830171e+00
  +1.09007617843e+00
  +1.09253261295e+00
  +1.09500727907e+00
  +1.09749985274e+00
  +1.10001001210e+00
  +1.10253743764e+00
  +1.10508181223e+00
  +1.10764282120e+00
  +1.11022015244e+00
  +1.11281349647e+00
  +1.11542254649e+00
  +1.11804699843e+00
  +1.12068655106e+00
  +1.12334090599e+00
  +1.12600976776e+00
  +1.12869284386e+00
  +1.13138984478e+00
  +1.13410048407e+00
  +1.13682447838e+00
  +1.13956154744e+00
  +1.14231141416e+00
  +1.14507380463e+00
  +1.14784844814e+00
  +1.15063507720e+00
  +1.15343342758e+00
  +1.15624323832e+00
  +1.15906425175e+00
  +1.16189621347e+00
  +1.16473887242e+00
  +1.16759198083e+00
  +1.17045529427e+00
  +1.17332857164e+00
  +1.17621157514e+00
  +1.17910407035e+00
  +1.18200582612e+00
  +1.18491661469e+00
  +1.18783621157e+00
  +1.19076439561e+00
  +1.19370094896e+00
  +1.19664565708e+00
  +1.19959830871e+00
  +1.20255869587e+00
  +1.20552661383e+00
  +1.20850186113e+00
  +1.21148423952e+00
  +1.21447355398e+00
  +1.21746961269e+00
  +1.22047222699e+00
  +1.22348121142e+00
  +1.22649638360e+00
  +1.22951756432e+00
  +1.23254457744e+00
  +1.23557724989e+00
  +1.23861541166e+00
  +1.24165889574e+00
  +1.24470753814e+00
  +1.24776117784e+00
  +1.25081965676e+00
  +1.25388281972e+00
  +1.25695051447e+00
  +1.26002259158e+00
  +1.26309890449e+00
  +1.26617930943e+00
  +1.26926366540e+00
  +1.27235183416e+00
  +1.27544368018e+00
  +1.27853907062e+00
  +1.28163787531e+00
  +1.28473996667e+00
  +1.28784521975e+00
  +1.29095351216e+00
  +1.29406472403e+00
  +1.29717873800e+00
  +1.30029543918e+00
  +1.30341471513e+00
  +1.30653645581e+00
  +1.30966055355e+00
  +1.31278690304e+00
  +1.31591540127e+00
  +1.31904594752e+00
  +1.32217844332e+00
  +1.32531279241e+00
  +1.32844890074e+00
  +1.33158667639e+00
  +1.33472602957e+00
  +1.33786687260e+00
  +1.34100911985e+00
  +1.34415268771e+00
  +1.34729749459e+00
  +1.35044346084e+00
  +1.35359050879e+00
  +1.35673856264e+00
  +1.35988754847e+00
  +1.36303739423e+00
  +1.36618802966e+00
  +1.36933938630e+00
  +1.37249139744e+00
  +1.37564399809e+00
  +1.37879712496e+00
  +1.38195071644e+00
  +1.38510471254e+00
  +1.38825905488e+00
  +1.39141368666e+00
  +1.39456855264e+00
  +1.39772359910e+00
  +1.40087877379e+00
  +1.40403402597e+00
  +1.40718930630e+00
  +1.41034456686e+00
  +1.41349976113e+00
  +1.41665484392e+00
