<Qucs Dataset 0.0.6>
<indep frequency 191>
  +1.00000000000e+09
  +1.10000000000e+09
  +1.20000000000e+09
  +1.30000000000e+09
  +1.40000000000e+09
  +1.50000000000e+09
  +1.60000000000e+09
  +1.70000000000e+09
  +1.80000000000e+09
  +1.90000000000e+09
  +2.00000000000e+09
  +2.10000000000e+09
  +2.20000000000e+09
  +2.30000000000e+09
  +2.40000000000e+09
  +2.50000000000e+09
  +2.60000000000e+09
  +2.70000000000e+09
  +2.80000000000e+09
  +2.90000000000e+09
  +3.00000000000e+09
  +3.10000000000e+09
  +3.20000000000e+09
  +3.30000000000e+09
  +3.40000000000e+09
  +3.50000000000e+09
  +3.60000000000e+09
  +3.70000000000e+09
  +3.80000000000e+09
  +3.90000000000e+09
  +4.00000000000e+09
  +4.10000000000e+09
  +4.20000000000e+09
  +4.30000000000e+09
  +4.40000000000e+09
  +4.50000000000e+09
  +4.60000000000e+09
  +4.70000000000e+09
  +4.80000000000e+09
  +4.90000000000e+09
  +5.00000000000e+09
  +5.10000000000e+09
  +5.20000000000e+09
  +5.30000000000e+09
  +5.40000000000e+09
  +5.50000000000e+09
  +5.60000000000e+09
  +5.70000000000e+09
  +5.80000000000e+09
  +5.90000000000e+09
  +6.00000000000e+09
  +6.10000000000e+09
  +6.20000000000e+09
  +6.30000000000e+09
  +6.40000000000e+09
  +6.50000000000e+09
  +6.60000000000e+09
  +6.70000000000e+09
  +6.80000000000e+09
  +6.90000000000e+09
  +7.00000000000e+09
  +7.10000000000e+09
  +7.20000000000e+09
  +7.30000000000e+09
  +7.40000000000e+09
  +7.50000000000e+09
  +7.60000000000e+09
  +7.70000000000e+09
  +7.80000000000e+09
  +7.90000000000e+09
  +8.00000000000e+09
  +8.10000000000e+09
  +8.20000000000e+09
  +8.30000000000e+09
  +8.40000000000e+09
  +8.50000000000e+09
  +8.60000000000e+09
  +8.70000000000e+09
  +8.80000000000e+09
  +8.90000000000e+09
  +9.00000000000e+09
  +9.10000000000e+09
  +9.20000000000e+09
  +9.30000000000e+09
  +9.40000000000e+09
  +9.50000000000e+09
  +9.60000000000e+09
  +9.70000000000e+09
  +9.80000000000e+09
  +9.90000000000e+09
  +1.00000000000e+10
  +1.01000000000e+10
  +1.02000000000e+10
  +1.03000000000e+10
  +1.04000000000e+10
  +1.05000000000e+10
  +1.06000000000e+10
  +1.07000000000e+10
  +1.08000000000e+10
  +1.09000000000e+10
  +1.10000000000e+10
  +1.11000000000e+10
  +1.12000000000e+10
  +1.13000000000e+10
  +1.14000000000e+10
  +1.15000000000e+10
  +1.16000000000e+10
  +1.17000000000e+10
  +1.18000000000e+10
  +1.19000000000e+10
  +1.20000000000e+10
  +1.21000000000e+10
  +1.22000000000e+10
  +1.23000000000e+10
  +1.24000000000e+10
  +1.25000000000e+10
  +1.26000000000e+10
  +1.27000000000e+10
  +1.28000000000e+10
  +1.29000000000e+10
  +1.30000000000e+10
  +1.31000000000e+10
  +1.32000000000e+10
  +1.33000000000e+10
  +1.34000000000e+10
  +1.35000000000e+10
  +1.36000000000e+10
  +1.37000000000e+10
  +1.38000000000e+10
  +1.39000000000e+10
  +1.40000000000e+10
  +1.41000000000e+10
  +1.42000000000e+10
  +1.43000000000e+10
  +1.44000000000e+10
  +1.45000000000e+10
  +1.46000000000e+10
  +1.47000000000e+10
  +1.48000000000e+10
  +1.49000000000e+10
  +1.50000000000e+10
  +1.51000000000e+10
  +1.52000000000e+10
  +1.53000000000e+10
  +1.54000000000e+10
  +1.55000000000e+10
  +1.56000000000e+10
  +1.57000000000e+10
  +1.58000000000e+10
  +1.59000000000e+10
  +1.60000000000e+10
  +1.61000000000e+10
  +1.62000000000e+10
  +1.63000000000e+10
  +1.64000000000e+10
  +1.65000000000e+10
  +1.66000000000e+10
  +1.67000000000e+10
  +1.68000000000e+10
  +1.69000000000e+10
  +1.70000000000e+10
  +1.71000000000e+10
  +1.72000000000e+10
  +1.73000000000e+10
  +1.74000000000e+10
  +1.75000000000e+10
  +1.76000000000e+10
  +1.77000000000e+10
  +1.78000000000e+10
  +1.79000000000e+10
  +1.80000000000e+10
  +1.81000000000e+10
  +1.82000000000e+10
  +1.83000000000e+10
  +1.84000000000e+10
  +1.85000000000e+10
  +1.86000000000e+10
  +1.87000000000e+10
  +1.88000000000e+10
  +1.89000000000e+10
  +1.90000000000e+10
  +1.91000000000e+10
  +1.92000000000e+10
  +1.93000000000e+10
  +1.94000000000e+10
  +1.95000000000e+10
  +1.96000000000e+10
  +1.97000000000e+10
  +1.98000000000e+10
  +1.99000000000e+10
  +2.00000000000e+10
</indep>
<dep dB_S21 frequency>
  +1.22431196893e+01
  +1.22272489425e+01
  +1.22105174007e+01
  +1.21928158444e+01
  +1.21740786794e+01
  +1.21542675898e+01
  +1.21333620328e+01
  +1.21113534798e+01
  +1.20882417976e+01
  +1.20640328985e+01
  +1.20387371673e+01
  +1.20123683783e+01
  +1.19849429286e+01
  +1.19564792809e+01
  +1.19269975478e+01
  +1.18965191741e+01
  +1.18650666876e+01
  +1.18326634985e+01
  +1.17993337358e+01
  +1.17651021095e+01
  +1.17299937927e+01
  +1.16940343206e+01
  +1.16572495000e+01
  +1.16196653305e+01
  +1.15813079325e+01
  +1.15422034828e+01
  +1.15023781559e+01
  +1.14618580702e+01
  +1.14206692393e+01
  +1.13788375267e+01
  +1.13363886051e+01
  +1.12933479186e+01
  +1.12497406483e+01
  +1.12055916809e+01
  +1.11609255804e+01
  +1.11157665622e+01
  +1.10701384697e+01
  +1.10240647539e+01
  +1.09775684547e+01
  +1.09306721843e+01
  +1.08833981136e+01
  +1.08357679592e+01
  +1.07878029733e+01
  +1.07395239349e+01
  +1.06909511429e+01
  +1.06421044102e+01
  +1.05930030596e+01
  +1.05436659216e+01
  +1.04941113321e+01
  +1.04443571325e+01
  +1.03944206705e+01
  +1.03443188015e+01
  +1.02940678915e+01
  +1.02436838205e+01
  +1.01931819867e+01
  +1.01425773115e+01
  +1.00918842450e+01
  +1.00411167725e+01
  +9.99028842042e+00
  +9.93941226416e+00
  +9.88850093515e+00
  +9.83756662886e+00
  +9.78662111289e+00
  +9.73567573541e+00
  +9.68474143373e+00
  +9.63382874313e+00
  +9.58294780576e+00
  +9.53210837969e+00
  +9.48131984801e+00
  +9.43059122800e+00
  +9.37993118033e+00
  +9.32934801819e+00
  +9.27884971648e+00
  +9.22844392092e+00
  +9.17813795710e+00
  +9.12793883945e+00
  +9.07785328013e+00
  +9.02788769778e+00
  +8.97804822623e+00
  +8.92834072299e+00
  +8.87877077769e+00
  +8.82934372031e+00
  +8.78006462929e+00
  +8.73093833949e+00
  +8.68196945000e+00
  +8.63316233172e+00
  +8.58452113490e+00
  +8.53604979635e+00
  +8.48775204662e+00
  +8.43963141693e+00
  +8.39169124595e+00
  +8.34393468640e+00
  +8.29636471152e+00
  +8.24898412128e+00
  +8.20179554849e+00
  +8.15480146474e+00
  +8.10800418615e+00
  +8.06140587897e+00
  +8.01500856496e+00
  +7.96881412672e+00
  +7.92282431279e+00
  +7.87704074258e+00
  +7.83146491118e+00
  +7.78609819404e+00
  +7.74094185147e+00
  +7.69599703298e+00
  +7.65126478156e+00
  +7.60674603771e+00
  +7.56244164347e+00
  +7.51835234619e+00
  +7.47447880224e+00
  +7.43082158063e+00
  +7.38738116644e+00
  +7.34415796416e+00
  +7.30115230094e+00
  +7.25836442968e+00
  +7.21579453209e+00
  +7.17344272155e+00
  +7.13130904596e+00
  +7.08939349042e+00
  +7.04769597987e+00
  +7.00621638159e+00
  +6.96495450766e+00
  +6.92391011731e+00
  +6.88308291915e+00
  +6.84247257341e+00
  +6.80207869398e+00
  +6.76190085052e+00
  +6.72193857035e+00
  +6.68219134037e+00
  +6.64265860886e+00
  +6.60333978726e+00
  +6.56423425185e+00
  +6.52534134533e+00
  +6.48666037847e+00
  +6.44819063155e+00
  +6.40993135583e+00
  +6.37188177499e+00
  +6.33404108641e+00
  +6.29640846252e+00
  +6.25898305202e+00
  +6.22176398111e+00
  +6.18475035461e+00
  +6.14794125711e+00
  +6.11133575402e+00
  +6.07493289259e+00
  +6.03873170296e+00
  +6.00273119902e+00
  +5.96693037941e+00
  +5.93132822838e+00
  +5.89592371662e+00
  +5.86071580209e+00
  +5.82570343081e+00
  +5.79088553760e+00
  +5.75626104683e+00
  +5.72182887309e+00
  +5.68758792187e+00
  +5.65353709023e+00
  +5.61967526737e+00
  +5.58600133527e+00
  +5.55251416924e+00
  +5.51921263846e+00
  +5.48609560653e+00
  +5.45316193198e+00
  +5.42041046871e+00
  +5.38784006650e+00
  +5.35544957147e+00
  +5.32323782646e+00
  +5.29120367147e+00
  +5.25934594407e+00
  +5.22766347976e+00
  +5.19615511233e+00
  +5.16481967423e+00
  +5.13365599689e+00
  +5.10266291103e+00
  +5.07183924701e+00
  +5.04118383508e+00
  +5.01069550568e+00
  +4.98037308971e+00
  +4.95021541879e+00
  +4.92022132552e+00
  +4.89038964368e+00
  +4.86071920851e+00
  +4.83120885687e+00
  +4.80185742750e+00
  +4.77266376118e+00
  +4.74362670094e+00
  +4.71474509225e+00
  +4.68601778315e+00
  +4.65744362448e+00
  +4.62902146998e+00
</dep>
<dep StabFact frequency>
  +1.09677851643e+00
  +1.09505425949e+00
  +1.09302443338e+00
  +1.09075027217e+00
  +1.08827815183e+00
  +1.08564525917e+00
  +1.08288281227e+00
  +1.08001794770e+00
  +1.07707485317e+00
  +1.07407545990e+00
  +1.07103987207e+00
  +1.06798663681e+00
  +1.06493291689e+00
  +1.06189460397e+00
  +1.05888639631e+00
  +1.05592185550e+00
  +1.05301345187e+00
  +1.05017260413e+00
  +1.04740971699e+00
  +1.04473421864e+00
  +1.04215459929e+00
  +1.03967845115e+00
  +1.03731250996e+00
  +1.03506269785e+00
  +1.03293416719e+00
  +1.03093134512e+00
  +1.02905797818e+00
  +1.02731717687e+00
  +1.02571145953e+00
  +1.02424279542e+00
  +1.02291264651e+00
  +1.02172200795e+00
  +1.02067144689e+00
  +1.01976113957e+00
  +1.01899090656e+00
  +1.01836024608e+00
  +1.01786836542e+00
  +1.01751421031e+00
  +1.01729649248e+00
  +1.01721371527e+00
  +1.01726419735e+00
  +1.01744609472e+00
  +1.01775742101e+00
  +1.01819606607e+00
  +1.01875981311e+00
  +1.01944635428e+00
  +1.02025330498e+00
  +1.02117821678e+00
  +1.02221858921e+00
  +1.02337188036e+00
  +1.02463551653e+00
  +1.02600690081e+00
  +1.02748342086e+00
  +1.02906245582e+00
  +1.03074138245e+00
  +1.03251758065e+00
  +1.03438843825e+00
  +1.03635135531e+00
  +1.03840374784e+00
  +1.04054305103e+00
  +1.04276672208e+00
  +1.04507224263e+00
  +1.04745712079e+00
  +1.04991889289e+00
  +1.05245512490e+00
  +1.05506341365e+00
  +1.05774138771e+00
  +1.06048670817e+00
  +1.06329706916e+00
  +1.06617019820e+00
  +1.06910385645e+00
  +1.07209583877e+00
  +1.07514397373e+00
  +1.07824612340e+00
  +1.08140018321e+00
  +1.08460408157e+00
  +1.08785577956e+00
  +1.09115327043e+00
  +1.09449457916e+00
  +1.09787776195e+00
  +1.10130090560e+00
  +1.10476212696e+00
  +1.10825957230e+00
  +1.11179141669e+00
  +1.11535586333e+00
  +1.11895114291e+00
  +1.12257551294e+00
  +1.12622725707e+00
  +1.12990468445e+00
  +1.13360612906e+00
  +1.13732994904e+00
  +1.14107452602e+00
  +1.14483826454e+00
  +1.14861959135e+00
  +1.15241695484e+00
  +1.15622882439e+00
  +1.16005368983e+00
  +1.16389006083e+00
  +1.16773646633e+00
  +1.17159145403e+00
  +1.17545358985e+00
  +1.17932145741e+00
  +1.18319365757e+00
  +1.18706880792e+00
  +1.19094554238e+00
  +1.19482251071e+00
  +1.19869837816e+00
  +1.20257182504e+00
  +1.20644154635e+00
  +1.21030625142e+00
  +1.21416466362e+00
  +1.21801552000e+00
  +1.22185757102e+00
  +1.22568958027e+00
  +1.22951032423e+00
  +1.23331859199e+00
  +1.23711318511e+00
  +1.24089291735e+00
  +1.24465661454e+00
  +1.24840311440e+00
  +1.25213126642e+00
  +1.25583993168e+00
  +1.25952798285e+00
  +1.26319430399e+00
  +1.26683779056e+00
  +1.27045734933e+00
  +1.27405189835e+00
  +1.27762036696e+00
  +1.28116169573e+00
  +1.28467483653e+00
  +1.28815875253e+00
  +1.29161241823e+00
  +1.29503481956e+00
  +1.29842495392e+00
  +1.30178183025e+00
  +1.30510446918e+00
  +1.30839190312e+00
  +1.31164317636e+00
  +1.31485734523e+00
  +1.31803347826e+00
  +1.32117065633e+00
  +1.32426797282e+00
  +1.32732453381e+00
  +1.33033945829e+00
  +1.33331187833e+00
  +1.33624093930e+00
  +1.33912580007e+00
  +1.34196563327e+00
  +1.34475962549e+00
  +1.34750697755e+00
  +1.35020690469e+00
  +1.35285863688e+00
  +1.35546141903e+00
  +1.35801451126e+00
  +1.36051718918e+00
  +1.36296874414e+00
  +1.36536848347e+00
  +1.36771573079e+00
  +1.37000982626e+00
  +1.37225012686e+00
  +1.37443600662e+00
  +1.37656685694e+00
  +1.37864208684e+00
  +1.38066112318e+00
  +1.38262341100e+00
  +1.38452841371e+00
  +1.38637561336e+00
  +1.38816451093e+00
  +1.38989462651e+00
  +1.39156549958e+00
  +1.39317668922e+00
  +1.39472777434e+00
  +1.39621835390e+00
  +1.39764804711e+00
  +1.39901649363e+00
  +1.40032335377e+00
  +1.40156830863e+00
  +1.40275106032e+00
  +1.40387133208e+00
  +1.40492886845e+00
  +1.40592343538e+00
  +1.40685482035e+00
  +1.40772283252e+00
  +1.40852730277e+00
  +1.40926808383e+00
  +1.40994505029e+00
  +1.41055809871e+00
  +1.41110714765e+00
  +1.41159213765e+00
  +1.41201303128e+00
  +1.41236981315e+00
</dep>
<dep NFmin frequency>
  +1.03436478984e+00
  +1.03541931133e+00
  +1.03635105724e+00
  +1.03720670694e+00
  +1.03801694840e+00
  +1.03880260650e+00
  +1.03957819735e+00
  +1.04035407302e+00
  +1.04113776107e+00
  +1.04193482648e+00
  +1.04274944109e+00
  +1.04358476867e+00
  +1.04444323081e+00
  +1.04532669409e+00
  +1.04623660389e+00
  +1.04717408181e+00
  +1.04813999732e+00
  +1.04913502141e+00
  +1.05015966706e+00
  +1.05121432019e+00
  +1.05229926357e+00
  +1.05341469548e+00
  +1.05456074436e+00
  +1.05573748048e+00
  +1.05694492525e+00
  +1.05818305876e+00
  +1.05945182590e+00
  +1.06075114136e+00
  +1.06208089377e+00
  +1.06344094915e+00
  +1.06483115377e+00
  +1.06625133654e+00
  +1.06770131113e+00
  +1.06918087765e+00
  +1.07068982420e+00
  +1.07222792813e+00
  +1.07379495721e+00
  +1.07539067058e+00
  +1.07701481963e+00
  +1.07866714879e+00
  +1.08034739619e+00
  +1.08205529429e+00
  +1.08379057043e+00
  +1.08555294733e+00
  +1.08734214355e+00
  +1.08915787390e+00
  +1.09099984983e+00
  +1.09286777979e+00
  +1.09476136955e+00
  +1.09668032253e+00
  +1.09862434003e+00
  +1.10059312155e+00
  +1.10258636504e+00
  +1.10460376710e+00
  +1.10664502325e+00
  +1.10870982808e+00
  +1.11079787553e+00
  +1.11290885901e+00
  +1.11504247163e+00
  +1.11719840635e+00
  +1.11937635614e+00
  +1.12157601416e+00
  +1.12379707389e+00
  +1.12603922927e+00
  +1.12830217487e+00
  +1.13058560598e+00
  +1.13288921877e+00
  +1.13521271038e+00
  +1.13755577907e+00
  +1.13991812428e+00
  +1.14229944679e+00
  +1.14469944879e+00
  +1.14711783396e+00
  +1.14955430763e+00
  +1.15200857677e+00
  +1.15448035015e+00
  +1.15696933838e+00
  +1.15947525402e+00
  +1.16199781161e+00
  +1.16453672777e+00
  +1.16709172124e+00
  +1.16966251298e+00
  +1.17224882617e+00
  +1.17485038633e+00
  +1.17746692132e+00
  +1.18009816142e+00
  +1.18274383935e+00
  +1.18540369036e+00
  +1.18807745221e+00
  +1.19076486523e+00
  +1.19346567240e+00
  +1.19617961929e+00
  +1.19890645419e+00
  +1.20164592807e+00
  +1.20439779463e+00
  +1.20716181031e+00
  +1.20993773434e+00
  +1.21272532872e+00
  +1.21552435827e+00
  +1.21833459062e+00
  +1.22115579624e+00
  +1.22398774844e+00
  +1.22683022338e+00
  +1.22968300009e+00
  +1.23254586048e+00
  +1.23541858929e+00
  +1.23830097417e+00
  +1.24119280564e+00
  +1.24409387707e+00
  +1.24700398474e+00
  +1.24992292778e+00
  +1.25285050818e+00
  +1.25578653079e+00
  +1.25873080335e+00
  +1.26168313639e+00
  +1.26464334332e+00
  +1.26761124036e+00
  +1.27058664655e+00
  +1.27356938374e+00
  +1.27655927655e+00
  +1.27955615241e+00
  +1.28255984150e+00
  +1.28557017674e+00
  +1.28858699378e+00
  +1.29161013102e+00
  +1.29463942951e+00
  +1.29767473303e+00
  +1.30071588798e+00
  +1.30376274342e+00
  +1.30681515105e+00
  +1.30987296514e+00
  +1.31293604257e+00
  +1.31600424276e+00
  +1.31907742769e+00
  +1.32215546184e+00
  +1.32523821220e+00
  +1.32832554821e+00
  +1.33141734178e+00
  +1.33451346724e+00
  +1.33761380133e+00
  +1.34071822314e+00
  +1.34382661415e+00
  +1.34693885815e+00
  +1.35005484123e+00
  +1.35317445179e+00
  +1.35629758044e+00
  +1.35942412006e+00
  +1.36255396572e+00
  +1.36568701467e+00
  +1.36882316631e+00
  +1.37196232218e+00
  +1.37510438592e+00
  +1.37824926324e+00
  +1.38139686193e+00
  +1.38454709176e+00
  +1.38769986455e+00
  +1.39085509406e+00
  +1.39401269602e+00
  +1.39717258808e+00
  +1.40033468978e+00
  +1.40349892255e+00
  +1.40666520966e+00
  +1.40983347619e+00
  +1.41300364905e+00
  +1.41617565688e+00
  +1.41934943009e+00
  +1.42252490082e+00
  +1.42570200288e+00
  +1.42888067178e+00
  +1.43206084466e+00
  +1.43524246028e+00
  +1.43842545901e+00
  +1.44160978278e+00
  +1.44479537507e+00
  +1.44798218090e+00
  +1.45117014677e+00
  +1.45435922068e+00
  +1.45754935204e+00
  +1.46074049174e+00
  +1.46393259205e+00
  +1.46712560661e+00
  +1.47031949045e+00
  +1.47351419990e+00
  +1.47670969264e+00
  +1.47990592762e+00
  +1.48310286505e+00
  +1.48630046640e+00
  +1.48949869436e+00
  +1.49269751281e+00
  +1.49589688684e+00
  +1.49909678266e+00
</dep>
<dep Rn frequency>
  +1.07174649238e+01
  +1.07149011326e+01
  +1.07118434689e+01
  +1.07083450699e+01
  +1.07044411421e+01
  +1.07001558403e+01
  +1.06955062612e+01
  +1.06905048567e+01
  +1.06851609409e+01
  +1.06794816616e+01
  +1.06734726413e+01
  +1.06671384116e+01
  +1.06604827124e+01
  +1.06535087031e+01
  +1.06462191132e+01
  +1.06386163518e+01
  +1.06307025883e+01
  +1.06224798125e+01
  +1.06139498797e+01
  +1.06051145458e+01
  +1.05959754933e+01
  +1.05865343522e+01
  +1.05767927161e+01
  +1.05667521548e+01
  +1.05564142245e+01
  +1.05457804756e+01
  +1.05348524594e+01
  +1.05236317329e+01
  +1.05121198633e+01
  +1.05003184311e+01
  +1.04882290330e+01
  +1.04758532838e+01
  +1.04631928186e+01
  +1.04502492937e+01
  +1.04370243883e+01
  +1.04235198047e+01
  +1.04097372698e+01
  +1.03956785349e+01
  +1.03813453766e+01
  +1.03667395968e+01
  +1.03518630231e+01
  +1.03367175085e+01
  +1.03213049320e+01
  +1.03056271980e+01
  +1.02896862366e+01
  +1.02734840033e+01
  +1.02570224788e+01
  +1.02403036688e+01
  +1.02233296039e+01
  +1.02061023392e+01
  +1.01886239538e+01
  +1.01708965511e+01
  +1.01529222577e+01
  +1.01347032236e+01
  +1.01162416218e+01
  +1.00975396476e+01
  +1.00785995184e+01
  +1.00594234735e+01
  +1.00400137733e+01
  +1.00203726993e+01
  +1.00005025533e+01
  +9.98040565736e+00
  +9.96008435294e+00
  +9.93954100084e+00
  +9.91877798059e+00
  +9.89779769002e+00
  +9.87660254483e+00
  +9.85519497812e+00
  +9.83357743999e+00
  +9.81175239703e+00
  +9.78972233191e+00
  +9.76748974291e+00
  +9.74505714344e+00
  +9.72242706163e+00
  +9.69960203984e+00
  +9.67658463423e+00
  +9.65337741429e+00
  +9.62998296236e+00
  +9.60640387325e+00
  +9.58264275370e+00
  +9.55870222198e+00
  +9.53458490746e+00
  +9.51029345010e+00
  +9.48583050005e+00
  +9.46119871718e+00
  +9.43640077069e+00
  +9.41143933859e+00
  +9.38631710734e+00
  +9.36103677136e+00
  +9.33560103264e+00
  +9.31001260030e+00
  +9.28427419015e+00
  +9.25838852429e+00
  +9.23235833067e+00
  +9.20618634273e+00
  +9.17987529890e+00
  +9.15342794230e+00
  +9.12684702023e+00
  +9.10013528387e+00
  +9.07329548782e+00
  +9.04633038974e+00
  +9.01924274996e+00
  +8.99203533110e+00
  +8.96471089770e+00
  +8.93727221582e+00
  +8.90972205271e+00
  +8.88206317644e+00
  +8.85429835554e+00
  +8.82643035862e+00
  +8.79846195408e+00
  +8.77039590973e+00
  +8.74223499246e+00
  +8.71398196790e+00
  +8.68563960013e+00
  +8.65721065132e+00
  +8.62869788143e+00
  +8.60010404790e+00
  +8.57143190536e+00
  +8.54268420531e+00
  +8.51386369582e+00
  +8.48497312129e+00
  +8.45601522211e+00
  +8.42699273442e+00
  +8.39790838981e+00
  +8.36876491511e+00
  +8.33956503206e+00
  +8.31031145710e+00
  +8.28100690113e+00
  +8.25165406922e+00
  +8.22225566042e+00
  +8.19281436751e+00
  +8.16333287677e+00
  +8.13381386779e+00
  +8.10426001321e+00
  +8.07467397854e+00
  +8.04505842195e+00
  +8.01541599409e+00
  +7.98574933786e+00
  +7.95606108828e+00
  +7.92635387225e+00
  +7.89663030842e+00
  +7.86689300700e+00
  +7.83714456960e+00
  +7.80738758909e+00
  +7.77762464942e+00
  +7.74785832547e+00
  +7.71809118294e+00
  +7.68832577821e+00
  +7.65856465818e+00
  +7.62881036015e+00
  +7.59906541174e+00
  +7.56933233072e+00
  +7.53961362495e+00
  +7.50991179224e+00
  +7.48022932026e+00
  +7.45056868644e+00
  +7.42093235792e+00
  +7.39132279141e+00
  +7.36174243312e+00
  +7.33219371875e+00
  +7.30267907332e+00
  +7.27320091118e+00
  +7.24376163592e+00
  +7.21436364032e+00
  +7.18500930629e+00
  +7.15570100486e+00
  +7.12644109606e+00
  +7.09723192899e+00
  +7.06807584167e+00
  +7.03897516111e+00
  +7.00993220324e+00
  +6.98094927286e+00
  +6.95202866371e+00
  +6.92317265836e+00
  +6.89438352826e+00
  +6.86566353374e+00
  +6.83701492397e+00
  +6.80843993698e+00
  +6.77994079970e+00
  +6.75151972790e+00
