<Qucs Dataset 0.0.17>
<indep acfrequency 358>
  +1.00000000000e+00
  +1.04618344439e+00
  +1.09449979932e+00
  +1.14504756994e+00
  +1.19792981071e+00
  +1.25325433551e+00
  +1.31113393742e+00
  +1.37168661871e+00
  +1.43503583139e+00
  +1.50131072891e+00
  +1.57064642947e+00
  +1.64318429151e+00
  +1.71907220186e+00
  +1.79846487730e+00
  +1.88152417995e+00
  +1.96841944729e+00
  +2.05932783737e+00
  +2.15443469003e+00
  +2.25393390473e+00
  +2.35802833589e+00
  +2.46693020641e+00
  +2.58086154042e+00
  +2.70005461585e+00
  +2.82475243806e+00
  +2.95520923520e+00
  +3.09169097658e+00
  +3.23447591488e+00
  +3.38385515343e+00
  +3.54013323974e+00
  +3.70362878635e+00
  +3.87467512046e+00
  +4.05362096342e+00
  +4.24083114177e+00
  +4.43668733098e+00
  +4.64158883361e+00
  +4.85595339340e+00
  +5.08021804691e+00
  +5.31484001458e+00
  +5.56029763285e+00
  +5.81709132937e+00
  +6.08574464331e+00
  +6.36680529262e+00
  +6.66084629081e+00
  +6.96846711508e+00
  +7.29029492859e+00
  +7.62698585902e+00
  +7.97922633632e+00
  +8.34773449211e+00
  +8.73326162383e+00
  +9.13659372639e+00
  +9.55855309469e+00
  +1.00000000000e+01
  +1.04618344439e+01
  +1.09449979932e+01
  +1.14504756994e+01
  +1.19792981071e+01
  +1.25325433551e+01
  +1.31113393742e+01
  +1.37168661871e+01
  +1.43503583139e+01
  +1.50131072891e+01
  +1.57064642947e+01
  +1.64318429151e+01
  +1.71907220186e+01
  +1.79846487730e+01
  +1.88152417995e+01
  +1.96841944729e+01
  +2.05932783737e+01
  +2.15443469003e+01
  +2.25393390473e+01
  +2.35802833589e+01
  +2.46693020641e+01
  +2.58086154042e+01
  +2.70005461585e+01
  +2.82475243806e+01
  +2.95520923520e+01
  +3.09169097658e+01
  +3.23447591488e+01
  +3.38385515343e+01
  +3.54013323974e+01
  +3.70362878635e+01
  +3.87467512046e+01
  +4.05362096342e+01
  +4.24083114177e+01
  +4.43668733098e+01
  +4.64158883361e+01
  +4.85595339340e+01
  +5.08021804691e+01
  +5.31484001458e+01
  +5.56029763285e+01
  +5.81709132937e+01
  +6.08574464331e+01
  +6.36680529262e+01
  +6.66084629081e+01
  +6.96846711508e+01
  +7.29029492859e+01
  +7.62698585902e+01
  +7.97922633632e+01
  +8.34773449211e+01
  +8.73326162383e+01
  +9.13659372639e+01
  +9.55855309469e+01
  +1.00000000000e+02
  +1.04618344439e+02
  +1.09449979932e+02
  +1.14504756994e+02
  +1.19792981071e+02
  +1.25325433551e+02
  +1.31113393742e+02
  +1.37168661871e+02
  +1.43503583139e+02
  +1.50131072891e+02
  +1.57064642947e+02
  +1.64318429151e+02
  +1.71907220186e+02
  +1.79846487730e+02
  +1.88152417995e+02
  +1.96841944729e+02
  +2.05932783737e+02
  +2.15443469003e+02
  +2.25393390473e+02
  +2.35802833589e+02
  +2.46693020641e+02
  +2.58086154042e+02
  +2.70005461585e+02
  +2.82475243806e+02
  +2.95520923520e+02
  +3.09169097658e+02
  +3.23447591488e+02
  +3.38385515343e+02
  +3.54013323974e+02
  +3.70362878635e+02
  +3.87467512046e+02
  +4.05362096342e+02
  +4.24083114177e+02
  +4.43668733098e+02
  +4.64158883361e+02
  +4.85595339340e+02
  +5.08021804691e+02
  +5.31484001458e+02
  +5.56029763285e+02
  +5.81709132937e+02
  +6.08574464331e+02
  +6.36680529262e+02
  +6.66084629081e+02
  +6.96846711508e+02
  +7.29029492859e+02
  +7.62698585902e+02
  +7.97922633632e+02
  +8.34773449211e+02
  +8.73326162383e+02
  +9.13659372639e+02
  +9.55855309469e+02
  +1.00000000000e+03
  +1.04618344439e+03
  +1.09449979932e+03
  +1.14504756994e+03
  +1.19792981071e+03
  +1.25325433551e+03
  +1.31113393742e+03
  +1.37168661871e+03
  +1.43503583139e+03
  +1.50131072891e+03
  +1.57064642947e+03
  +1.64318429151e+03
  +1.71907220186e+03
  +1.79846487730e+03
  +1.88152417995e+03
  +1.96841944729e+03
  +2.05932783737e+03
  +2.15443469003e+03
  +2.25393390473e+03
  +2.35802833589e+03
  +2.46693020641e+03
  +2.58086154042e+03
  +2.70005461585e+03
  +2.82475243806e+03
  +2.95520923520e+03
  +3.09169097658e+03
  +3.23447591488e+03
  +3.38385515343e+03
  +3.54013323974e+03
  +3.70362878635e+03
  +3.87467512046e+03
  +4.05362096342e+03
  +4.24083114177e+03
  +4.43668733098e+03
  +4.64158883361e+03
  +4.85595339340e+03
  +5.08021804691e+03
  +5.31484001458e+03
  +5.56029763285e+03
  +5.81709132937e+03
  +6.08574464331e+03
  +6.36680529262e+03
  +6.66084629081e+03
  +6.96846711508e+03
  +7.29029492859e+03
  +7.62698585902e+03
  +7.97922633632e+03
  +8.34773449211e+03
  +8.73326162383e+03
  +9.13659372639e+03
  +9.55855309469e+03
  +1.00000000000e+04
  +1.04618344439e+04
  +1.09449979932e+04
  +1.14504756994e+04
  +1.19792981071e+04
  +1.25325433551e+04
  +1.31113393742e+04
  +1.37168661871e+04
  +1.43503583139e+04
  +1.50131072891e+04
  +1.57064642947e+04
  +1.64318429151e+04
  +1.71907220186e+04
  +1.79846487730e+04
  +1.88152417995e+04
  +1.96841944729e+04
  +2.05932783737e+04
  +2.15443469003e+04
  +2.25393390473e+04
  +2.35802833589e+04
  +2.46693020641e+04
  +2.58086154042e+04
  +2.70005461585e+04
  +2.82475243806e+04
  +2.95520923520e+04
  +3.09169097658e+04
  +3.23447591488e+04
  +3.38385515343e+04
  +3.54013323974e+04
  +3.70362878635e+04
  +3.87467512046e+04
  +4.05362096342e+04
  +4.24083114177e+04
  +4.43668733098e+04
  +4.64158883361e+04
  +4.85595339340e+04
  +5.08021804691e+04
  +5.31484001458e+04
  +5.56029763285e+04
  +5.81709132937e+04
  +6.08574464331e+04
  +6.36680529262e+04
  +6.66084629081e+04
  +6.96846711508e+04
  +7.29029492859e+04
  +7.62698585902e+04
  +7.97922633632e+04
  +8.34773449211e+04
  +8.73326162383e+04
  +9.13659372639e+04
  +9.55855309469e+04
  +1.00000000000e+05
  +1.04618344439e+05
  +1.09449979932e+05
  +1.14504756994e+05
  +1.19792981071e+05
  +1.25325433551e+05
  +1.31113393742e+05
  +1.37168661871e+05
  +1.43503583139e+05
  +1.50131072891e+05
  +1.57064642947e+05
  +1.64318429151e+05
  +1.71907220186e+05
  +1.79846487730e+05
  +1.88152417995e+05
  +1.96841944729e+05
  +2.05932783737e+05
  +2.15443469003e+05
  +2.25393390473e+05
  +2.35802833589e+05
  +2.46693020641e+05
  +2.58086154042e+05
  +2.70005461585e+05
  +2.82475243806e+05
  +2.95520923520e+05
  +3.09169097658e+05
  +3.23447591488e+05
  +3.38385515343e+05
  +3.54013323974e+05
  +3.70362878635e+05
  +3.87467512046e+05
  +4.05362096342e+05
  +4.24083114177e+05
  +4.43668733098e+05
  +4.64158883361e+05
  +4.85595339340e+05
  +5.08021804691e+05
  +5.31484001458e+05
  +5.56029763285e+05
  +5.81709132937e+05
  +6.08574464331e+05
  +6.36680529262e+05
  +6.66084629081e+05
  +6.96846711508e+05
  +7.29029492859e+05
  +7.62698585902e+05
  +7.97922633632e+05
  +8.34773449211e+05
  +8.73326162383e+05
  +9.13659372639e+05
  +9.55855309469e+05
  +1.00000000000e+06
  +1.04618344439e+06
  +1.09449979932e+06
  +1.14504756994e+06
  +1.19792981071e+06
  +1.25325433551e+06
  +1.31113393742e+06
  +1.37168661871e+06
  +1.43503583139e+06
  +1.50131072891e+06
  +1.57064642947e+06
  +1.64318429151e+06
  +1.71907220186e+06
  +1.79846487730e+06
  +1.88152417995e+06
  +1.96841944729e+06
  +2.05932783737e+06
  +2.15443469003e+06
  +2.25393390473e+06
  +2.35802833589e+06
  +2.46693020641e+06
  +2.58086154042e+06
  +2.70005461585e+06
  +2.82475243806e+06
  +2.95520923520e+06
  +3.09169097658e+06
  +3.23447591488e+06
  +3.38385515343e+06
  +3.54013323974e+06
  +3.70362878635e+06
  +3.87467512046e+06
  +4.05362096342e+06
  +4.24083114177e+06
  +4.43668733098e+06
  +4.64158883361e+06
  +4.85595339340e+06
  +5.08021804691e+06
  +5.31484001458e+06
  +5.56029763285e+06
  +5.81709132937e+06
  +6.08574464331e+06
  +6.36680529262e+06
  +6.66084629081e+06
  +6.96846711508e+06
  +7.29029492859e+06
  +7.62698585902e+06
  +7.97922633632e+06
  +8.34773449211e+06
  +8.73326162383e+06
  +9.13659372639e+06
  +9.55855309469e+06
  +1.00000000000e+07
</indep>
<dep out_dB acfrequency>
  -5.76984828012e-04
  -5.76984827962e-04
  -5.76984827910e-04
  -5.76984827849e-04
  -5.76984827789e-04
  -5.76984827719e-04
  -5.76984827639e-04
  -5.76984827556e-04
  -5.76984827459e-04
  -5.76984827361e-04
  -5.76984827248e-04
  -5.76984827129e-04
  -5.76984826994e-04
  -5.76984826846e-04
  -5.76984826692e-04
  -5.76984826518e-04
  -5.76984826327e-04
  -5.76984826119e-04
  -5.76984825890e-04
  -5.76984825638e-04
  -5.76984825372e-04
  -5.76984825067e-04
  -5.76984824744e-04
  -5.76984824385e-04
  -5.76984823995e-04
  -5.76984823563e-04
  -5.76984823091e-04
  -5.76984822580e-04
  -5.76984822017e-04
  -5.76984821402e-04
  -5.76984820725e-04
  -5.76984819990e-04
  -5.76984819179e-04
  -5.76984818293e-04
  -5.76984817330e-04
  -5.76984816274e-04
  -5.76984815112e-04
  -5.76984813846e-04
  -5.76984812454e-04
  -5.76984810936e-04
  -5.76984809273e-04
  -5.76984807454e-04
  -5.76984805463e-04
  -5.76984803284e-04
  -5.76984800898e-04
  -5.76984798283e-04
  -5.76984795425e-04
  -5.76984792293e-04
  -5.76984788869e-04
  -5.76984785120e-04
  -5.76984781022e-04
  -5.76984776532e-04
  -5.76984771616e-04
  -5.76984766238e-04
  -5.76984760350e-04
  -5.76984753911e-04
  -5.76984746858e-04
  -5.76984739138e-04
  -5.76984730689e-04
  -5.76984721447e-04
  -5.76984711327e-04
  -5.76984700248e-04
  -5.76984688125e-04
  -5.76984674857e-04
  -5.76984660337e-04
  -5.76984644444e-04
  -5.76984627044e-04
  -5.76984608008e-04
  -5.76984587168e-04
  -5.76984564354e-04
  -5.76984539389e-04
  -5.76984512065e-04
  -5.76984482162e-04
  -5.76984449429e-04
  -5.76984413606e-04
  -5.76984374395e-04
  -5.76984331477e-04
  -5.76984284505e-04
  -5.76984233097e-04
  -5.76984176827e-04
  -5.76984115242e-04
  -5.76984047839e-04
  -5.76983974061e-04
  -5.76983893312e-04
  -5.76983804928e-04
  -5.76983708207e-04
  -5.76983602331e-04
  -5.76983486457e-04
  -5.76983359635e-04
  -5.76983220824e-04
  -5.76983068892e-04
  -5.76982902604e-04
  -5.76982720609e-04
  -5.76982521408e-04
  -5.76982303386e-04
  -5.76982064754e-04
  -5.76981803585e-04
  -5.76981517726e-04
  -5.76981204851e-04
  -5.76980862420e-04
  -5.76980487620e-04
  -5.76980077405e-04
  -5.76979628426e-04
  -5.76979137016e-04
  -5.76978599171e-04
  -5.76978010493e-04
  -5.76977366190e-04
  -5.76976661000e-04
  -5.76975889170e-04
  -5.76975044403e-04
  -5.76974119804e-04
  -5.76973107833e-04
  -5.76972000228e-04
  -5.76970787957e-04
  -5.76969461127e-04
  -5.76968008908e-04
  -5.76966419461e-04
  -5.76964679806e-04
  -5.76962775754e-04
  -5.76960691773e-04
  -5.76958410852e-04
  -5.76955914387e-04
  -5.76953182006e-04
  -5.76950191414e-04
  -5.76946918218e-04
  -5.76943335704e-04
  -5.76939414638e-04
  -5.76935123040e-04
  -5.76930425881e-04
  -5.76925284838e-04
  -5.76919657973e-04
  -5.76913499371e-04
  -5.76906758788e-04
  -5.76899381210e-04
  -5.76891306461e-04
  -5.76882468646e-04
  -5.76872795664e-04
  -5.76862208589e-04
  -5.76850621037e-04
  -5.76837938456e-04
  -5.76824057388e-04
  -5.76808864559e-04
  -5.76792236012e-04
  -5.76774036079e-04
  -5.76754116258e-04
  -5.76732314023e-04
  -5.76708451481e-04
  -5.76682333944e-04
  -5.76653748308e-04
  -5.76622461353e-04
  -5.76588217792e-04
  -5.76550738234e-04
  -5.76509716880e-04
  -5.76464819041e-04
  -5.76415678384e-04
  -5.76361893972e-04
  -5.76303026968e-04
  -5.76238597096e-04
  -5.76168078654e-04
  -5.76090896289e-04
  -5.76006420271e-04
  -5.75913961367e-04
  -5.75812765205e-04
  -5.75702006148e-04
  -5.75580780517e-04
  -5.75448099245e-04
  -5.75302879815e-04
  -5.75143937414e-04
  -5.74969975269e-04
  -5.74779574074e-04
  -5.74571180407e-04
  -5.74343094056e-04
  -5.74093454172e-04
  -5.73820224061e-04
  -5.73521174588e-04
  -5.73193865991e-04
  -5.72835627995e-04
  -5.72443537988e-04
  -5.72014397267e-04
  -5.71544704882e-04
  -5.71030629104e-04
  -5.70467976206e-04
  -5.69852156230e-04
  -5.69178145598e-04
  -5.68440446142e-04
  -5.67633040274e-04
  -5.66749341944e-04
  -5.65782142967e-04
  -5.64723554265e-04
  -5.63564941579e-04
  -5.62296855126e-04
  -5.60908952605e-04
  -5.59389914953e-04
  -5.57727354166e-04
  -5.55907712394e-04
  -5.53916151594e-04
  -5.51736432734e-04
  -5.49350783618e-04
  -5.46739754318e-04
  -5.43882058969e-04
  -5.40754402653e-04
  -5.37331292065e-04
  -5.33584828322e-04
  -5.29484480381e-04
  -5.24996837106e-04
  -5.20085336130e-04
  -5.14709967251e-04
  -5.08826948085e-04
  -5.02388369319e-04
  -4.95341806793e-04
  -4.87629897346e-04
  -4.79189875046e-04
  -4.69953064224e-04
  -4.59844325270e-04
  -4.48781448912e-04
  -4.36674494317e-04
  -4.23425065747e-04
  -4.08925522448e-04
  -3.93058115539e-04
  -3.75694045422e-04
  -3.56692432686e-04
  -3.35899194682e-04
  -3.13145819587e-04
  -2.88248028890e-04
  -2.61004318683e-04
  -2.31194369220e-04
  -1.98577311636e-04
  -1.62889839724e-04
  -1.23844153901e-04
  -8.11257236024e-05
  -3.43908534980e-05
  +1.67359620410e-05
  +7.26649125333e-05
  +1.33843990373e-04
  +2.00762373049e-04
  +2.73954087379e-04
  +3.54001974857e-04
  +4.41541977703e-04
  +5.37267765092e-04
  +6.41935718975e-04
  +7.56370298068e-04
  +8.81469797165e-04
  +1.01821251723e-03
  +1.16766335840e-03
  +1.33098084422e-03
  +1.50942457969e-03
  +1.70436313850e-03
  +1.91728236535e-03
  +2.14979406682e-03
  +2.40364504896e-03
  +2.68072643991e-03
  +2.98308321143e-03
  +3.31292378236e-03
  +3.67262954909e-03
  +4.06476414073e-03
  +4.49208213894e-03
  +4.95753693054e-03
  +5.46428727397e-03
  +6.01570205313e-03
  +6.61536256154e-03
  +7.26706150047e-03
  +7.97479768017e-03
  +8.74276517778e-03
  +9.57533541839e-03
  +1.04770302984e-02
  +1.14524840481e-02
  +1.25063910209e-02
  +1.36434359772e-02
  +1.48682026846e-02
  +1.61850557535e-02
  +1.75979895360e-02
  +1.91104366000e-02
  +2.07250267071e-02
  +2.24432853101e-02
  +2.42652582927e-02
  +2.61890469100e-02
  +2.82102335863e-02
  +3.03211752606e-02
  +3.25101362474e-02
  +3.47602269507e-02
  +3.70481081021e-02
  +3.93424123201e-02
  +4.16018255622e-02
  +4.37727603048e-02
  +4.57865399293e-02
  +4.75559997544e-02
  +4.89713945132e-02
  +4.98954850807e-02
  +5.01576594941e-02
  +4.95469258366e-02
  +4.78035991309e-02
  +4.46094938264e-02
  +3.95764319873e-02
  +3.22328911121e-02
  +2.20086533907e-02
  +8.21739206506e-03
  -9.96274403807e-03
  -3.35102905718e-02
  -6.35828263096e-02
  -1.01539581090e-01
  -1.48962809962e-01
  -2.07675785314e-01
  -2.79754491832e-01
  -3.67529319511e-01
  -4.73572386777e-01
  -6.00665822147e-01
  -7.51746696715e-01
  -9.29825664664e-01
  -1.13787898706e+00
  -1.37871749620e+00
  -1.65484080376e+00
  -1.96828976688e+00
  -2.32051360793e+00
  -2.71226880518e+00
  -3.14356410411e+00
  -3.61365989887e+00
  -4.12112207875e+00
  -4.66392225598e+00
  -5.23957012726e+00
  -5.84526087407e+00
  -6.47802115658e+00
  -7.13484059225e+00
  -7.81278030643e+00
  -8.50905489924e+00
  -9.22108808024e+00
  -9.94654486983e+00
  -1.06833446568e+01
  -1.14296597840e+01
  -1.21839040423e+01
  -1.29447147934e+01
  -1.37109316561e+01
  -1.44815739189e+01
  -1.52558181767e+01
  -1.60329771504e+01
  -1.68124802440e+01
  -1.75938561017e+01
  -1.83767172291e+01
  -1.91607466175e+01
  -1.99456862334e+01
  -2.07313271990e+01
  -2.15175014727e+01
  -2.23040748426e+01
  -2.30909410541e+01
  -2.38780169099e+01
  -2.46652381958e+01
  -2.54525563073e+01
  -2.62399354644e+01
  -2.70273504217e+01
  -2.78147845922e+01
  -2.86022285178e+01
  -2.93896786288e+01
  -3.01771362437e+01
  -3.09646067709e+01
  -3.17520990780e+01
  -3.25396250011e+01
  -3.33271989719e+01
  -3.41148377433e+01
  -3.49025601983e+01
</dep>
<dep V2.i acfrequency>
  +4.99891768152e-08-j4.83264874673e-14
  +4.99891768152e-08-j5.05583711140e-14
  +4.99891768152e-08-j5.28933308348e-14
  +4.99891768152e-08-j5.53361270381e-14
  +4.99891768151e-08-j5.78917399840e-14
  +4.99891768151e-08-j6.05653799384e-14
  +4.99891768152e-08-j6.33624977949e-14
  +4.99891768151e-08-j6.62887961882e-14
  +4.99891768151e-08-j6.93502411208e-14
  +4.99891768151e-08-j7.25530741251e-14
  +4.99891768151e-08-j7.59038249895e-14
  +4.99891768151e-08-j7.94093250700e-14
  +4.99891768151e-08-j8.30767212185e-14
  +4.99891768151e-08-j8.69134903532e-14
  +4.99891768151e-08-j9.09274547018e-14
  +4.99891768151e-08-j9.51267977498e-14
  +4.99891768150e-08-j9.95200809237e-14
  +4.99891768150e-08-j1.04116261047e-13
  +4.99891768150e-08-j1.08924708599e-13
  +4.99891768151e-08-j1.13955226822e-13
  +4.99891768150e-08-j1.19218071703e-13
  +4.99891768149e-08-j1.24723972888e-13
  +4.99891768150e-08-j1.30484155554e-13
  +4.99891768149e-08-j1.36510363296e-13
  +4.99891768149e-08-j1.42814882068e-13
  +4.99891768149e-08-j1.49410565233e-13
  +4.99891768149e-08-j1.56310859763e-13
  +4.99891768149e-08-j1.63529833663e-13
  +4.99891768148e-08-j1.71082204642e-13
  +4.99891768147e-08-j1.78983370127e-13
  +4.99891768147e-08-j1.87249438648e-13
  +4.99891768146e-08-j1.95897262685e-13
  +4.99891768146e-08-j2.04944473023e-13
  +4.99891768145e-08-j2.14409514696e-13
  +4.99891768144e-08-j2.24311684595e-13
  +4.99891768145e-08-j2.34671170807e-13
  +4.99891768143e-08-j2.45509093775e-13
  +4.99891768142e-08-j2.56847549355e-13
  +4.99891768141e-08-j2.68709653867e-13
  +4.99891768141e-08-j2.81119591224e-13
  +4.99891768139e-08-j2.94102662232e-13
  +4.99891768139e-08-j3.07685336179e-13
  +4.99891768137e-08-j3.21895304792e-13
  +4.99891768136e-08-j3.36761538701e-13
  +4.99891768134e-08-j3.52314346497e-13
  +4.99891768132e-08-j3.68585436526e-13
  +4.99891768130e-08-j3.85607981537e-13
  +4.99891768129e-08-j4.03416686310e-13
  +4.99891768126e-08-j4.22047858408e-13
  +4.99891768123e-08-j4.41539482207e-13
  +4.99891768120e-08-j4.61931296329e-13
  +4.99891768117e-08-j4.83264874666e-13
  +4.99891768114e-08-j5.05583711131e-13
  +4.99891768111e-08-j5.28933308339e-13
  +4.99891768107e-08-j5.53361270370e-13
  +4.99891768102e-08-j5.78917399828e-13
  +4.99891768098e-08-j6.05653799369e-13
  +4.99891768093e-08-j6.33624977931e-13
  +4.99891768087e-08-j6.62887961863e-13
  +4.99891768081e-08-j6.93502411187e-13
  +4.99891768075e-08-j7.25530741226e-13
  +4.99891768068e-08-j7.59038249867e-13
  +4.99891768059e-08-j7.94093250667e-13
  +4.99891768051e-08-j8.30767212150e-13
  +4.99891768041e-08-j8.69134903490e-13
  +4.99891768031e-08-j9.09274546970e-13
  +4.99891768018e-08-j9.51267977442e-13
  +4.99891768007e-08-j9.95200809174e-13
  +4.99891767993e-08-j1.04116261040e-12
  +4.99891767977e-08-j1.08924708591e-12
  +4.99891767961e-08-j1.13955226812e-12
  +4.99891767943e-08-j1.19218071692e-12
  +4.99891767923e-08-j1.24723972875e-12
  +4.99891767901e-08-j1.30484155540e-12
  +4.99891767878e-08-j1.36510363280e-12
  +4.99891767852e-08-j1.42814882049e-12
  +4.99891767824e-08-j1.49410565211e-12
  +4.99891767792e-08-j1.56310859739e-12
  +4.99891767759e-08-j1.63529833635e-12
  +4.99891767721e-08-j1.71082204610e-12
  +4.99891767681e-08-j1.78983370090e-12
  +4.99891767636e-08-j1.87249438606e-12
  +4.99891767587e-08-j1.95897262637e-12
  +4.99891767534e-08-j2.04944472968e-12
  +4.99891767475e-08-j2.14409514633e-12
  +4.99891767412e-08-j2.24311684522e-12
  +4.99891767342e-08-j2.34671170724e-12
  +4.99891767265e-08-j2.45509093679e-12
  +4.99891767181e-08-j2.56847549245e-12
  +4.99891767090e-08-j2.68709653742e-12
  +4.99891766988e-08-j2.81119591080e-12
  +4.99891766879e-08-j2.94102662068e-12
  +4.99891766758e-08-j3.07685335990e-12
  +4.99891766627e-08-j3.21895304576e-12
  +4.99891766482e-08-j3.36761538454e-12
  +4.99891766324e-08-j3.52314346213e-12
  +4.99891766152e-08-j3.68585436202e-12
  +4.99891765963e-08-j3.85607981167e-12
  +4.99891765756e-08-j4.03416685884e-12
  +4.99891765531e-08-j4.22047857922e-12
  +4.99891765282e-08-j4.41539481650e-12
  +4.99891765011e-08-j4.61931295691e-12
  +4.99891764714e-08-j4.83264873935e-12
  +4.99891764390e-08-j5.05583710294e-12
  +4.99891764034e-08-j5.28933307380e-12
  +4.99891763645e-08-j5.53361269274e-12
  +4.99891763219e-08-j5.78917398572e-12
  +4.99891762753e-08-j6.05653797931e-12
  +4.99891762242e-08-j6.33624976284e-12
  +4.99891761684e-08-j6.62887959978e-12
  +4.99891761073e-08-j6.93502409028e-12
  +4.99891760404e-08-j7.25530738755e-12
  +4.99891759672e-08-j7.59038247036e-12
  +4.99891758870e-08-j7.94093247425e-12
  +4.99891757993e-08-j8.30767208436e-12
  +4.99891757033e-08-j8.69134899239e-12
  +4.99891755983e-08-j9.09274542103e-12
  +4.99891754834e-08-j9.51267971870e-12
  +4.99891753574e-08-j9.95200802793e-12
  +4.99891752196e-08-j1.04116260309e-11
  +4.99891750689e-08-j1.08924707754e-11
