<Qucs Dataset 0.0.17>
<indep frequency 100>
  +1.00000000000e+05
  +2.03010101010e+07
  +4.05020202020e+07
  +6.07030303030e+07
  +8.09040404040e+07
  +1.01105050505e+08
  +1.21306060606e+08
  +1.41507070707e+08
  +1.61708080808e+08
  +1.81909090909e+08
  +2.02110101010e+08
  +2.22311111111e+08
  +2.42512121212e+08
  +2.62713131313e+08
  +2.82914141414e+08
  +3.03115151515e+08
  +3.23316161616e+08
  +3.43517171717e+08
  +3.63718181818e+08
  +3.83919191919e+08
  +4.04120202020e+08
  +4.24321212121e+08
  +4.44522222222e+08
  +4.64723232323e+08
  +4.84924242424e+08
  +5.05125252525e+08
  +5.25326262626e+08
  +5.45527272727e+08
  +5.65728282828e+08
  +5.85929292929e+08
  +6.06130303030e+08
  +6.26331313131e+08
  +6.46532323232e+08
  +6.66733333333e+08
  +6.86934343434e+08
  +7.07135353535e+08
  +7.27336363636e+08
  +7.47537373737e+08
  +7.67738383838e+08
  +7.87939393939e+08
  +8.08140404040e+08
  +8.28341414141e+08
  +8.48542424242e+08
  +8.68743434343e+08
  +8.88944444444e+08
  +9.09145454545e+08
  +9.29346464646e+08
  +9.49547474747e+08
  +9.69748484848e+08
  +9.89949494949e+08
  +1.01015050505e+09
  +1.03035151515e+09
  +1.05055252525e+09
  +1.07075353535e+09
  +1.09095454545e+09
  +1.11115555556e+09
  +1.13135656566e+09
  +1.15155757576e+09
  +1.17175858586e+09
  +1.19195959596e+09
  +1.21216060606e+09
  +1.23236161616e+09
  +1.25256262626e+09
  +1.27276363636e+09
  +1.29296464646e+09
  +1.31316565657e+09
  +1.33336666667e+09
  +1.35356767677e+09
  +1.37376868687e+09
  +1.39396969697e+09
  +1.41417070707e+09
  +1.43437171717e+09
  +1.45457272727e+09
  +1.47477373737e+09
  +1.49497474747e+09
  +1.51517575758e+09
  +1.53537676768e+09
  +1.55557777778e+09
  +1.57577878788e+09
  +1.59597979798e+09
  +1.61618080808e+09
  +1.63638181818e+09
  +1.65658282828e+09
  +1.67678383838e+09
  +1.69698484848e+09
  +1.71718585859e+09
  +1.73738686869e+09
  +1.75758787879e+09
  +1.77778888889e+09
  +1.79798989899e+09
  +1.81819090909e+09
  +1.83839191919e+09
  +1.85859292929e+09
  +1.87879393939e+09
  +1.89899494949e+09
  +1.91919595960e+09
  +1.93939696970e+09
  +1.95959797980e+09
  +1.97979898990e+09
  +2.00000000000e+09
</indep>
<dep Decoupling frequency>
  -3.52182592008e+00
  -3.55216456579e+00
  -3.64124266048e+00
  -3.78524585109e+00
  -3.97841725921e+00
  -4.21377602082e+00
  -4.48386296837e+00
  -4.78138069017e+00
  -5.09965660738e+00
  -5.43291724324e+00
  -5.77640134831e+00
  -6.12635619390e+00
  -6.47996136354e+00
  -6.83521591287e+00
  -7.19081404231e+00
  -7.54602483711e+00
  -7.90058441160e+00
  -8.25460396985e+00
  -8.60849438609e+00
  -8.96290635097e+00
  -9.31868444111e+00
  -9.67683330016e+00
  -1.00384942360e+01
  -1.04049307998e+01
  -1.07775222382e+01
  -1.11577640621e+01
  -1.15472753399e+01
  -1.19478127090e+01
  -1.23612915184e+01
  -1.27898150081e+01
  -1.32357130374e+01
  -1.37015926709e+01
  -1.41904040253e+01
  -1.47055263457e+01
  -1.52508815886e+01
  -1.58310863078e+01
  -1.64516581485e+01
  -1.71193021541e+01
  -1.78423169482e+01
  -1.86311865882e+01
  -1.94994703818e+01
  -2.04651912287e+01
  -2.15531007116e+01
  -2.27985830671e+01
  -2.42548660989e+01
  -2.60076003662e+01
  -2.82082228758e+01
  -3.11656019856e+01
  -3.56878634242e+01
  -4.56760340973e+01
  -4.43981653910e+01
  -3.52625908623e+01
  -3.09105505773e+01
  -2.80261339472e+01
  -2.58660599567e+01
  -2.41391380897e+01
  -2.27007288153e+01
  -2.14683527863e+01
  -2.03904603393e+01
  -1.94326381488e+01
  -1.85707350832e+01
  -1.77871192917e+01
  -1.70684968593e+01
  -1.64045699899e+01
  -1.57871744624e+01
  -1.52097044941e+01
  -1.46667171987e+01
  -1.41536532755e+01
  -1.36666352485e+01
  -1.32023188656e+01
  -1.27577818514e+01
  -1.23304395297e+01
  -1.19179802448e+01
  -1.15183157459e+01
  -1.11295432281e+01
  -1.07499167859e+01
  -1.03778268188e+01
  -1.00117865220e+01
  -9.65042508167e+00
  -9.29248761126e+00
  -8.93684224716e+00
  -8.58249518750e+00
  -8.22861480748e+00
  -7.87456630756e+00
  -7.51995860476e+00
  -7.16470527842e+00
  -6.80910118329e+00
  -6.45391560467e+00
  -6.10050119060e+00
  -5.75091486731e+00
  -5.40804195601e+00
  -5.07570730736e+00
  -4.75874753364e+00
  -4.46300771130e+00
  -4.19521784389e+00
  -3.96270532880e+00
  -3.77291784880e+00
  -3.63277232550e+00
  -3.54790606739e+00
  -3.52196664442e+00
</dep>
<dep Attenuation3 frequency>
  -3.52182516919e+00
  -3.52133393965e+00
  -3.51987153096e+00
  -3.51744286206e+00
  -3.51405611346e+00
  -3.50972271668e+00
  -3.50445733921e+00
  -3.49827786471e+00
  -3.49120536797e+00
  -3.48326408441e+00
  -3.47448137331e+00
  -3.46488767453e+00
  -3.45451645777e+00
  -3.44340416390e+00
  -3.43159013758e+00
  -3.41911655027e+00
  -3.40602831313e+00
  -3.39237297867e+00
  -3.37820063065e+00
  -3.36356376137e+00
  -3.34851713551e+00
  -3.33311764007e+00
  -3.31742411964e+00
  -3.30149719664e+00
  -3.28539907610e+00
  -3.26919333476e+00
  -3.25294469456e+00
  -3.23671878047e+00
  -3.22058186320e+00
  -3.20460058733e+00
  -3.18884168559e+00
  -3.17337168057e+00
  -3.15825657506e+00
  -3.14356153280e+00
  -3.12935055148e+00
  -3.11568613012e+00
  -3.10262893347e+00
  -3.09023745582e+00
  -3.07856768729e+00
  -3.06767278561e+00
  -3.05760275638e+00
  -3.04840414532e+00
  -3.04011974552e+00
  -3.03278832307e+00
  -3.02644436412e+00
  -3.02111784642e+00
  -3.01683403804e+00
  -3.01361332581e+00
  -3.01147107559e+00
  -3.01041752619e+00
  -3.01045771839e+00
  -3.01159145982e+00
  -3.01381332632e+00
  -3.01711269966e+00
  -3.02147384122e+00
  -3.02687600054e+00
  -3.03329355742e+00
  -3.04069619582e+00
  -3.04904910717e+00
  -3.05831322073e+00
  -3.06844545825e+00
  -3.07939900974e+00
  -3.09112362745e+00
  -3.10356593465e+00
  -3.11666974604e+00
  -3.13037639653e+00
  -3.14462507521e+00
  -3.15935316159e+00
  -3.17449656109e+00
  -3.18999003730e+00
  -3.20576753850e+00
  -3.22176251625e+00
  -3.23790823430e+00
  -3.25413806598e+00
  -3.27038577890e+00
  -3.28658580586e+00
  -3.30267350097e+00
  -3.31858538071e+00
  -3.33425934930e+00
  -3.34963490844e+00
  -3.36465335137e+00
  -3.37925794155e+00
  -3.39339407624e+00
  -3.40700943558e+00
  -3.42005411769e+00
  -3.43248076043e+00
  -3.44424465067e+00
  -3.45530382171e+00
  -3.46561913966e+00
  -3.47515437968e+00
  -3.48387629268e+00
  -3.49175466343e+00
  -3.49876236066e+00
  -3.50487537994e+00
  -3.51007287984e+00
  -3.51433721215e+00
  -3.51765394639e+00
  -3.52001188937e+00
  -3.52140309982e+00
  -3.52182289861e+00
</dep>
<dep Reflect frequency>
  -9.54242518978e+00
  -9.54635702775e+00
  -9.55808601471e+00
  -9.57764375678e+00
  -9.60508309532e+00
  -9.64047846109e+00
  -9.68392637816e+00
  -9.73554612684e+00
  -9.79548057714e+00
  -9.86389720835e+00
  -9.94098933372e+00
  -1.00269775541e+01
  -1.01221114696e+01
  -1.02266716850e+01
  -1.03409721525e+01
  -1.04653629033e+01
  -1.06002332356e+01
  -1.07460154342e+01
  -1.09031891221e+01
  -1.10722863613e+01
  -1.12538976531e+01
  -1.14486790206e+01
  -1.16573604068e+01
  -1.18807556797e+01
  -1.21197746168e+01
  -1.23754373452e+01
  -1.26488918547e+01
  -1.29414353892e+01
  -1.32545407781e+01
  -1.35898891277e+01
  -1.39494107886e+01
  -1.43353372238e+01
  -1.47502674296e+01
  -1.51972540679e+01
  -1.56799167366e+01
  -1.62025932879e+01
  -1.67705455871e+01
  -1.73902449829e+01
  -1.80697776019e+01
  -1.88194352990e+01
  -1.96526045819e+01
  -2.05871540871e+01
  -2.16476988318e+01
  -2.28695033529e+01
  -2.43056917122e+01
  -2.60418254143e+01
  -2.82292643379e+01
  -3.11768014184e+01
  -3.56924185914e+01
  -4.56749534592e+01
  -4.43979049529e+01
  -3.52675340614e+01
  -3.09223611942e+01
  -2.80480289628e+01
  -2.59013870454e+01
  -2.41913196175e+01
  -2.27732649734e+01
  -2.15648338363e+01
  -2.05145814211e+01
  -1.95882153114e+01
  -1.87617222128e+01
  -1.80176258705e+01
  -1.73428065643e+01
  -1.67271601607e+01
  -1.61627364616e+01
  -1.56431649712e+01
  -1.51632602390e+01
  -1.47187433798e+01
  -1.43060410387e+01
  -1.39221373419e+01
  -1.35644629396e+01
  -1.32308105399e+01
  -1.29192697112e+01
  -1.26281759232e+01
  -1.23560702670e+01
  -1.21016672889e+01
  -1.18638290646e+01
  -1.16415441257e+01
  -1.14339101967e+01
  -1.12401199545e+01
  -1.10594492038e+01
  -1.08912470017e+01
  -1.07349273655e+01
  -1.05899622766e+01
  -1.04558757523e+01
  -1.03322388046e+01
  -1.02186651388e+01
  -1.01148074757e+01
  -1.00203544003e+01
  -9.93502766009e+00
  -9.85857984921e+00
  -9.79079242575e+00
  -9.73147402030e+00
  -9.68045900000e+00
  -9.63760625962e+00
  -9.60279821635e+00
  -9.57593998924e+00
  -9.55695874843e+00
  -9.54580322235e+00
  -9.54244335447e+00
</dep>
<dep Attenuation2 frequency>
  -3.52182516919e+00
  -3.52133393965e+00
  -3.51987153096e+00
  -3.51744286206e+00
  -3.51405611346e+00
  -3.50972271668e+00
  -3.50445733921e+00
  -3.49827786471e+00
  -3.49120536797e+00
  -3.48326408441e+00
  -3.47448137331e+00
  -3.46488767453e+00
  -3.45451645777e+00
  -3.44340416390e+00
  -3.43159013758e+00
  -3.41911655027e+00
  -3.40602831313e+00
  -3.39237297867e+00
  -3.37820063065e+00
  -3.36356376137e+00
  -3.34851713551e+00
  -3.33311764007e+00
  -3.31742411964e+00
  -3.30149719664e+00
  -3.28539907610e+00
  -3.26919333476e+00
  -3.25294469456e+00
  -3.23671878047e+00
  -3.22058186320e+00
  -3.20460058733e+00
  -3.18884168559e+00
  -3.17337168057e+00
  -3.15825657506e+00
  -3.14356153280e+00
  -3.12935055148e+00
  -3.11568613012e+00
  -3.10262893347e+00
  -3.09023745582e+00
  -3.07856768729e+00
  -3.06767278561e+00
  -3.05760275638e+00
  -3.04840414532e+00
  -3.04011974552e+00
  -3.03278832307e+00
  -3.02644436412e+00
  -3.02111784642e+00
  -3.01683403804e+00
  -3.01361332581e+00
  -3.01147107559e+00
  -3.01041752619e+00
  -3.01045771839e+00
  -3.01159145982e+00
  -3.01381332632e+00
  -3.01711269966e+00
  -3.02147384122e+00
  -3.02687600054e+00
  -3.03329355742e+00
  -3.04069619582e+00
  -3.04904910717e+00
  -3.05831322073e+00
  -3.06844545825e+00
  -3.07939900974e+00
  -3.09112362745e+00
  -3.10356593465e+00
  -3.11666974604e+00
  -3.13037639653e+00
  -3.14462507521e+00
  -3.15935316159e+00
  -3.17449656109e+00
  -3.18999003730e+00
  -3.20576753850e+00
  -3.22176251625e+00
  -3.23790823430e+00
  -3.25413806598e+00
  -3.27038577890e+00
  -3.28658580586e+00
  -3.30267350097e+00
  -3.31858538071e+00
  -3.33425934930e+00
  -3.34963490844e+00
  -3.36465335137e+00
  -3.37925794155e+00
  -3.39339407624e+00
  -3.40700943558e+00
  -3.42005411769e+00
  -3.43248076043e+00
  -3.44424465067e+00
  -3.45530382171e+00
  -3.46561913966e+00
  -3.47515437968e+00
  -3.48387629268e+00
  -3.49175466343e+00
  -3.49876236066e+00
  -3.50487537994e+00
  -3.51007287984e+00
  -3.51433721215e+00
  -3.51765394639e+00
  -3.52001188937e+00
  -3.52140309982e+00
  -3.52182289861e+00
</dep>
<dep S[3,3] frequency>
  -3.33333238193e-01+j1.97553361404e-04
  -3.29442425857e-01+j3.97586248405e-02
  -3.18193479183e-01+j7.73197484351e-02
  -3.00550737009e-01+j1.11170111235e-01
  -2.77906297077e-01+j1.40078167732e-01
  -2.51839412221e-01+j1.63372259552e-01
  -2.23893594578e-01+j1.80906333490e-01
  -1.95417451995e-01+j1.92949110232e-01
  -1.67482612859e-01+j2.00044222922e-01
  -1.40867220091e-01+j2.02878778456e-01
  -1.16082585126e-01+j2.02180514507e-01
  -9.34209616808e-02+j1.98648670214e-01
  -7.30082660808e-02+j1.92914589970e-01
  -5.48523124023e-02+j1.85524495243e-01
  -3.88824418277e-02+j1.76936767018e-01
  -2.49797746590e-02+j1.67527566407e-01
  -1.29990334079e-02+j1.57600455545e-01
  -2.78353292306e-03+j1.47397278542e-01
  +5.82501130708e-03+j1.37108744201e-01
  +1.29804186273e-02+j1.26883938831e-01
  +1.88285796783e-02+j1.16838477965e-01
  +2.35057368037e-02+j1.07061275274e-01
  +2.71378913092e-02+j9.76200419416e-02
  +2.98409069697e-02+j8.85656850321e-02
  +3.17210171907e-02+j7.99357843908e-02
  +3.28755419401e-02+j7.17573164309e-02
  +3.33936893930e-02+j6.40487725079e-02
  +3.33573642380e-02+j5.68217964238e-02
  +3.28419361071e-02+j5.00824434706e-02
  +3.19169423568e-02+j4.38321438624e-02
  +3.06467128385e-02+j3.80684368567e-02
  +2.90909127658e-02+j3.27855282703e-02
  +2.73050049780e-02+j2.79747131113e-02
  +2.53406359434e-02+j2.36246962873e-02
  +2.32459515171e-02+j1.97218374019e-02
  +2.10658492674e-02+j1.62503401609e-02
  +1.88421744519e-02+j1.31924025766e-02
  +1.66138666773e-02+j1.05283407130e-02
  +1.44170640451e-02+j8.23669598264e-03
  +1.22851712609e-02+j6.29433379331e-03
  +1.02488978103e-02+j4.67653956078e-03
  +8.33627190639e-03+j3.35711662465e-03
  +6.57263551096e-03+j2.30848938115e-03
  +4.98062531692e-03+j1.50181391071e-03
  +3.58014415874e-03+j9.07097497266e-04
  +2.38832688817e-03+j4.93327681526e-04
  +1.41950430528e-03+j2.28610843198e-04
  +6.85168271127e-04+j8.03197562225e-05
  +1.93940645068e-04+j1.52490986909e-05
  -4.84518140292e-05-j2.22477524921e-07
  -3.91949648608e-05+j3.45948129258e-08
  +2.21603861620e-04-j1.79292846161e-05
  +7.30916202900e-04-j8.79720119110e-05
  +1.48280198063e-03-j2.43690012662e-04
  +2.46842761791e-03-j5.18251595692e-04
  +3.67609163758e-03-j9.44235310844e-04
  +5.09125608481e-03-j1.55347497989e-03
  +6.69658159714e-03-j2.37691277080e-03
  +8.47196344280e-03-j3.44446130257e-03
  +1.03945653662e-02-j4.78487529929e-03
  +1.24388476169e-02-j6.42563275426e-03
  +1.45765850938e-02-j8.39282491029e-03
  +1.67768711051e-02-j1.07110535992e-02
  +1.90061018265e-02-j1.34033335921e-02
  +2.12279361261e-02-j1.64909965641e-02
  +2.34032250212e-02-j1.99935920365e-02
  +2.54899046345e-02-j2.39287791618e-02
  +2.74428461478e-02-j2.83122014050e-02
  +2.92136559281e-02-j3.31573339322e-02
  +3.07504187830e-02-j3.84752907333e-02
  +3.19973772699e-02-j4.42745750080e-02
  +3.28945402816e-02-j5.05607519332e-02
  +3.33772149844e-02-j5.73360173401e-02
  +3.33754579306e-02-j6.45986287683e-02
  +3.28134443460e-02-j7.23421564451e-02
  +3.16087599781e-02-j8.05545005827e-02
  +2.96716286566e-02-j8.92166075789e-02
  +2.69041025830e-02-j9.83008009383e-02
  +2.31992637836e-02-j1.07768622953e-01
  +1.84405176358e-02-j1.17568060908e-01
  +1.25011077511e-02-j1.27630008450e-01
  +5.24405222070e-03-j1.37863792506e-01
  -3.47719750181e-03-j1.48151586050e-01
  -1.38169325294e-02-j1.58341540431e-01
  -2.59335643951e-02-j1.68239530610e-01
  -3.99833281341e-02-j1.77599549475e-01
  -5.61101457363e-02-j1.86113069416e-01
  -7.44301918727e-02-j1.93398189012e-01
  -9.50095026423e-02-j1.98990195565e-01
  -1.17833053827e-01-j2.02336387512e-01
  -1.42764443345e-01-j2.02799625424e-01
  -1.69497133518e-01-j1.99676915674e-01
  -1.97501696428e-01-j1.92240750754e-01
  -2.25978955934e-01-j1.79810653433e-01
  -2.53835702846e-01-j1.61858445057e-01
  -2.79705307348e-01-j1.38141202712e-01
  -3.02035286196e-01-j1.08840457351e-01
  -3.19251983222e-01-j7.46690480729e-02
  -3.29986723062e-01-j3.68979999120e-02
  -3.33315120375e-01+j2.73326464173e-03
</dep>
<dep S[3,1] frequency>
  +6.66666624912e-01-j2.38522079742e-04
  +6.64946444518e-01-j4.83833178353e-02
  +6.59826855192e-01-j9.62961136728e-02
  +6.51329418365e-01-j1.43746768495e-01
  +6.39490004480e-01-j1.90506572467e-01
  +6.24358764771e-01-j2.36348970602e-01
  +6.06000089189e-01-j2.81050297761e-01
  +5.84492547926e-01-j3.24390528459e-01
  +5.59928813269e-01-j3.66154044562e-01
  +5.32415557856e-01-j4.06130423505e-01
  +5.02073324764e-01-j4.44115249159e-01
  +4.69036364238e-01-j4.79910946865e-01
  +4.33452431354e-01-j5.13327643436e-01
  +3.95482538393e-01-j5.44184052159e-01
  +3.55300655307e-01-j5.72308381906e-01
  +3.13093351356e-01-j5.97539268499e-01
  +2.69059370760e-01-j6.19726725403e-01
  +2.23409135146e-01-j6.38733109656e-01
  +1.76364165650e-01-j6.54434097750e-01
  +1.28156417705e-01-j6.66719664864e-01
  +7.90275220264e-02-j6.75495059564e-01
  +2.92279258481e-02-j6.80681764728e-01
  -2.09840706806e-02-j6.82218434137e-01
  -7.13433869955e-02-j6.80061792882e-01
  -1.21579346289e-01-j6.74187488503e-01
  -1.71416972607e-01-j6.64590878718e-01
  -2.20578400363e-01-j6.51287740595e-01
  -2.68784393786e-01-j6.34314885325e-01
  -3.15755971610e-01-j6.13730662220e-01
  -3.61216129955e-01-j5.89615335379e-01
  -4.04891653802e-01-j5.62071316587e-01
  -4.46515004871e-01-j5.31223238535e-01
  -4.85826271036e-01-j4.97217853366e-01
  -5.22575159773e-01-j4.60223742954e-01
  -5.56523015608e-01-j4.20430829118e-01
  -5.87444839181e-01-j3.78049674278e-01
  -6.15131283453e-01-j3.33310565813e-01
  -6.39390600849e-01-j2.86462380505e-01
  -6.60050513839e-01-j2.37771229002e-01
  -6.76959980693e-01-j1.87518884066e-01
  -6.89990827939e-01-j1.36001000429e-01
  -6.99039221523e-01-j8.35251382587e-02
  -7.04026949794e-01-j3.04086064682e-02
  -7.04902493266e-01+j2.30238538211e-02
  -7.01641858627e-01+j7.64425214610e-02
  -6.94249157657e-01+j1.29515255389e-01
  -6.82756915455e-01+j1.81910131917e-01
  -6.67226096736e-01+j2.33298125989e-01
  -6.47745843612e-01+j2.83355801439e-01
  -6.24432923323e-01+j3.31767974283e-01
  -5.97430889526e-01+j3.78230312875e-01
  -5.66908965939e-01+j4.22451839441e-01
  -5.33060666130e-01+j4.64157298944e-01
  -4.96102168032e-01+j5.03089363558e-01
  -4.56270466017e-01+j5.39010644004e-01
  -4.13821327148e-01+j5.71705482686e-01
  -3.69027081325e-01+j6.00981507733e-01
  -3.22174277390e-01+j6.26670931655e-01
  -2.73561238837e-01+j6.48631583169e-01
  -2.23495553575e-01+j6.66747665722e-01
  -1.72291532100e-01+j6.80930241170e-01
  -1.20267667701e-01+j6.91117441876e-01
  -6.77441307711e-02+j6.97274418931e-01
  -1.50403271674e-02+j6.99393038327e-01
  +3.75274521011e-02+j6.97491340503e-01
  +8.96482656959e-02+j6.91612781686e-01
  +1.41018620536e-01+j6.81825277957e-01
  +1.91344417024e-01+j6.68220074731e-01
  +2.40342727499e-01+j6.50910465583e-01
  +2.87743398199e-01+j6.30030384932e-01
  +3.33290468612e-01+j6.05732899136e-01
  +3.76743405472e-01+j5.78188620090e-01
  +4.17878151819e-01+j5.47584064477e-01
  +4.56487994349e-01+j5.14119980537e-01
  +4.92384254777e-01+j4.78009662576e-01
  +5.25396813028e-01+j4.39477271615e-01
  +5.55374471813e-01+j3.98756178521e-01
  +5.82185173493e-01+j3.56087343888e-01
  +6.05716081116e-01+j3.11717746710e-01
  +6.25873536157e-01+j2.65898871820e-01
  +6.42582905821e-01+j2.18885263895e-01
  +6.55788332788e-01+j1.70933153930e-01
  +6.65452400099e-01+j1.22299162146e-01
  +6.71555723417e-01+j7.32390796428e-02
  +6.74096482329e-01+j2.40067295551e-02
  +6.73089901579e-01-j2.51470929035e-02
  +6.68567692270e-01-j7.39756032805e-02
  +6.60577462127e-01-j1.22236936395e-01
  +6.49182102932e-01-j1.69694984123e-01
  +6.34459162171e-01-j2.16120166707e-01
  +6.16500204960e-01-j2.61290142357e-01
  +5.95410171222e-01-j3.04990460211e-01
  +5.71306732135e-01-j3.47015161993e-01
  +5.44319648851e-01-j3.87167337725e-01
  +5.14590135598e-01-j4.25259640874e-01
  +4.82270228370e-01-j4.61114768152e-01
  +4.47522159586e-01-j4.94565908970e-01
  +4.10517738360e-01-j5.25457169260e-01
  +3.71437735293e-01-j5.53643973982e-01
  +3.30471270076e-01-j5.78993452194e-01
</dep>
<dep S[3,2] frequency>
  +6.66666564202e-01-j2.46975283572e-04
  +6.62473971994e-01-j4.97860987683e-02
  +6.50326413273e-01-j9.72915638341e-02
  +6.31190648623e-01-j1.41019055726e-01
  +6.06462812955e-01-j1.79703612946e-01
  +5.77727820856e-01-j2.12640291943e-01
  +5.46536483262e-01-j2.39649932662e-01
  +5.14246359286e-01-j2.60968378128e-01
  +4.81939698960e-01-j2.77106668024e-01
  +4.50406957100e-01-j2.88719659883e-01
  +4.20173468442e-01-j2.96503251601e-01
  +3.91547243086e-01-j3.01125323839e-01
  +3.64671708194e-01-j3.03186422319e-01
  +3.39573963197e-01-j3.03202615440e-01
  +3.16204426885e-01-j3.01602870191e-01
  +2.94467103677e-01-j2.98734774189e-01
  +2.74241416243e-01-j2.94874266108e-01
  +2.55397199164e-01-j2.90236634296e-01
  +2.37804503384e-01-j2.84987225138e-01
  +2.21339648094e-01-j2.79251089162e-01
  +2.05888661403e-01-j2.73121273227e-01
  +1.91348965378e-01-j2.66665736321e-01
  +1.77629921119e-01-j2.59933001359e-01
  +1.64652663085e-01-j2.52956710322e-01
  +1.52349513959e-01-j2.45759260913e-01
  +1.40663172727e-01-j2.38354691457e-01
  +1.29545799999e-01-j2.30750959907e-01
  +1.18958077745e-01-j2.22951739413e-01
  +1.08868289377e-01-j2.14957830598e-01
  +9.92514455701e-02-j2.06768270922e-01
