<Qucs Dataset 0.0.20>
<indep acfrequency 10>
  +1.00000000000000000000e+02
  +2.00000000000000000000e+02
  +3.00000000000000000000e+02
  +4.00000000000000000000e+02
  +5.00000000000000000000e+02
  +6.00000000000000000000e+02
  +7.00000000000000000000e+02
  +8.00000000000000000000e+02
  +9.00000000000000000000e+02
  +1.00000000000000000000e+03
</indep>
<dep W1.PF acfrequency>
  +9.80720242308222966976e-01
  +9.90513944657526401727e-01
  +9.95195452832623783657e-01
  +9.97169085770285623660e-01
  +9.98148639514632840530e-01
  +9.98699105910521911511e-01
  +9.99037419403843274246e-01
  +9.99259610649678275962e-01
  +9.99413143244741508653e-01
  +9.99523566165695931396e-01
</dep>
<dep W1.Q acfrequency>
  -5.44907449634045178755e+02
  -4.37373228213567415423e+02
  -3.21576556392570751086e+02
  -2.49860701816515728524e+02
  -2.03228055168214950754e+02
  -1.70897562224916441664e+02
  -1.47288679940442278848e+02
  -1.29337898288770844601e+02
  -1.15248804830525131138e+02
  -1.03905899116145889138e+02
</dep>
<dep W1.P acfrequency>
  +2.73467379492375312111e+03
  +3.15273414971579722987e+03
  +3.26869056477994172383e+03
  +3.31356876961778061741e+03
  +3.33518162489167252716e+03
  +3.34715519539431397789e+03
  +3.35445609419675474783e+03
  +3.35922779846222601918e+03
  +3.36251446655540939901e+03
  +3.36487303215903693854e+03
</dep>
<dep W1.S acfrequency>
  +2.73467379492375312111e+03-j5.44907449634045178755e+02
  +3.15273414971579722987e+03-j4.37373228213567415423e+02
  +3.26869056477994172383e+03-j3.21576556392570751086e+02
  +3.31356876961778061741e+03-j2.49860701816515728524e+02
  +3.33518162489167252716e+03-j2.03228055168214950754e+02
  +3.34715519539431397789e+03-j1.70897562224916441664e+02
  +3.35445609419675474783e+03-j1.47288679940442278848e+02
  +3.35922779846222601918e+03-j1.29337898288770844601e+02
  +3.36251446655540939901e+03-j1.15248804830525131138e+02
  +3.36487303215903693854e+03-j1.03905899116145889138e+02
</dep>
<dep W1.v acfrequency>
  +1.50000000000000000000e+02
  +1.50000000000000000000e+02
  +1.50000000000000000000e+02
  +1.50000000000000000000e+02
  +1.50000000000000000000e+02
  +1.50000000000000000000e+02
  +1.50000000000000000000e+02
  +1.50000000000000000000e+02
  +1.50000000000000000000e+02
  +1.50000000000000000000e+02
</dep>
<dep W2.PF acfrequency>
  +6.64701887507277877631e-01
  +8.71766270878092441876e-01
  +9.36434263887543361093e-01
  +9.62715173405830459963e-01
  +9.75652546549666599418e-01
  +9.82902570496005156819e-01
  +9.87352998759702837894e-01
  +9.90274057357458770134e-01
  +9.92291771566057634324e-01
  +9.93742620473717530594e-01
</dep>
<dep W2.Q acfrequency>
  -8.99770112141196932498e+02
  -6.16015284139468462854e+02
  -4.40821942874469868912e+02
  -3.39334363433395253651e+02
  -2.74821665342001267618e+02
  -2.30565551806052440043e+02
  -1.98436107391203307770e+02
  -1.74093849075057221398e+02
  -1.55033061727944414088e+02
  -1.39712496141708754749e+02
</dep>
<dep W2.P acfrequency>
  +8.00524604539797337566e+02
  +1.09613641322825628777e+03
  +1.17659657749336133747e+03
  +1.20762182885956781320e+03
  +1.22254285843821344315e+03
  +1.23080369989713130963e+03
  +1.23583889903182512171e+03
  +1.23912904243479692923e+03
  +1.24139489498616421770e+03
  +1.24302073622954799248e+03
</dep>
<dep W2.S acfrequency>
  +8.00524604539797337566e+02-j8.99770112141196932498e+02
  +1.09613641322825628777e+03-j6.16015284139468462854e+02
  +1.17659657749336133747e+03-j4.40821942874469868912e+02
  +1.20762182885956781320e+03-j3.39334363433395253651e+02
  +1.22254285843821344315e+03-j2.74821665342001267618e+02
  +1.23080369989713130963e+03-j2.30565551806052440043e+02
  +1.23583889903182512171e+03-j1.98436107391203307770e+02
  +1.23912904243479692923e+03-j1.74093849075057221398e+02
  +1.24139489498616421770e+03-j1.55033061727944414088e+02
  +1.24302073622954799248e+03-j1.39712496141708754749e+02
</dep>
<dep W2.v acfrequency>
  +1.17979015818408086602e+02-j2.39938696570985854351e+01
  +1.06154543470869725752e+02-j1.64270742437191614727e+01
  +1.02936136900265523764e+02-j1.17552518099858627210e+01
  +1.01695126845617267008e+02-j9.04891635822387563337e+00
  +1.01098285662471482738e+02-j7.32857774245336379693e+00
  +1.00767852004114757847e+02-j6.14841471482806767312e+00
  +1.00566444038727013321e+02-j5.29162953043208883486e+00
  +1.00434838302608127947e+02-j4.64250264200152251703e+00
  +1.00344204200553434703e+02-j4.13421497941185478453e+00
  +1.00279170550818093943e+02-j3.72566656377889682261e+00
</dep>
<dep W1.i acfrequency>
  +1.82311586328250214706e+01+j3.63271633089363454872e+00
  +2.10182276647719810114e+01+j2.91582152142378259185e+00
  +2.17912704318662768799e+01+j2.14384370928380496579e+00
  +2.20904584641185373073e+01+j1.66573801211010485979e+00
  +2.22345441659444844618e+01+j1.35485370112143299615e+00
  +2.23143679692954250982e+01+j1.13931708149944288522e+00
  +2.23630406279783642276e+01+j9.81924532936281790896e-01
  +2.23948519897481723717e+01+j8.62252655258472389121e-01
  +2.24167631103693949512e+01+j7.68325365536834170577e-01
  +2.24324868810602460201e+01+j6.92705994107639222435e-01
</dep>
<dep V1.i acfrequency>
  -1.82311586328250214706e+01-j3.63271633089363454872e+00
  -2.10182276647719810114e+01-j2.91582152142378259185e+00
  -2.17912704318662768799e+01-j2.14384370928380496579e+00
  -2.20904584641185373073e+01-j1.66573801211010485979e+00
  -2.22345441659444844618e+01-j1.35485370112143299615e+00
  -2.23143679692954250982e+01-j1.13931708149944288522e+00
  -2.23630406279783642276e+01-j9.81924532936281790896e-01
  -2.23948519897481723717e+01-j8.62252655258472389121e-01
  -2.24167631103693949512e+01-j7.68325365536834170577e-01
  -2.24324868810602460201e+01-j6.92705994107639222435e-01
</dep>
<dep W2.i acfrequency>
  +8.00524604539797479674e+00+j5.99846741427464724694e+00
  +1.09613641322825650093e+01+j4.10676856092979036816e+00
  +1.17659657749336155064e+01+j2.93881295249646612433e+00
  +1.20762182885956796952e+01+j2.26222908955596846425e+00
  +1.22254285843821310920e+01+j1.83214443561334228150e+00
  +1.23080369989713123147e+01+j1.53710367870701603010e+00
  +1.23583889903182484460e+01+j1.32290738260802198667e+00
  +1.23912904243479680133e+01+j1.16062566050038196153e+00
  +1.24139489498616413243e+01+j1.03355374485296214182e+00
  +1.24302073622954800669e+01+j9.31416640944725204854e-01
</dep>
<dep _net6.v acfrequency>
  +6.99475395460202378217e+01-j5.99846741427464635876e+01
  +4.03863586771743356962e+01-j4.10676856092979036816e+01
  +3.23403422506638378309e+01-j2.93881295249646612433e+01
  +2.92378171140432030484e+01-j2.26222908955596864189e+01
  +2.77457141561786606587e+01-j1.83214443561334263677e+01
  +2.69196300102868661952e+01-j1.53710367870701620774e+01
  +2.64161100968175119874e+01-j1.32290738260802189785e+01
  +2.60870957565203092088e+01-j1.16062566050038196153e+01
  +2.58605105013836045202e+01-j1.03355374485296209741e+01
  +2.56979263770452064364e+01-j9.31416640944725315876e+00
</dep>
<dep _net5.v acfrequency>
  +1.33989507909204036196e+02-j1.19969348285492927175e+01
  +1.28077271735434862876e+02-j8.21353712185958073633e+00
  +1.26468068450132761882e+02-j5.87762590499293224866e+00
  +1.25847563422808633504e+02-j4.52445817911193692851e+00
  +1.25549142831235741369e+02-j3.66428887122668456300e+00
  +1.25383926002057378923e+02-j3.07420735741403206021e+00
  +1.25283222019363506661e+02-j2.64581476521604397334e+00
  +1.25217419151304056868e+02-j2.32125132100076392305e+00
  +1.25172102100276717351e+02-j2.06710748970592428364e+00
  +1.25139585275409046972e+02-j1.86283328188945040971e+00
</dep>
<dep _net4.v acfrequency>
  +1.60104920907959495935e+01+j1.19969348285492909412e+01
  +2.19227282645651406767e+01+j8.21353712185958073633e+00
  +2.35319315498672310127e+01+j5.87762590499293047230e+00
  +2.41524365771913593903e+01+j4.52445817911193870486e+00
  +2.44508571687642657366e+01+j3.66428887122667923393e+00
  +2.46160739979426246293e+01+j3.07420735741403561292e+00
  +2.47167779806364968920e+01+j2.64581476521604486152e+00
  +2.47825808486959324739e+01+j2.32125132100075859398e+00
  +2.48278978997232862014e+01+j2.06710748970593094498e+00
  +2.48604147245909601338e+01+j1.86283328188944619086e+00
</dep>
<dep _net3.v acfrequency>
  +1.33989507909204036196e+02-j1.19969348285492927175e+01
  +1.28077271735434862876e+02-j8.21353712185958073633e+00
  +1.26468068450132761882e+02-j5.87762590499293224866e+00
  +1.25847563422808633504e+02-j4.52445817911193692851e+00
  +1.25549142831235741369e+02-j3.66428887122668456300e+00
  +1.25383926002057378923e+02-j3.07420735741403206021e+00
  +1.25283222019363506661e+02-j2.64581476521604397334e+00
  +1.25217419151304056868e+02-j2.32125132100076392305e+00
  +1.25172102100276717351e+02-j2.06710748970592428364e+00
  +1.25139585275409046972e+02-j1.86283328188945040971e+00
</dep>
<dep _net1.v acfrequency>
  +1.50000000000000000000e+02
  +1.50000000000000000000e+02
  +1.50000000000000000000e+02
  +1.50000000000000000000e+02
  +1.50000000000000000000e+02
  +1.50000000000000000000e+02
  +1.50000000000000000000e+02
  +1.50000000000000000000e+02
  +1.50000000000000000000e+02
  +1.50000000000000000000e+02
</dep>
<dep _net2.v acfrequency>
  +1.48644524475437663114e+02+j1.41945065002860761894e+01
  +1.49658818805063532409e+02+j7.14568223703604932240e+00
  +1.49848172058404003337e+02+j4.76981545927596606305e+00
  +1.49914558946862854327e+02+j3.57894646467518207089e+00
  +1.49945306510625812280e+02+j2.86374440695145526803e+00
  +1.49962014178055227376e+02+j2.38671958324543842522e+00
  +1.49972090174039237809e+02+j2.04589709803044117464e+00
  +1.49978630607598745428e+02+j1.79023803145145787852e+00
  +1.49983115036953421395e+02+j1.59137027589676782746e+00
  +1.49986322887411375859e+02+j1.43226388102251611656e+00
</dep>
<dep _net0.v acfrequency>
  +1.50000000000000000000e+02
  +1.50000000000000000000e+02
  +1.50000000000000000000e+02
  +1.50000000000000000000e+02
  +1.50000000000000000000e+02
  +1.50000000000000000000e+02
  +1.50000000000000000000e+02
  +1.50000000000000000000e+02
  +1.50000000000000000000e+02
  +1.50000000000000000000e+02
</dep>
