<Qucs Dataset 0.0.19>
<indep acfrequency 10>
  +1.00000000000000000000e+02
  +2.00000000000000000000e+02
  +3.00000000000000000000e+02
  +4.00000000000000000000e+02
  +5.00000000000000000000e+02
  +6.00000000000000000000e+02
  +7.00000000000000000000e+02
  +8.00000000000000000000e+02
  +9.00000000000000000000e+02
  +1.00000000000000000000e+03
</indep>
<dep PF.S acfrequency>
  +2.77652982352082108264e+03-j1.04183766000844934752e+03
  +3.64596324217536675860e+03-j1.02256959959710854946e+03
  +3.97010262830347619456e+03-j8.04777539727303746986e+02
  +4.10881869693854150682e+03-j6.42988259462891733165e+02
  +4.17858015732799140096e+03-j5.30230759920699370014e+02
  +4.21809876048264595738e+03-j4.49333555568957137893e+02
  +4.24250821359839210345e+03-j3.89099433924587913225e+02
  +4.25859185295904080704e+03-j3.42742727939591020458e+02
  +4.26973044884470800753e+03-j3.06064070811659576066e+02
  +4.27775429085025643872e+03-j2.76367772029273567114e+02
</dep>
<dep PF.P acfrequency>
  +2.77652982352082108264e+03
  +3.64596324217536675860e+03
  +3.97010262830347619456e+03
  +4.10881869693854150682e+03
  +4.17858015732799140096e+03
  +4.21809876048264595738e+03
  +4.24250821359839210345e+03
  +4.25859185295904080704e+03
  +4.26973044884470800753e+03
  +4.27775429085025643872e+03
</dep>
<dep PF.Q acfrequency>
  -1.04183766000844934752e+03
  -1.02256959959710854946e+03
  -8.04777539727303746986e+02
  -6.42988259462891733165e+02
  -5.30230759920699370014e+02
  -4.49333555568957137893e+02
  -3.89099433924587913225e+02
  -3.42742727939591020458e+02
  -3.06064070811659576066e+02
  -2.76367772029273567114e+02
</dep>
<dep PF.PF acfrequency>
  +9.36258320495607532230e-01
  +9.62847371064748380753e-01
  +9.80066679021986075782e-01
  +9.87975869097218240000e-01
  +9.92045076410382198340e-01
  +9.94374033324693540337e-01
  +9.95820575258412943320e-01
  +9.96776921670827542599e-01
  +9.97440683194738553219e-01
  +9.97919555223743204309e-01
</dep>
<dep PF.v acfrequency>
  +1.50000000000000000000e+02
  +1.50000000000000000000e+02
  +1.50000000000000000000e+02
  +1.50000000000000000000e+02
  +1.50000000000000000000e+02
  +1.50000000000000000000e+02
  +1.50000000000000000000e+02
  +1.50000000000000000000e+02
  +1.50000000000000000000e+02
  +1.50000000000000000000e+02
</dep>
<dep V1.i acfrequency>
  -1.85101988234721410720e+01-j6.94558440005632871106e+00
  -2.43064216145024438731e+01-j6.81713066398072342622e+00
  -2.64673508553565071111e+01-j5.36518359818202483780e+00
  -2.73921246462569456526e+01-j4.28658839641927791320e+00
  -2.78572010488532768591e+01-j3.53487173280466215886e+00
  -2.81206584032176394317e+01-j2.99555703712638088376e+00
  -2.82833880906559471669e+01-j2.59399622616391933860e+00
  -2.83906123530602698679e+01-j2.28495151959727360591e+00
  -2.84648696589647229871e+01-j2.04042713874439707311e+00
  -2.85183619390017071282e+01-j1.84245181352849063394e+00
</dep>
<dep PF.i acfrequency>
  +1.85101988234721410720e+01+j6.94558440005632871106e+00
  +2.43064216145024438731e+01+j6.81713066398072342622e+00
  +2.64673508553565071111e+01+j5.36518359818202483780e+00
  +2.73921246462569456526e+01+j4.28658839641927791320e+00
  +2.78572010488532768591e+01+j3.53487173280466215886e+00
  +2.81206584032176394317e+01+j2.99555703712638088376e+00
  +2.82833880906559471669e+01+j2.59399622616391933860e+00
  +2.83906123530602698679e+01+j2.28495151959727360591e+00
  +2.84648696589647229871e+01+j2.04042713874439707311e+00
  +2.85183619390017071282e+01+j1.84245181352849063394e+00
</dep>
<dep _net2.v acfrequency>
  +1.48644524475437663114e+02+j1.41945065002860779657e+01
  +1.49658818805063532409e+02+j7.14568223703604932240e+00
  +1.49848172058404003337e+02+j4.76981545927596606305e+00
  +1.49914558946862854327e+02+j3.57894646467518251498e+00
  +1.49945306510625840701e+02+j2.86374440695145526803e+00
  +1.49962014178055227376e+02+j2.38671958324543798113e+00
  +1.49972090174039266230e+02+j2.04589709803044117464e+00
  +1.49978630607598745428e+02+j1.79023803145145810056e+00
  +1.49983115036953449817e+02+j1.59137027589676804951e+00
  +1.49986322887411404281e+02+j1.43226388102251611656e+00
</dep>
<dep _net1_TEMP_PF1.v acfrequency>
  +1.50000000000000000000e+02
  +1.50000000000000000000e+02
  +1.50000000000000000000e+02
  +1.50000000000000000000e+02
  +1.50000000000000000000e+02
  +1.50000000000000000000e+02
  +1.50000000000000000000e+02
  +1.50000000000000000000e+02
  +1.50000000000000000000e+02
  +1.50000000000000000000e+02
</dep>
<dep _net1.v acfrequency>
  +1.50000000000000000000e+02
  +1.50000000000000000000e+02
  +1.50000000000000000000e+02
  +1.50000000000000000000e+02
  +1.50000000000000000000e+02
  +1.50000000000000000000e+02
  +1.50000000000000000000e+02
  +1.50000000000000000000e+02
  +1.50000000000000000000e+02
  +1.50000000000000000000e+02
</dep>
<dep _net0.v acfrequency>
  +1.50000000000000000000e+02
  +1.50000000000000000000e+02
  +1.50000000000000000000e+02
  +1.50000000000000000000e+02
  +1.50000000000000000000e+02
  +1.50000000000000000000e+02
  +1.50000000000000000000e+02
  +1.50000000000000000000e+02
  +1.50000000000000000000e+02
  +1.50000000000000000000e+02
</dep>
<dep _net3.v acfrequency>
  +8.37257101116393158691e+01-j7.44906838674987312743e+01
  +3.60035353438956704508e+01-j6.40646216278938567257e+01
  +1.84636304126092021249e+01-j4.92812227311574844180e+01
  +1.09769242341272441621e+01-j3.90646357909211303649e+01
  +7.21531626167258988147e+00-j3.20972997383725697773e+01
  +5.08538053685184276986e+00-j2.71467490746716322292e+01
  +3.77010837603331694368e+00-j2.34798326066852744987e+01
  +2.90359369871947681219e+00-j2.06665961987134672029e+01
  +2.30355601234423890133e+00-j1.84452441444841994667e+01
  +1.87134063810436312991e+00-j1.66492996829246138191e+01
</dep>
<dep _net0_TEMP_V1.v acfrequency>
  +1.50000000000000000000e+02
  +1.50000000000000000000e+02
  +1.50000000000000000000e+02
  +1.50000000000000000000e+02
  +1.50000000000000000000e+02
  +1.50000000000000000000e+02
  +1.50000000000000000000e+02
  +1.50000000000000000000e+02
  +1.50000000000000000000e+02
  +1.50000000000000000000e+02
</dep>
