<Qucs Dataset 0.0.18>
<indep Uce 80>
  +0.00000000000e+00
  +3.79746835443e-02
  +7.59493670886e-02
  +1.13924050633e-01
  +1.51898734177e-01
  +1.89873417722e-01
  +2.27848101266e-01
  +2.65822784810e-01
  +3.03797468354e-01
  +3.41772151899e-01
  +3.79746835443e-01
  +4.17721518987e-01
  +4.55696202532e-01
  +4.93670886076e-01
  +5.31645569620e-01
  +5.69620253165e-01
  +6.07594936709e-01
  +6.45569620253e-01
  +6.83544303797e-01
  +7.21518987342e-01
  +7.59493670886e-01
  +7.97468354430e-01
  +8.35443037975e-01
  +8.73417721519e-01
  +9.11392405063e-01
  +9.49367088608e-01
  +9.87341772152e-01
  +1.02531645570e+00
  +1.06329113924e+00
  +1.10126582278e+00
  +1.13924050633e+00
  +1.17721518987e+00
  +1.21518987342e+00
  +1.25316455696e+00
  +1.29113924051e+00
  +1.32911392405e+00
  +1.36708860759e+00
  +1.40506329114e+00
  +1.44303797468e+00
  +1.48101265823e+00
  +1.51898734177e+00
  +1.55696202532e+00
  +1.59493670886e+00
  +1.63291139241e+00
  +1.67088607595e+00
  +1.70886075949e+00
  +1.74683544304e+00
  +1.78481012658e+00
  +1.82278481013e+00
  +1.86075949367e+00
  +1.89873417722e+00
  +1.93670886076e+00
  +1.97468354430e+00
  +2.01265822785e+00
  +2.05063291139e+00
  +2.08860759494e+00
  +2.12658227848e+00
  +2.16455696203e+00
  +2.20253164557e+00
  +2.24050632911e+00
  +2.27848101266e+00
  +2.31645569620e+00
  +2.35443037975e+00
  +2.39240506329e+00
  +2.43037974684e+00
  +2.46835443038e+00
  +2.50632911392e+00
  +2.54430379747e+00
  +2.58227848101e+00
  +2.62025316456e+00
  +2.65822784810e+00
  +2.69620253165e+00
  +2.73417721519e+00
  +2.77215189873e+00
  +2.81012658228e+00
  +2.84810126582e+00
  +2.88607594937e+00
  +2.92405063291e+00
  +2.96202531646e+00
  +3.00000000000e+00
</indep>
<indep Ib 8>
  +1.00000000000e-06
  +1.51428571429e-05
  +2.92857142857e-05
  +4.34285714286e-05
  +5.75714285714e-05
  +7.17142857143e-05
  +8.58571428571e-05
  +1.00000000000e-04
</indep>
<dep Collector.I Uce Ib>
  -9.90099009901e-07
  +2.05649277092e-06
  +1.33073572936e-05
  +4.13769905807e-05
  +7.33155532396e-05
  +8.89023110607e-05
  +9.37164903538e-05
  +9.51834472711e-05
  +9.58179667266e-05
  +9.62567776741e-05
  +9.66501831349e-05
  +9.70330866784e-05
  +9.74135629677e-05
  +9.77934783581e-05
  +9.81732641407e-05
  +9.85530199754e-05
  +9.89327688902e-05
  +9.93125162061e-05
  +9.96922631526e-05
  +1.00072010014e-04
  +1.00451756855e-04
  +1.00831503692e-04
  +1.01211250528e-04
  +1.01590997363e-04
  +1.01970744199e-04
  +1.02350491034e-04
  +1.02730237873e-04
  +1.03109984709e-04
  +1.03489731544e-04
  +1.03869478380e-04
  +1.04249225216e-04
  +1.04628972052e-04
  +1.05008718888e-04
  +1.05388465724e-04
  +1.05768212560e-04
  +1.06147959396e-04
  +1.06527706232e-04
  +1.06907453068e-04
  +1.07287199903e-04
  +1.07666946739e-04
  +1.08046693575e-04
  +1.08426440411e-04
  +1.08806187247e-04
  +1.09185934083e-04
  +1.09565680919e-04
  +1.09945427755e-04
  +1.10325174591e-04
  +1.10704921427e-04
  +1.11084668263e-04
  +1.11464415099e-04
  +1.11844161935e-04
  +1.12223908771e-04
  +1.12603655607e-04
  +1.12983402443e-04
  +1.13363149279e-04
  +1.13742896115e-04
  +1.14122642950e-04
  +1.14502389786e-04
  +1.14882136622e-04
  +1.15261883458e-04
  +1.15641630294e-04
  +1.16021377130e-04
  +1.16401123966e-04
  +1.16780870802e-04
  +1.17160617638e-04
  +1.17540364474e-04
  +1.17920111310e-04
  +1.18299858146e-04
  +1.18679604982e-04
  +1.19059351818e-04
  +1.19439098654e-04
  +1.19818845490e-04
  +1.20198592326e-04
  +1.20578339162e-04
  +1.20958085998e-04
  +1.21337832834e-04
  +1.21717579670e-04
  +1.22097326507e-04
  +1.22477073343e-04
  +1.22856820179e-04
  -1.49929278642e-05
  +3.08001828898e-05
  +1.99911718154e-04
  +6.21831035743e-04
  +1.10192344267e-03
  +1.33624863620e-03
  +1.40865445589e-03
  +1.43074758756e-03
  +1.44032783183e-03
  +1.44696617299e-03
  +1.45292195605e-03
  +1.45871986448e-03
  +1.46448128311e-03
  +1.47023426930e-03
  +1.47598530694e-03
  +1.48173589433e-03
  +1.48748637767e-03
  +1.49323683697e-03
  +1.49898729072e-03
  +1.50473774319e-03
  +1.51048819536e-03
  +1.51623864746e-03
  +1.52198909954e-03
  +1.52773955162e-03
  +1.53349000370e-03
  +1.53924045578e-03
  +1.54499090786e-03
  +1.55074135994e-03
  +1.55649181202e-03
  +1.56224226410e-03
  +1.56799271618e-03
  +1.57374316826e-03
  +1.57949362034e-03
  +1.58524407242e-03
  +1.59099452450e-03
  +1.59674497658e-03
  +1.60249542866e-03
  +1.60824588074e-03
  +1.61399633282e-03
  +1.61974678490e-03
  +1.62549723698e-03
  +1.63124768906e-03
  +1.63699814114e-03
  +1.64274859322e-03
  +1.64849904530e-03
  +1.65424949738e-03
  +1.65999994946e-03
  +1.66575040154e-03
  +1.67150085362e-03
  +1.67725130570e-03
  +1.68300175778e-03
  +1.68875220986e-03
  +1.69450266194e-03
  +1.70025311402e-03
  +1.70600356610e-03
  +1.71175401818e-03
  +1.71750447026e-03
  +1.72325492234e-03
  +1.72900537442e-03
  +1.73475582650e-03
  +1.74050627858e-03
  +1.74625673066e-03
  +1.75200718274e-03
  +1.75775763483e-03
  +1.76350808691e-03
  +1.76925853899e-03
  +1.77500899107e-03
  +1.78075944315e-03
  +1.78650989523e-03
  +1.79226034731e-03
  +1.79801079939e-03
  +1.80376125147e-03
  +1.80951170355e-03
  +1.81526215563e-03
  +1.82101260771e-03
  +1.82676305979e-03
  +1.83251351187e-03
  +1.83826396395e-03
  +1.84401441603e-03
  +1.84976486811e-03
  -2.89957567185e-05
  +5.94063320300e-05
  +3.85870836989e-04
  +1.20037527243e-03
  +2.12719014800e-03
  +2.57956692476e-03
  +2.71936488217e-03
  +2.76203546854e-03
  +2.78055006580e-03
  +2.79338531119e-03
  +2.80490286699e-03
  +2.81611564105e-03
  +2.82725796996e-03
  +2.83838401958e-03
  +2.84950630738e-03
  +2.86062772592e-03
  +2.87174894360e-03
  +2.88287011487e-03
  +2.89399127542e-03
  +2.90511243349e-03
  +2.91623359098e-03
  +2.92735474835e-03
  +2.93847590568e-03
  +2.94959706301e-03
  +2.96071822033e-03
  +2.97183937765e-03
  +2.98296053498e-03
  +2.99408169230e-03
  +3.00520284963e-03
  +3.01632400695e-03
  +3.02744516428e-03
  +3.03856632160e-03
  +3.04968747892e-03
  +3.06080863625e-03
  +3.07192979357e-03
  +3.08305095090e-03
  +3.09417210822e-03
  +3.10529326555e-03
  +3.11641442287e-03
  +3.12753558019e-03
  +3.13865673752e-03
  +3.14977789484e-03
  +3.16089905217e-03
  +3.17202020949e-03
  +3.18314136681e-03
  +3.19426252414e-03
  +3.20538368146e-03
  +3.21650483879e-03
  +3.22762599611e-03
  +3.23874715344e-03
  +3.24986831076e-03
  +3.26098946808e-03
  +3.27211062541e-03
  +3.28323178273e-03
  +3.29435294006e-03
  +3.30547409738e-03
  +3.31659525471e-03
  +3.32771641203e-03
  +3.33883756935e-03
  +3.34995872668e-03
  +3.36107988400e-03
  +3.37220104133e-03
  +3.38332219865e-03
  +3.39444335597e-03
  +3.40556451330e-03
  +3.41668567062e-03
  +3.42780682795e-03
  +3.43892798527e-03
  +3.45004914260e-03
  +3.46117029992e-03
  +3.47229145724e-03
  +3.48341261457e-03
  +3.49453377189e-03
  +3.50565492922e-03
  +3.51677608654e-03
  +3.52789724387e-03
  +3.53901840119e-03
  +3.55013955851e-03
  +3.56126071584e-03
  +3.57238187316e-03
  -4.29985855728e-05
  +8.79534504598e-05
  +5.71553026756e-04
  +1.77809984540e-03
  +3.15102286274e-03
  +3.82115643501e-03
  +4.02826090630e-03
  +4.09148803740e-03
  +4.11893210702e-03
  +4.13796312961e-03
  +4.15504219853e-03
  +4.17166977846e-03
  +4.18819300391e-03
  +4.20469211378e-03
  +4.22118565101e-03
  +4.23767790054e-03
  +4.25416985253e-03
  +4.27066173575e-03
  +4.28715360310e-03
  +4.30364546677e-03
  +4.32013732959e-03
  +4.33662919222e-03
  +4.35312105480e-03
  +4.36961291737e-03
  +4.38610477994e-03
  +4.40259664251e-03
  +4.41908850507e-03
  +4.43558036764e-03
  +4.45207223021e-03
  +4.46856409278e-03
  +4.48505595535e-03
  +4.50154781792e-03
  +4.51803968049e-03
  +4.53453154305e-03
  +4.55102340562e-03
  +4.56751526819e-03
  +4.58400713076e-03
  +4.60049899333e-03
  +4.61699085589e-03
  +4.63348271846e-03
  +4.64997458103e-03
  +4.66646644360e-03
  +4.68295830617e-03
  +4.69945016874e-03
  +4.71594203130e-03
  +4.73243389387e-03
  +4.74892575644e-03
  +4.76541761901e-03
  +4.78190948158e-03
  +4.79840134415e-03
  +4.81489320671e-03
  +4.83138506928e-03
  +4.84787693185e-03
  +4.86436879442e-03
  +4.88086065699e-03
  +4.89735251956e-03
  +4.91384438212e-03
  +4.93033624469e-03
  +4.94682810726e-03
  +4.96331996983e-03
  +4.97981183240e-03
  +4.99630369497e-03
  +5.01279555753e-03
  +5.02928742010e-03
  +5.04577928267e-03
  +5.06227114524e-03
  +5.07876300781e-03
  +5.09525487038e-03
  +5.11174673294e-03
  +5.12823859551e-03
  +5.14473045808e-03
  +5.16122232065e-03
  +5.17771418322e-03
  +5.19420604579e-03
  +5.21069790835e-03
  +5.22718977092e-03
  +5.24368163349e-03
  +5.26017349606e-03
  +5.27666535863e-03
  +5.29315722120e-03
  -5.70014144272e-05
  +1.16461699178e-04
  +7.57052868164e-04
  +2.35528469772e-03
  +4.17391134351e-03
  +5.06160760363e-03
  +5.33596220844e-03
  +5.41973211575e-03
  +5.45610244399e-03
  +5.48132850167e-03
  +5.50396891278e-03
  +5.52601125923e-03
  +5.54791537215e-03
  +5.56978754019e-03
  +5.59165232637e-03
  +5.61351540678e-03
  +5.63537809304e-03
  +5.65724068822e-03
  +5.67910326236e-03
  +5.70096583163e-03
  +5.72282839978e-03
  +5.74469096767e-03
  +5.76655353550e-03
  +5.78841610332e-03
  +5.81027867113e-03
  +5.83214123894e-03
  +5.85400380675e-03
  +5.87586637457e-03
  +5.89772894238e-03
  +5.91959151019e-03
  +5.94145407800e-03
  +5.96331664582e-03
  +5.98517921363e-03
  +6.00704178144e-03
  +6.02890434925e-03
  +6.05076691707e-03
  +6.07262948488e-03
  +6.09449205269e-03
  +6.11635462050e-03
  +6.13821718832e-03
  +6.16007975613e-03
  +6.18194232394e-03
  +6.20380489175e-03
  +6.22566745957e-03
  +6.24753002738e-03
  +6.26939259519e-03
  +6.29125516300e-03
  +6.31311773082e-03
  +6.33498029863e-03
  +6.35684286644e-03
  +6.37870543425e-03
  +6.40056800207e-03
  +6.42243056988e-03
  +6.44429313769e-03
  +6.46615570550e-03
  +6.48801827332e-03
  +6.50988084113e-03
  +6.53174340894e-03
  +6.55360597675e-03
  +6.57546854456e-03
  +6.59733111238e-03
  +6.61919368019e-03
  +6.64105624800e-03
  +6.66291881581e-03
  +6.68478138363e-03
  +6.70664395144e-03
  +6.72850651925e-03
  +6.75036908706e-03
  +6.77223165488e-03
  +6.79409422269e-03
  +6.81595679050e-03
  +6.83781935831e-03
  +6.85968192613e-03
  +6.88154449394e-03
  +6.90340706175e-03
  +6.92526962956e-03
  +6.94713219738e-03
  +6.96899476519e-03
  +6.99085733300e-03
  +7.01271990081e-03
  -7.10042432815e-05
  +1.44940861803e-04
  +9.42416258824e-04
  +2.93206567865e-03
  +5.19609325675e-03
  +6.30120695451e-03
  +6.64276950357e-03
  +6.74707188416e-03
  +6.79236606620e-03
  +6.82378660365e-03
  +6.85198822903e-03
  +6.87944531254e-03
  +6.90673030615e-03
  +6.93397553081e-03
  +6.96121156559e-03
  +6.98844547679e-03
  +7.01567889731e-03
  +7.04291220444e-03
  +7.07014548536e-03
  +7.09737876024e-03
  +7.12461203372e-03
  +7.15184530687e-03
  +7.17907857995e-03
  +7.20631185301e-03
  +7.23354512607e-03
  +7.26077839912e-03
  +7.28801167218e-03
  +7.31524494523e-03
  +7.34247821829e-03
  +7.36971149135e-03
  +7.39694476441e-03
  +7.42417803746e-03
  +7.45141131052e-03
  +7.47864458358e-03
  +7.50587785663e-03
  +7.53311112969e-03
  +7.56034440275e-03
  +7.58757767580e-03
  +7.61481094886e-03
  +7.64204422191e-03
  +7.66927749497e-03
  +7.69651076803e-03
  +7.72374404108e-03
  +7.75097731414e-03
  +7.77821058720e-03
  +7.80544386025e-03
  +7.83267713331e-03
  +7.85991040637e-03
  +7.88714367942e-03
  +7.91437695248e-03
  +7.94161022554e-03
  +7.96884349859e-03
  +7.99607677165e-03
  +8.02331004471e-03
  +8.05054331776e-03
  +8.07777659082e-03
  +8.10500986388e-03
  +8.13224313693e-03
  +8.15947640999e-03
  +8.18670968305e-03
  +8.21394295610e-03
  +8.24117622916e-03
  +8.26840950222e-03
  +8.29564277527e-03
  +8.32287604833e-03
  +8.35010932139e-03
  +8.37734259444e-03
  +8.40457586750e-03
  +8.43180914056e-03
  +8.45904241361e-03
  +8.48627568667e-03
  +8.51350895973e-03
  +8.54074223278e-03
  +8.56797550584e-03
  +8.59520877890e-03
  +8.62244205195e-03
  +8.64967532501e-03
  +8.67690859807e-03
  +8.70414187112e-03
  +8.73137514418e-03
  -8.50070721358e-05
  +1.73396760502e-04
  +1.12767051210e-03
  +3.50852363118e-03
  +6.21771003617e-03
  +7.54012499612e-03
  +7.94886174518e-03
  +8.07368835846e-03
  +8.12790447084e-03
  +8.16551904390e-03
  +8.19928178124e-03
  +8.23215357827e-03
  +8.26481944715e-03
  +8.29743772717e-03
  +8.33004501025e-03
  +8.36264975219e-03
  +8.39525390695e-03
  +8.42785792602e-03
  +8.46046191374e-03
  +8.49306589422e-03
  +8.52566987302e-03
  +8.55827385144e-03
  +8.59087782976e-03
  +8.62348180807e-03
  +8.65608578637e-03
  +8.68868976467e-03
  +8.72129374297e-03
  +8.75389772127e-03
  +8.78650169957e-03
  +8.81910567788e-03
  +8.85170965618e-03
  +8.88431363448e-03
  +8.91691761278e-03
  +8.94952159108e-03
  +8.98212556938e-03
  +9.01472954768e-03
  +9.04733352598e-03
  +9.07993750428e-03
  +9.11254148258e-03
  +9.14514546088e-03
  +9.17774943918e-03
  +9.21035341748e-03
  +9.24295739578e-03
  +9.27556137408e-03
  +9.30816535238e-03
  +9.34076933069e-03
  +9.37337330899e-03
  +9.40597728729e-03
  +9.43858126559e-03
  +9.47118524389e-03
  +9.50378922219e-03
  +9.53639320049e-03
  +9.56899717879e-03
  +9.60160115709e-03
  +9.63420513539e-03
  +9.66680911369e-03
  +9.69941309199e-03
  +9.73201707029e-03
  +9.76462104859e-03
  +9.79722502690e-03
  +9.82982900520e-03
  +9.86243298350e-03
  +9.89503696180e-03
  +9.92764094010e-03
  +9.96024491840e-03
  +9.99284889670e-03
  +1.00254528750e-02
  +1.00580568533e-02
  +1.00906608316e-02
  +1.01232648099e-02
  +1.01558687882e-02
  +1.01884727665e-02
  +1.02210767448e-02
  +1.02536807231e-02
  +1.02862847014e-02
  +1.03188886797e-02
  +1.03514926580e-02
  +1.03840966363e-02
  +1.04167006146e-02
  +1.04493045929e-02
  -9.90099009901e-05
  +2.01833266292e-04
  +1.31283378798e-03
  +4.08471230584e-03
  +7.23885571760e-03
  +8.77847509539e-03
  +9.25435791511e-03
  +9.39970189168e-03
  +9.46283833101e-03
  +9.50664656943e-03
  +9.54597033344e-03
  +9.58425682434e-03
  +9.62230356398e-03
  +9.66029489833e-03
  +9.69827342947e-03
  +9.73624900209e-03
  +9.77422389107e-03
  +9.81219862208e-03
  +9.85017331659e-03
  +9.88814800267e-03
  +9.92612268680e-03
  +9.96409737048e-03
  +1.00020720541e-02
  +1.00400467376e-02
  +1.00780214212e-02
  +1.01159961047e-02
  +1.01539707882e-02
  +1.01919454718e-02
  +1.02299201553e-02
  +1.02678948389e-02
  +1.03058695224e-02
  +1.03438442060e-02
  +1.03818188895e-02
  +1.04197935731e-02
  +1.04577682566e-02
  +1.04957429401e-02
  +1.05337176237e-02
  +1.05716923072e-02
  +1.06096669908e-02
  +1.06476416743e-02
  +1.06856163579e-02
  +1.07235910414e-02
  +1.07615657250e-02
  +1.07995404085e-02
  +1.08375150921e-02
  +1.08754897756e-02
  +1.09134644591e-02
  +1.09514391427e-02
  +1.09894138262e-02
  +1.10273885098e-02
  +1.10653631933e-02
  +1.11033378769e-02
  +1.11413125604e-02
  +1.11792872440e-02
  +1.12172619275e-02
  +1.12552366110e-02
  +1.12932112946e-02
  +1.13311859781e-02
  +1.13691606617e-02
  +1.14071353452e-02
  +1.14451100288e-02
  +1.14830847123e-02
  +1.15210593959e-02
  +1.15590340794e-02
  +1.15970087629e-02
  +1.16349834465e-02
  +1.16729581300e-02
  +1.17109328136e-02
  +1.17489074971e-02
  +1.17868821807e-02
  +1.18248568642e-02
  +1.18628315478e-02
  +1.19008062313e-02
  +1.19387809149e-02
  +1.19767555984e-02
  +1.20147302819e-02
  +1.20527049655e-02
  +1.20906796490e-02
  +1.21286543326e-02
  +1.21666290161e-02
</dep>
<dep V1.I Uce Ib>
  +9.90099009901e-07
  -2.05649277092e-06
  -1.33073572936e-05
  -4.13769905807e-05
  -7.33155532396e-05
  -8.89023110607e-05
  -9.37164903538e-05
  -9.51834472711e-05
  -9.58179667266e-05
  -9.62567776741e-05
  -9.66501831349e-05
  -9.70330866784e-05
  -9.74135629677e-05
  -9.77934783581e-05
  -9.81732641407e-05
  -9.85530199754e-05
  -9.89327688902e-05
  -9.93125162061e-05
  -9.96922631526e-05
  -1.00072010014e-04
  -1.00451756855e-04
  -1.00831503692e-04
  -1.01211250528e-04
  -1.01590997363e-04
  -1.01970744199e-04
  -1.02350491034e-04
  -1.02730237873e-04
  -1.03109984709e-04
  -1.03489731544e-04
  -1.03869478380e-04
  -1.04249225216e-04
  -1.04628972052e-04
  -1.05008718888e-04
  -1.05388465724e-04
  -1.05768212560e-04
  -1.06147959396e-04
  -1.06527706232e-04
  -1.06907453068e-04
  -1.07287199903e-04
  -1.07666946739e-04
  -1.08046693575e-04
  -1.08426440411e-04
  -1.08806187247e-04
  -1.09185934083e-04
  -1.09565680919e-04
  -1.09945427755e-04
  -1.10325174591e-04
  -1.10704921427e-04
  -1.11084668263e-04
  -1.11464415099e-04
  -1.11844161935e-04
  -1.12223908771e-04
  -1.12603655607e-04
  -1.12983402443e-04
  -1.13363149279e-04
  -1.13742896115e-04
  -1.14122642950e-04
  -1.14502389786e-04
  -1.14882136622e-04
  -1.15261883458e-04
  -1.15641630294e-04
  -1.16021377130e-04
  -1.16401123966e-04
  -1.16780870802e-04
  -1.17160617638e-04
  -1.17540364474e-04
  -1.17920111310e-04
  -1.18299858146e-04
  -1.18679604982e-04
  -1.19059351818e-04
  -1.19439098654e-04
  -1.19818845490e-04
  -1.20198592326e-04
  -1.20578339162e-04
  -1.20958085998e-04
  -1.21337832834e-04
  -1.21717579670e-04
  -1.22097326507e-04
  -1.22477073343e-04
  -1.22856820179e-04
  +1.49929278642e-05
  -3.08001828898e-05
  -1.99911718154e-04
  -6.21831035743e-04
  -1.10192344267e-03
  -1.33624863620e-03
  -1.40865445589e-03
  -1.43074758756e-03
  -1.44032783183e-03
  -1.44696617299e-03
  -1.45292195605e-03
  -1.45871986448e-03
  -1.46448128311e-03
  -1.47023426930e-03
  -1.47598530694e-03
  -1.48173589433e-03
  -1.48748637767e-03
  -1.49323683697e-03
  -1.49898729072e-03
  -1.50473774319e-03
  -1.51048819536e-03
  -1.51623864746e-03
  -1.52198909954e-03
  -1.52773955162e-03
  -1.53349000370e-03
  -1.53924045578e-03
  -1.54499090786e-03
  -1.55074135994e-03
  -1.55649181202e-03
  -1.56224226410e-03
  -1.56799271618e-03
  -1.57374316826e-03
  -1.57949362034e-03
  -1.58524407242e-03
  -1.59099452450e-03
  -1.59674497658e-03
  -1.60249542866e-03
  -1.60824588074e-03
  -1.61399633282e-03
  -1.61974678490e-03
  -1.62549723698e-03
  -1.63124768906e-03
  -1.63699814114e-03
  -1.64274859322e-03
  -1.64849904530e-03
  -1.65424949738e-03
  -1.65999994946e-03
  -1.66575040154e-03
  -1.67150085362e-03
  -1.67725130570e-03
  -1.68300175778e-03
  -1.68875220986e-03
  -1.69450266194e-03
  -1.70025311402e-03
  -1.70600356610e-03
  -1.71175401818e-03
  -1.71750447026e-03
  -1.72325492234e-03
  -1.72900537442e-03
  -1.73475582650e-03
  -1.74050627858e-03
  -1.74625673066e-03
  -1.75200718274e-03
  -1.75775763483e-03
  -1.76350808691e-03
  -1.76925853899e-03
  -1.77500899107e-03
  -1.78075944315e-03
  -1.78650989523e-03
  -1.79226034731e-03
  -1.79801079939e-03
  -1.80376125147e-03
  -1.80951170355e-03
  -1.81526215563e-03
  -1.82101260771e-03
  -1.82676305979e-03
  -1.83251351187e-03
  -1.83826396395e-03
  -1.84401441603e-03
  -1.84976486811e-03
  +2.89957567185e-05
  -5.94063320300e-05
  -3.85870836989e-04
  -1.20037527243e-03
  -2.12719014800e-03
  -2.57956692476e-03
  -2.71936488217e-03
  -2.76203546854e-03
  -2.78055006580e-03
  -2.79338531119e-03
  -2.80490286699e-03
  -2.81611564105e-03
  -2.82725796996e-03
  -2.83838401958e-03
  -2.84950630738e-03
  -2.86062772592e-03
  -2.87174894360e-03
  -2.88287011487e-03
  -2.89399127542e-03
  -2.90511243349e-03
  -2.91623359098e-03
  -2.92735474835e-03
  -2.93847590568e-03
  -2.94959706301e-03
  -2.96071822033e-03
  -2.97183937765e-03
  -2.98296053498e-03
  -2.99408169230e-03
  -3.00520284963e-03
  -3.01632400695e-03
  -3.02744516428e-03
  -3.03856632160e-03
  -3.04968747892e-03
  -3.06080863625e-03
  -3.07192979357e-03
  -3.08305095090e-03
  -3.09417210822e-03
  -3.10529326555e-03
  -3.11641442287e-03
  -3.12753558019e-03
  -3.13865673752e-03
  -3.14977789484e-03
  -3.16089905217e-03
  -3.17202020949e-03
  -3.18314136681e-03
  -3.19426252414e-03
  -3.20538368146e-03
  -3.21650483879e-03
  -3.22762599611e-03
  -3.23874715344e-03
  -3.24986831076e-03
  -3.26098946808e-03
  -3.27211062541e-03
  -3.28323178273e-03
  -3.29435294006e-03
  -3.30547409738e-03
  -3.31659525471e-03
  -3.32771641203e-03
