<Qucs Dataset 0.0.20>
<indep time 101>
  +0.00000000000000000000e+00
  +5.00000000000000010408e-04
  +1.00000000000000002082e-03
  +1.50000000000000003123e-03
  +2.00000000000000004163e-03
  +2.50000000000000005204e-03
  +3.00000000000000006245e-03
  +3.50000000000000007286e-03
  +4.00000000000000008327e-03
  +4.50000000000000052736e-03
  +5.00000000000000010408e-03
  +5.49999999999999968081e-03
  +6.00000000000000012490e-03
  +6.50000000000000056899e-03
  +7.00000000000000014572e-03
  +7.49999999999999972244e-03
  +8.00000000000000016653e-03
  +8.50000000000000061062e-03
  +9.00000000000000105471e-03
  +9.49999999999999976408e-03
  +1.00000000000000002082e-02
  +1.05000000000000006523e-02
  +1.09999999999999993616e-02
  +1.14999999999999998057e-02
  +1.20000000000000002498e-02
  +1.25000000000000006939e-02
  +1.30000000000000011380e-02
  +1.34999999999999998473e-02
  +1.40000000000000002914e-02
  +1.45000000000000007355e-02
  +1.49999999999999994449e-02
  +1.54999999999999998890e-02
  +1.60000000000000003331e-02
  +1.65000000000000007772e-02
  +1.70000000000000012212e-02
  +1.75000000000000016653e-02
  +1.80000000000000021094e-02
  +1.84999999999999990841e-02
  +1.89999999999999995282e-02
  +1.94999999999999999722e-02
  +2.00000000000000004163e-02
  +2.05000000000000008604e-02
  +2.10000000000000013045e-02
  +2.15000000000000017486e-02
  +2.19999999999999987232e-02
  +2.24999999999999991673e-02
  +2.29999999999999996114e-02
  +2.35000000000000000555e-02
  +2.40000000000000004996e-02
  +2.45000000000000009437e-02
  +2.50000000000000013878e-02
  +2.55000000000000018319e-02
  +2.60000000000000022760e-02
  +2.64999999999999992506e-02
  +2.69999999999999996947e-02
  +2.75000000000000001388e-02
  +2.80000000000000005829e-02
  +2.85000000000000010270e-02
  +2.90000000000000014710e-02
  +2.95000000000000019151e-02
  +2.99999999999999988898e-02
  +3.04999999999999993339e-02
  +3.09999999999999997780e-02
  +3.15000000000000002220e-02
  +3.20000000000000006661e-02
  +3.25000000000000011102e-02
  +3.30000000000000015543e-02
  +3.35000000000000019984e-02
  +3.40000000000000024425e-02
  +3.45000000000000028866e-02
  +3.50000000000000033307e-02
  +3.55000000000000037748e-02
  +3.60000000000000042188e-02
  +3.64999999999999977240e-02
  +3.69999999999999981681e-02
  +3.74999999999999986122e-02
  +3.79999999999999990563e-02
  +3.84999999999999995004e-02
  +3.89999999999999999445e-02
  +3.95000000000000003886e-02
  +4.00000000000000008327e-02
  +4.05000000000000012768e-02
  +4.10000000000000017208e-02
  +4.15000000000000021649e-02
  +4.20000000000000026090e-02
  +4.25000000000000030531e-02
  +4.30000000000000034972e-02
  +4.35000000000000039413e-02
  +4.39999999999999974465e-02
  +4.44999999999999978906e-02
  +4.49999999999999983347e-02
  +4.54999999999999987788e-02
  +4.59999999999999992228e-02
  +4.64999999999999996669e-02
  +4.70000000000000001110e-02
  +4.75000000000000005551e-02
  +4.80000000000000009992e-02
  +4.85000000000000014433e-02
  +4.90000000000000018874e-02
  +4.95000000000000023315e-02
  +5.00000000000000027756e-02
</indep>
<dep V1.It time>
  +1.21056000000000184291e-02
  +6.06119999999999749252e-03
  +0.00000000000000000000e+00
  -1.19975999999999988904e-02
  -2.40047999999999997489e-02
  -3.60132000000000021545e-02
  -4.80143999999999987471e-02
  -5.99999999999999977796e-02
  -6.41152000000000110713e-02
  -6.81896000000000029884e-02
  -7.22063999999999900359e-02
  -7.61488000000000025969e-02
  -8.00000000000000016653e-02
  -4.80431999999999734263e-02
  -1.60215999999999865466e-02
  +1.60215999999999796077e-02
  +4.80432000000000219986e-02
  +7.99999999999999877875e-02
  +7.61344000000000048489e-02
  +7.21811999999999870381e-02
  +6.81607999999999936147e-02
  +6.40935999999999866938e-02
  +6.00000000000000185962e-02
  +5.40468000000000198257e-02
  +4.80864000000000083035e-02
  +4.21175999999999980949e-02
  +3.61391999999999963267e-02
  +3.01499999999999893086e-02
  +2.41487999999999841672e-02
  +1.81343999999999741513e-02
  +1.21056000000000184291e-02
  +6.06119999999999749252e-03
  +0.00000000000000000000e+00
  -1.19976000000000110335e-02
  -2.40048000000000205656e-02
  -3.60132000000000368489e-02
  -4.80144000000000403805e-02
  -5.99999999999999769629e-02
  -6.41151999999999971935e-02
  -6.81896000000000029884e-02
  -7.22063999999999900359e-02
  -7.61488000000000025969e-02
  -7.99999999999999461542e-02
  -4.80431999999999179152e-02
  -1.60216000000001010384e-02
  +1.60215999999999240966e-02
  +4.80431999999999734263e-02
  +8.00000000000000016653e-02
  +7.61344000000000048489e-02
  +7.21811999999999870381e-02
  +6.81607999999999936147e-02
  +6.40935999999999866938e-02
  +5.99999999999999839018e-02
  +5.40468000000000198257e-02
  +4.80864000000000083035e-02
  +4.21175999999999980949e-02
  +3.61391999999999963267e-02
  +3.01499999999999893086e-02
  +2.41487999999999841672e-02
  +1.81343999999999741513e-02
  +1.21056000000000184291e-02
  +6.06119999999999749252e-03
  +0.00000000000000000000e+00
  -1.19976000000000110335e-02
  -2.40048000000000205656e-02
  -3.60132000000000368489e-02
  -4.80144000000000403805e-02
  -6.00000000000000185962e-02
  -6.41152000000000249491e-02
  -6.81896000000000307439e-02
  -7.22064000000000316692e-02
  -7.61488000000000303524e-02
  -7.99999999999997241096e-02
  -4.80432000000001330209e-02
  -1.60216000000001010384e-02
  +1.60215999999999240966e-02
  +4.80431999999999734263e-02
  +8.00000000000000016653e-02
  +7.61344000000000048489e-02
  +7.21811999999999870381e-02
  +6.81607999999999936147e-02
  +6.40935999999999866938e-02
  +5.99999999999999839018e-02
  +5.40467999999999712535e-02
  +4.80863999999999736090e-02
  +4.21175999999999634005e-02
  +3.61391999999999546933e-02
  +3.01499999999999476752e-02
  +2.41488000000000258005e-02
  +1.81344000000000192541e-02
  +1.21056000000000184291e-02
  +6.06119999999999749252e-03
  +0.00000000000000000000e+00
  -1.19976000000000110335e-02
  -2.40048000000000205656e-02
  -3.60132000000000368489e-02
  -4.80144000000000403805e-02
  -6.00000000000000185962e-02
  -6.41152000000000249491e-02
  -6.81896000000000307439e-02
  -7.22064000000000316692e-02
</dep>
<dep V2.It time>
  +6.00000000000000619643e-03
  +3.00000000000000309822e-03
  +0.00000000000000000000e+00
  -6.00000000000000012490e-03
  -1.20000000000000002498e-02
  -1.80000000000000021094e-02
  -2.40000000000000004996e-02
  -2.99999999999999988898e-02
  -3.20000000000000006661e-02
  -3.40000000000000024425e-02
  -3.60000000000000042188e-02
  -3.79999999999999990563e-02
  -4.00000000000000008327e-02
  -2.39999999999999831524e-02
  -7.99999999999999496236e-03
  +7.99999999999999496236e-03
  +2.40000000000000143774e-02
  +4.00000000000000008327e-02
  +3.79999999999999990563e-02
  +3.59999999999999972800e-02
  +3.39999999999999955036e-02
  +3.19999999999999937272e-02
  +3.00000000000000092981e-02
  +2.70000000000000066336e-02
  +2.40000000000000039690e-02
  +2.10000000000000013045e-02
  +1.79999999999999986400e-02
  +1.49999999999999959754e-02
  +1.19999999999999915762e-02
  +8.99999999999998891165e-03
  +6.00000000000000619643e-03
  +3.00000000000000309822e-03
  +0.00000000000000000000e+00
  -6.00000000000000532907e-03
  -1.20000000000000106581e-02
  -1.80000000000000159872e-02
  -2.40000000000000213163e-02
  -2.99999999999999815425e-02
  -3.20000000000000006661e-02
  -3.40000000000000024425e-02
  -3.60000000000000042188e-02
  -3.80000000000000059952e-02
  -3.99999999999999730771e-02
  -2.39999999999999553968e-02
  -8.00000000000005047351e-03
  +7.99999999999996720679e-03
  +2.39999999999999831524e-02
  +4.00000000000000008327e-02
  +3.79999999999999990563e-02
  +3.59999999999999972800e-02
  +3.39999999999999955036e-02
  +3.19999999999999937272e-02
  +2.99999999999999919509e-02
  +2.70000000000000066336e-02
  +2.40000000000000039690e-02
  +2.10000000000000013045e-02
  +1.79999999999999986400e-02
  +1.49999999999999959754e-02
  +1.19999999999999915762e-02
  +8.99999999999998891165e-03
  +6.00000000000000619643e-03
  +3.00000000000000309822e-03
  +0.00000000000000000000e+00
  -6.00000000000000532907e-03
  -1.20000000000000106581e-02
  -1.80000000000000159872e-02
  -2.40000000000000213163e-02
  -3.00000000000000092981e-02
  -3.20000000000000145439e-02
  -3.40000000000000163203e-02
  -3.60000000000000180966e-02
  -3.80000000000000198730e-02
  -3.99999999999998620548e-02
  -2.40000000000000664191e-02
  -8.00000000000005047351e-03
  +7.99999999999996720679e-03
  +2.39999999999999831524e-02
  +4.00000000000000008327e-02
  +3.79999999999999990563e-02
  +3.59999999999999972800e-02
  +3.39999999999999955036e-02
  +3.19999999999999937272e-02
  +2.99999999999999919509e-02
  +2.69999999999999892863e-02
  +2.39999999999999831524e-02
  +2.09999999999999804878e-02
  +1.79999999999999778233e-02
  +1.49999999999999734240e-02
  +1.20000000000000123929e-02
  +9.00000000000000972833e-03
  +6.00000000000000619643e-03
  +3.00000000000000309822e-03
  +0.00000000000000000000e+00
  -6.00000000000000532907e-03
  -1.20000000000000106581e-02
  -1.80000000000000159872e-02
  -2.40000000000000213163e-02
  -3.00000000000000092981e-02
  -3.20000000000000145439e-02
  -3.40000000000000163203e-02
  -3.60000000000000180966e-02
</dep>
<dep U2.Vt time>
  -3.00000000000000321965e-01
  -1.50000000000000160982e-01
  +0.00000000000000000000e+00
  +2.99999999999999988898e-01
  +5.99999999999999977796e-01
  +9.00000000000000133227e-01
  +1.19999999999999995559e+00
  +1.50000000000000000000e+00
  +1.60000000000000008882e+00
  +1.70000000000000017764e+00
  +1.80000000000000026645e+00
  +1.89999999999999991118e+00
  +2.00000000000000000000e+00
  +1.19999999999999906741e+00
  +3.99999999999999744649e-01
  -3.99999999999999744649e-01
  -1.20000000000000062172e+00
  -2.00000000000000000000e+00
  -1.89999999999999991118e+00
  -1.79999999999999982236e+00
  -1.69999999999999973355e+00
  -1.59999999999999964473e+00
  -1.50000000000000044409e+00
  -1.35000000000000031086e+00
  -1.20000000000000017764e+00
  -1.05000000000000004441e+00
  -8.99999999999999911182e-01
  -7.49999999999999777955e-01
  -5.99999999999999533706e-01
  -4.49999999999999400480e-01
  -3.00000000000000321965e-01
  -1.50000000000000160982e-01
  +0.00000000000000000000e+00
  +3.00000000000000266454e-01
  +6.00000000000000532907e-01
  +9.00000000000000799361e-01
  +1.20000000000000106581e+00
  +1.49999999999999911182e+00
  +1.60000000000000008882e+00
  +1.70000000000000017764e+00
  +1.80000000000000026645e+00
  +1.90000000000000035527e+00
  +1.99999999999999866773e+00
  +1.19999999999999773515e+00
  +4.00000000000002520206e-01
  -3.99999999999998356870e-01
  -1.19999999999999906741e+00
  -2.00000000000000000000e+00
  -1.89999999999999991118e+00
  -1.79999999999999982236e+00
  -1.69999999999999973355e+00
  -1.59999999999999964473e+00
  -1.49999999999999955591e+00
  -1.35000000000000031086e+00
  -1.20000000000000017764e+00
  -1.05000000000000004441e+00
  -8.99999999999999911182e-01
  -7.49999999999999777955e-01
  -5.99999999999999533706e-01
  -4.49999999999999400480e-01
  -3.00000000000000321965e-01
  -1.50000000000000160982e-01
  +0.00000000000000000000e+00
  +3.00000000000000266454e-01
  +6.00000000000000532907e-01
  +9.00000000000000799361e-01
  +1.20000000000000106581e+00
  +1.50000000000000044409e+00
  +1.60000000000000075495e+00
  +1.70000000000000084377e+00
  +1.80000000000000093259e+00
  +1.90000000000000102141e+00
  +1.99999999999999311662e+00
  +1.20000000000000328626e+00
  +4.00000000000002520206e-01
  -3.99999999999998356870e-01
  -1.19999999999999906741e+00
  -2.00000000000000000000e+00
  -1.89999999999999991118e+00
  -1.79999999999999982236e+00
  -1.69999999999999973355e+00
  -1.59999999999999964473e+00
  -1.49999999999999955591e+00
  -1.34999999999999942268e+00
  -1.19999999999999906741e+00
  -1.04999999999999893419e+00
  -8.99999999999998800959e-01
  -7.49999999999998667732e-01
  -6.00000000000000643929e-01
  -4.50000000000000455191e-01
  -3.00000000000000321965e-01
  -1.50000000000000160982e-01
  +0.00000000000000000000e+00
  +3.00000000000000266454e-01
  +6.00000000000000532907e-01
  +9.00000000000000799361e-01
  +1.20000000000000106581e+00
  +1.50000000000000044409e+00
  +1.60000000000000075495e+00
  +1.70000000000000084377e+00
  +1.80000000000000093259e+00
</dep>
<dep U1.Vt time>
  -6.05280000000000928395e-01
  -3.03059999999999885034e-01
  +0.00000000000000000000e+00
  +5.99879999999999968807e-01
  +1.20023999999999997357e+00
  +1.80066000000000014936e+00
  +2.40071999999999974307e+00
  +3.00000000000000000000e+00
  +3.20576000000000016499e+00
  +3.40948000000000028820e+00
  +3.61031999999999975159e+00
  +3.80743999999999971351e+00
  +4.00000000000000000000e+00
  +2.40215999999999851866e+00
  +8.01079999999999348148e-01
  -8.01079999999998904059e-01
  -2.40216000000000118320e+00
  -3.99999999999999955591e+00
  -3.80671999999999988162e+00
  -3.60905999999999949068e+00
  -3.40803999999999973625e+00
  -3.20467999999999930694e+00
  -3.00000000000000088818e+00
  -2.70234000000000085251e+00
  -2.40432000000000023476e+00
  -2.10587999999999997414e+00
  -1.80695999999999967756e+00
  -1.50749999999999939604e+00
  -1.20743999999999918060e+00
  -9.06719999999998638174e-01
  -6.05280000000000928395e-01
  -3.03059999999999885034e-01
  +0.00000000000000000000e+00
  +5.99880000000000523919e-01
  +1.20024000000000108379e+00
  +1.80066000000000170367e+00
  +2.40072000000000196351e+00
  +2.99999999999999866773e+00
  +3.20575999999999972090e+00
  +3.40947999999999984411e+00
  +3.61031999999999975159e+00
  +3.80744000000000015760e+00
  +3.99999999999999733546e+00
  +2.40215999999999585413e+00
  +8.01080000000005121308e-01
  -8.01079999999996239524e-01
  -2.40215999999999851866e+00
  -4.00000000000000000000e+00
  -3.80671999999999988162e+00
  -3.60905999999999949068e+00
  -3.40803999999999973625e+00
  -3.20467999999999930694e+00
  -2.99999999999999911182e+00
  -2.70234000000000085251e+00
  -2.40432000000000023476e+00
  -2.10587999999999997414e+00
  -1.80695999999999967756e+00
  -1.50749999999999939604e+00
  -1.20743999999999918060e+00
  -9.06719999999998638174e-01
  -6.05280000000000928395e-01
  -3.03059999999999885034e-01
  +0.00000000000000000000e+00
  +5.99880000000000523919e-01
  +1.20024000000000108379e+00
  +1.80066000000000170367e+00
  +2.40072000000000196351e+00
  +3.00000000000000088818e+00
  +3.20576000000000105317e+00
  +3.40948000000000117637e+00
  +3.61032000000000152795e+00
  +3.80744000000000148987e+00
  +3.99999999999998623323e+00
  +2.40216000000000651227e+00
  +8.01080000000005121308e-01
  -8.01079999999996239524e-01
  -2.40215999999999851866e+00
  -4.00000000000000000000e+00
  -3.80671999999999988162e+00
  -3.60905999999999949068e+00
  -3.40803999999999973625e+00
  -3.20467999999999930694e+00
  -2.99999999999999911182e+00
  -2.70233999999999863206e+00
  -2.40431999999999845841e+00
  -2.10587999999999819778e+00
  -1.80695999999999767915e+00
  -1.50749999999999739764e+00
  -1.20744000000000117900e+00
  -9.06720000000000858620e-01
  -6.05280000000000928395e-01
  -3.03059999999999885034e-01
  +0.00000000000000000000e+00
  +5.99880000000000523919e-01
  +1.20024000000000108379e+00
  +1.80066000000000170367e+00
  +2.40072000000000196351e+00
  +3.00000000000000088818e+00
  +3.20576000000000105317e+00
  +3.40948000000000117637e+00
  +3.61032000000000152795e+00
</dep>
