<Qucs Dataset 0.0.20>
<indep Vx 101>
  +0.00000000000000000000e+00
  +2.99999999999999988898e-02
  +5.99999999999999977796e-02
  +8.99999999999999966693e-02
  +1.19999999999999995559e-01
  +1.49999999999999994449e-01
  +1.79999999999999993339e-01
  +2.09999999999999992228e-01
  +2.39999999999999991118e-01
  +2.70000000000000017764e-01
  +2.99999999999999988898e-01
  +3.29999999999999960032e-01
  +3.59999999999999986677e-01
  +3.90000000000000013323e-01
  +4.19999999999999984457e-01
  +4.49999999999999955591e-01
  +4.79999999999999982236e-01
  +5.10000000000000008882e-01
  +5.40000000000000035527e-01
  +5.69999999999999951150e-01
  +5.99999999999999977796e-01
  +6.30000000000000004441e-01
  +6.59999999999999920064e-01
  +6.89999999999999946709e-01
  +7.19999999999999973355e-01
  +7.50000000000000000000e-01
  +7.80000000000000026645e-01
  +8.09999999999999942268e-01
  +8.39999999999999968914e-01
  +8.69999999999999995559e-01
  +8.99999999999999911182e-01
  +9.29999999999999937828e-01
  +9.59999999999999964473e-01
  +9.89999999999999991118e-01
  +1.02000000000000001776e+00
  +1.05000000000000004441e+00
  +1.08000000000000007105e+00
  +1.10999999999999987566e+00
  +1.13999999999999990230e+00
  +1.16999999999999992895e+00
  +1.19999999999999995559e+00
  +1.22999999999999998224e+00
  +1.26000000000000000888e+00
  +1.29000000000000003553e+00
  +1.31999999999999984013e+00
  +1.34999999999999986677e+00
  +1.37999999999999989342e+00
  +1.40999999999999992006e+00
  +1.43999999999999994671e+00
  +1.46999999999999997335e+00
  +1.50000000000000000000e+00
  +1.53000000000000002665e+00
  +1.56000000000000005329e+00
  +1.58999999999999985789e+00
  +1.61999999999999988454e+00
  +1.64999999999999991118e+00
  +1.67999999999999993783e+00
  +1.70999999999999996447e+00
  +1.73999999999999999112e+00
  +1.77000000000000001776e+00
  +1.79999999999999982236e+00
  +1.82999999999999984901e+00
  +1.85999999999999987566e+00
  +1.88999999999999990230e+00
  +1.91999999999999992895e+00
  +1.94999999999999995559e+00
  +1.97999999999999998224e+00
  +2.00999999999999978684e+00
  +2.04000000000000003553e+00
  +2.06999999999999984013e+00
  +2.10000000000000008882e+00
  +2.12999999999999989342e+00
  +2.16000000000000014211e+00
  +2.18999999999999994671e+00
  +2.21999999999999975131e+00
  +2.25000000000000000000e+00
  +2.27999999999999980460e+00
  +2.31000000000000005329e+00
  +2.33999999999999985789e+00
  +2.37000000000000010658e+00
  +2.39999999999999991118e+00
  +2.42999999999999971578e+00
  +2.45999999999999996447e+00
  +2.48999999999999976907e+00
  +2.52000000000000001776e+00
  +2.54999999999999982236e+00
  +2.58000000000000007105e+00
  +2.60999999999999987566e+00
  +2.63999999999999968026e+00
  +2.66999999999999992895e+00
  +2.69999999999999973355e+00
  +2.72999999999999998224e+00
  +2.75999999999999978684e+00
  +2.79000000000000003553e+00
  +2.81999999999999984013e+00
  +2.85000000000000008882e+00
  +2.87999999999999989342e+00
  +2.90999999999999969802e+00
  +2.93999999999999994671e+00
  +2.96999999999999975131e+00
  +3.00000000000000000000e+00
</indep>
<dep Rout Vx>
  +3.87082013141317247573e+02
  +5.35451596820352051509e+02
  +1.20182094324015406528e+03
  +3.38689293424690094980e+03
  +1.03785793243706211797e+04
  +3.26973791912440938177e+04
  +1.03926737259263696615e+05
  +3.31246574663316889200e+05
  +1.05670858051911275834e+06
  +3.37192670026762783527e+06
  +1.07606455883914325386e+07
  +3.43407852866356298327e+07
  +1.09593747957997679710e+08
  +3.49753835578331291676e+08
  +1.11619366339602756500e+09
  +3.56218735243651342392e+09
  +1.13682586010268249512e+10
  +3.62802826392036590576e+10
  +1.15784143764107620239e+11
  +3.69507220872327636719e+11
  +1.17926426064516406250e+12
  +3.76341566318238378906e+12
  +1.20103017432604707031e+13
  +3.83057736779045781250e+13
  +1.22554325260138671875e+14
  +3.93096751331389250000e+14
  +1.27744601555873175000e+15
  +4.49140815659729500000e+15
  +1.03457929725566880000e+16
  +2.19938348925506720000e+16
  -6.38957671437690080000e+16
  +2.15611294368033920000e+16
  +1.00889481337589232000e+17
  +2.76368055237741050000e+15
  +4.99123360178768400000e+15
  +5.43425168657460100000e+15
  +5.26104117921479000000e+15
  +5.03134366621794600000e+15
  +4.76338152838175300000e+15
  +5.25611505721015300000e+15
  +5.71432245478286400000e+15
  +4.84558014185002500000e+15
  +4.85131013069048200000e+15
  +5.03095618826472000000e+15
  +5.01384400439729400000e+15
  +5.21020673092749400000e+15
  +5.03134366621796400000e+15
  +4.85217108419780800000e+15
  +5.23970772440179100000e+15
  +5.39267087470287600000e+15
  +4.87160675846821400000e+15
  +5.14317141698674700000e+15
  +5.14752001294941600000e+15
  +4.89556448413777300000e+15
  +5.39247886220956200000e+15
  +5.04285904288494400000e+15
  +5.04285904288494400000e+15
  +5.20271643769156100000e+15
  +5.03671234143780000000e+15
  +4.85706628386352600000e+15
  +4.86284878098703600000e+15
  +5.21264813337242200000e+15
  +5.38603821826906600000e+15
  +4.89781619018728400000e+15
  +4.53661745930883900000e+15
  +5.29640414590915400000e+15
  +5.64443439102118500000e+15
  +4.88464770442088600000e+15
  +4.69577527112663900000e+15
  +5.43213752080796400000e+15
  +5.27795831853180900000e+15
  +5.04942722663916000000e+15
  +4.89993037074048800000e+15
  +4.71016794622244800000e+15
  +5.43008997556830600000e+15
  +5.63308535853229600000e+15
  +4.90011743878474000000e+15
  +4.91348077120556600000e+15
  +5.22455016243239200000e+15
  +5.19138568781136100000e+15
  +5.20842044018803100000e+15
  +5.02522619942428200000e+15
  +4.70145346365710500000e+15
  +5.11974698006775600000e+15
  +5.44351971583493400000e+15
  +5.20842044018807100000e+15
  +5.05792252816480000000e+15
  +5.05138622879770400000e+15
  +5.02144993526688800000e+15
  +4.85622598520712500000e+15
  +5.00839653794146800000e+15
  +5.21332126198931900000e+15
  +5.08102331262013600000e+15
  +5.04785883799910600000e+15
  +5.19703824516109800000e+15
  +5.22350463670141900000e+15
  +5.21785207935164500000e+15
  +4.68579130594055200000e+15
  +4.70855604715771600000e+15
  +5.03095618826473900000e+15
  +5.01952219692781100000e+15
</dep>
<dep Ix Vx>
  -4.95049504950496979975e-05
  +2.79980049033131260148e-05
  +7.18691233411645921626e-05
  +8.93128021477231645933e-05
  +9.52487354269078011649e-05
  +9.71591748560793187122e-05
  +9.77628990507717267767e-05
  +9.79525780959454220711e-05
  +9.80120628108276207039e-05
  +9.80307069364160985330e-05
  +9.80365494599814822239e-05
  +9.80383802326672366620e-05
  +9.80389539007637834120e-05
  +9.80391336572487083522e-05
  +9.80391899830891167325e-05
  +9.80392076325139528482e-05
  +9.80392131628729876112e-05
  +9.80392148957835691354e-05
  +9.80392154387832556912e-05
  +9.80392156089287966853e-05
  +9.80392156622436660232e-05
  +9.80392156789489988868e-05
  +9.80392156841836896058e-05
  +9.80392156858239655201e-05
  +9.80392156863383516883e-05
  +9.80392156864989626876e-05
  +9.80392156865490121704e-05
  +9.80392156865643536311e-05
  +9.80392156865686226772e-05
  +9.80392156865708181866e-05
  +9.80392156865718075211e-05
  +9.80392156865716177857e-05
  +9.80392156865717668635e-05
  +9.80392156866271424894e-05
  +9.80392156866331598115e-05
  +9.80392156866391635810e-05
  +9.80392156866442728838e-05
  +9.80392156866507238867e-05
  +9.80392156866562668703e-05
  +9.80392156866635581299e-05
  +9.80392156866682473043e-05
  +9.80392156866742104163e-05
  +9.80392156866806478667e-05
  +9.80392156866865974261e-05
  +9.80392156866925740906e-05
  +9.80392156866985643076e-05
  +9.80392156867041072912e-05
  +9.80392156867105582941e-05
  +9.80392156867164943010e-05
  +9.80392156867220237321e-05
  +9.80392156867276209258e-05
  +9.80392156867344649520e-05
  +9.80392156867395471497e-05
  +9.80392156867463776234e-05
  +9.80392156867519341595e-05
  +9.80392156867575042482e-05
  +9.80392156867638874885e-05
  +9.80392156867694575771e-05
  +9.80392156867754342416e-05
  +9.80392156867813702485e-05
  +9.80392156867878076989e-05
  +9.80392156867937301533e-05
  +9.80392156867993273470e-05
  +9.80392156868048703306e-05
  +9.80392156868117143568e-05
  +9.80392156868181111496e-05
  +9.80392156868231933473e-05
  +9.80392156868287634360e-05
  +9.80392156868356074622e-05
  +9.80392156868415976792e-05
  +9.80392156868467205344e-05
  +9.80392156868531037747e-05
  +9.80392156868586603109e-05
  +9.80392156868654772320e-05
  +9.80392156868714538965e-05
  +9.80392156868765903043e-05
  +9.80392156868821197354e-05
  +9.80392156868889773141e-05
  +9.80392156868944796401e-05
  +9.80392156869004834097e-05
  +9.80392156869060534983e-05
  +9.80392156869120166103e-05
  +9.80392156869179932747e-05
  +9.80392156869248373010e-05
  +9.80392156869299601562e-05
  +9.80392156869359232682e-05
  +9.80392156869414933568e-05
  +9.80392156869478359395e-05
  +9.80392156869534195807e-05
  +9.80392156869598434786e-05
  +9.80392156869657930380e-05
  +9.80392156869718239126e-05
  +9.80392156869773262386e-05
  +9.80392156869836959264e-05
  +9.80392156869892660151e-05
  +9.80392156869952562321e-05
  +9.80392156870007721106e-05
  +9.80392156870067758801e-05
  +9.80392156870136334589e-05
  +9.80392156870195830183e-05
  +9.80392156870255596828e-05
</dep>
<dep V1.I Vx>
  +4.95049504950496979975e-05
  -2.79980049033131260148e-05
  -7.18691233411645921626e-05
  -8.93128021477231645933e-05
  -9.52487354269078011649e-05
  -9.71591748560793187122e-05
  -9.77628990507717267767e-05
  -9.79525780959454220711e-05
  -9.80120628108276207039e-05
  -9.80307069364160985330e-05
  -9.80365494599814822239e-05
  -9.80383802326672366620e-05
  -9.80389539007637834120e-05
  -9.80391336572487083522e-05
  -9.80391899830891167325e-05
  -9.80392076325139528482e-05
  -9.80392131628729876112e-05
  -9.80392148957835691354e-05
  -9.80392154387832556912e-05
  -9.80392156089287966853e-05
  -9.80392156622436660232e-05
  -9.80392156789489988868e-05
  -9.80392156841836896058e-05
  -9.80392156858239655201e-05
  -9.80392156863383516883e-05
  -9.80392156864989626876e-05
  -9.80392156865490121704e-05
  -9.80392156865643536311e-05
  -9.80392156865686226772e-05
  -9.80392156865708181866e-05
  -9.80392156865718075211e-05
  -9.80392156865716177857e-05
  -9.80392156865717668635e-05
  -9.80392156866271424894e-05
  -9.80392156866331598115e-05
  -9.80392156866391635810e-05
  -9.80392156866442728838e-05
  -9.80392156866507238867e-05
  -9.80392156866562668703e-05
  -9.80392156866635581299e-05
  -9.80392156866682473043e-05
  -9.80392156866742104163e-05
  -9.80392156866806478667e-05
  -9.80392156866865974261e-05
  -9.80392156866925740906e-05
  -9.80392156866985643076e-05
  -9.80392156867041072912e-05
  -9.80392156867105582941e-05
  -9.80392156867164943010e-05
  -9.80392156867220237321e-05
  -9.80392156867276209258e-05
  -9.80392156867344649520e-05
  -9.80392156867395471497e-05
  -9.80392156867463776234e-05
  -9.80392156867519341595e-05
  -9.80392156867575042482e-05
  -9.80392156867638874885e-05
  -9.80392156867694575771e-05
  -9.80392156867754342416e-05
  -9.80392156867813702485e-05
  -9.80392156867878076989e-05
  -9.80392156867937301533e-05
  -9.80392156867993273470e-05
  -9.80392156868048703306e-05
  -9.80392156868117143568e-05
  -9.80392156868181111496e-05
  -9.80392156868231933473e-05
  -9.80392156868287634360e-05
  -9.80392156868356074622e-05
  -9.80392156868415976792e-05
  -9.80392156868467205344e-05
  -9.80392156868531037747e-05
  -9.80392156868586603109e-05
  -9.80392156868654772320e-05
  -9.80392156868714538965e-05
  -9.80392156868765903043e-05
  -9.80392156868821197354e-05
  -9.80392156868889773141e-05
  -9.80392156868944796401e-05
  -9.80392156869004834097e-05
  -9.80392156869060534983e-05
  -9.80392156869120166103e-05
  -9.80392156869179932747e-05
  -9.80392156869248373010e-05
  -9.80392156869299601562e-05
  -9.80392156869359232682e-05
  -9.80392156869414933568e-05
  -9.80392156869478359395e-05
  -9.80392156869534195807e-05
  -9.80392156869598434786e-05
  -9.80392156869657930380e-05
  -9.80392156869718239126e-05
  -9.80392156869773262386e-05
  -9.80392156869836959264e-05
  -9.80392156869892660151e-05
  -9.80392156869952562321e-05
  -9.80392156870007721106e-05
  -9.80392156870067758801e-05
  -9.80392156870136334589e-05
  -9.80392156870195830183e-05
  -9.80392156870255596828e-05
</dep>
<dep V2.I Vx>
  +4.95049504950496979975e-05
  +7.49993437181951461482e-05
  +8.94306326780145544693e-05
  +9.51686849170141981090e-05
  +9.71212945483250554395e-05
  +9.77497285710791203282e-05
  +9.79483220561750002981e-05
  +9.80107164789292644152e-05
  +9.80302838193513437865e-05
  +9.80364167554000819288e-05
  +9.80383386381519425761e-05
  +9.80389408660090977497e-05
  +9.80391295726198329840e-05
  +9.80391887030423558706e-05
  +9.80392072312793381962e-05
  +9.80392130370111964614e-05
  +9.80392148562083738010e-05
  +9.80392154262447692746e-05
  +9.80392156048627810404e-05
  +9.80392156608318450593e-05
  +9.80392156783695199306e-05
  +9.80392156838648121944e-05
  +9.80392156855867556373e-05
  +9.80392156861263359535e-05
  +9.80392156862953901772e-05
  +9.80392156863483534533e-05
  +9.80392156863649824041e-05
  +9.80392156863699561816e-05
  +9.80392156863714063020e-05
  +9.80392156863719348506e-05
  +9.80392156863721787961e-05
  +9.80392156863722872163e-05
  +9.80392156863723820840e-05
  +9.80392156863995142433e-05
  +9.80392156864024686943e-05
  +9.80392156864054366977e-05
  +9.80392156864083775961e-05
  +9.80392156864113320470e-05
  +9.80392156864142864979e-05
  +9.80392156864172273963e-05
  +9.80392156864201818472e-05
  +9.80392156864231227456e-05
  +9.80392156864260636440e-05
  +9.80392156864289774374e-05
  +9.80392156864319318883e-05
  +9.80392156864348998917e-05
  +9.80392156864378272376e-05
  +9.80392156864408087936e-05
  +9.80392156864437225869e-05
  +9.80392156864466228277e-05
  +9.80392156864496314888e-05
  +9.80392156864525588346e-05
  +9.80392156864554726280e-05
  +9.80392156864584270789e-05
  +9.80392156864613544247e-05
  +9.80392156864643224282e-05
  +9.80392156864672497741e-05
  +9.80392156864702042250e-05
  +9.80392156864731451234e-05
  +9.80392156864760724692e-05
  +9.80392156864790269202e-05
  +9.80392156864819271610e-05
  +9.80392156864848951644e-05
  +9.80392156864878360628e-05
  +9.80392156864907905137e-05
  +9.80392156864937178596e-05
  +9.80392156864966452055e-05
  +9.80392156864996132089e-05
  +9.80392156865025405548e-05
  +9.80392156865054950057e-05
  +9.80392156865084359041e-05
  +9.80392156865113632500e-05
  +9.80392156865143041483e-05
  +9.80392156865172314942e-05
  +9.80392156865201859451e-05
  +9.80392156865231268435e-05
  +9.80392156865260677419e-05
  +9.80392156865290086403e-05
  +9.80392156865319224337e-05
  +9.80392156865349039896e-05
  +9.80392156865378448880e-05
  +9.80392156865407722339e-05
  +9.80392156865437131323e-05
  +9.80392156865466811357e-05
  +9.80392156865496084816e-05
  +9.80392156865525493800e-05
  +9.80392156865555038309e-05
  +9.80392156865583905192e-05
  +9.80392156865613720752e-05
  +9.80392156865643265261e-05
  +9.80392156865672403194e-05
  +9.80392156865702218754e-05
  +9.80392156865731492213e-05
  +9.80392156865760494621e-05
  +9.80392156865790174655e-05
  +9.80392156865819719164e-05
  +9.80392156865848857098e-05
  +9.80392156865878401607e-05
  +9.80392156865907946116e-05
  +9.80392156865937084050e-05
  +9.80392156865966493033e-05
</dep>
<dep _net1.V Vx>
  +6.96141488272626007827e-01
  +7.06880594436797182745e-01
  +7.11430135697431631492e-01
  +7.13037813383445850945e-01
  +7.13562860585587821483e-01
  +7.13729600116741580429e-01
  +7.13782069177890221567e-01
  +7.13798532032108079548e-01
  +7.13803692743103068707e-01
  +7.13805310038096774150e-01
  +7.13805816830217265689e-01
  +7.13805975633038714001e-01
  +7.13806025393310950022e-01
  +7.13806040985461520698e-01
  +7.13806045871186345408e-01
  +7.13806047402103960309e-01
  +7.13806047881809235811e-01
  +7.13806048032122553160e-01
  +7.13806048079222543734e-01
  +7.13806048093981071467e-01
  +7.13806048098605483432e-01
  +7.13806048100054657546e-01
  +7.13806048100508738763e-01
  +7.13806048100651513444e-01
  +7.13806048100697587699e-01
  +7.13806048100709467086e-01
  +7.13806048100713907978e-01
  +7.13806048100715129223e-01
  +7.13806048100715573312e-01
  +7.13806048100715795357e-01
  +7.13806048100715906379e-01
  +7.13806048100715906379e-01
  +7.13806048100715795357e-01
  +7.13806048100723122829e-01
  +7.13806048100723899985e-01
  +7.13806048100724566119e-01
  +7.13806048100725232253e-01
  +7.13806048100726231453e-01
  +7.13806048100726786565e-01
  +7.13806048100727674743e-01
  +7.13806048100728451899e-01
  +7.13806048100729229056e-01
  +7.13806048100730006212e-01
  +7.13806048100730894390e-01
  +7.13806048100731671546e-01
  +7.13806048100732226658e-01
  +7.13806048100733003814e-01
  +7.13806048100734003015e-01
  +7.13806048100734780171e-01
  +7.13806048100735446305e-01
  +7.13806048100736334483e-01
  +7.13806048100737222661e-01
  +7.13806048100737999818e-01
  +7.13806048100739110041e-01
  +7.13806048100739998219e-01
  +7.13806048100741219464e-01
  +7.13806048100742662754e-01
  +7.13806048100744328089e-01
  +7.13806048100742329687e-01
  +7.13806048100743106843e-01
  +7.13806048100743995022e-01
  +7.13806048100744883200e-01
  +7.13806048100745438312e-01
  +7.13806048100746215468e-01
  +7.13806048100747103646e-01
  +7.13806048100747991825e-01
  +7.13806048100748546936e-01
  +7.13806048100749324092e-01
  +7.13806048100750212271e-01
  +7.13806048100750989427e-01
  +7.13806048100751655561e-01
  +7.13806048100752543739e-01
  +7.13806048100753320895e-01
  +7.13806048100754209074e-01
  +7.13806048100754875207e-01
  +7.13806048100755541341e-01
  +7.13806048100756318497e-01
  +7.13806048100757206676e-01
  +7.13806048100757872810e-01
  +7.13806048100758760988e-01
  +7.13806048100759427122e-01
  +7.13806048100760204278e-01
  +7.13806048100760981434e-01
  +7.13806048100761869613e-01
  +7.13806048100762535746e-01
  +7.13806048100763312902e-01
  +7.13806048100764090059e-01
  +7.13806048100764867215e-01
  +7.13806048100765644371e-01
  +7.13806048100766421527e-01
  +7.13806048100767198683e-01
  +7.13806048100767975839e-01
  +7.13806048100768752995e-01
  +7.13806048100769641174e-01
  +7.13806048100770307308e-01
  +7.13806048100771084464e-01
  +7.13806048100771861620e-01
  +7.13806048100772638776e-01
  +7.13806048100773415932e-01
  +7.13806048100774304110e-01
  +7.13806048100774970244e-01
</dep>
<dep _net0.V Vx>
  +0.00000000000000000000e+00
  +2.99999999999999988898e-02
  +5.99999999999999977796e-02
  +8.99999999999999966693e-02
  +1.19999999999999995559e-01
  +1.49999999999999994449e-01
  +1.79999999999999993339e-01
  +2.09999999999999992228e-01
  +2.39999999999999991118e-01
  +2.70000000000000017764e-01
  +2.99999999999999988898e-01
  +3.29999999999999960032e-01
  +3.59999999999999986677e-01
  +3.90000000000000013323e-01
  +4.19999999999999984457e-01
  +4.49999999999999955591e-01
  +4.79999999999999982236e-01
  +5.10000000000000008882e-01
  +5.40000000000000035527e-01
  +5.69999999999999951150e-01
  +5.99999999999999977796e-01
  +6.30000000000000004441e-01
  +6.59999999999999920064e-01
  +6.89999999999999946709e-01
  +7.19999999999999973355e-01
  +7.50000000000000000000e-01
  +7.80000000000000026645e-01
  +8.09999999999999942268e-01
  +8.39999999999999968914e-01
  +8.69999999999999995559e-01
  +8.99999999999999911182e-01
  +9.29999999999999937828e-01
  +9.59999999999999964473e-01
  +9.89999999999999991118e-01
  +1.02000000000000001776e+00
  +1.05000000000000004441e+00
  +1.08000000000000007105e+00
  +1.10999999999999987566e+00
  +1.13999999999999990230e+00
  +1.16999999999999992895e+00
  +1.19999999999999995559e+00
  +1.22999999999999998224e+00
  +1.26000000000000000888e+00
  +1.29000000000000003553e+00
  +1.31999999999999984013e+00
  +1.34999999999999986677e+00
  +1.37999999999999989342e+00
  +1.40999999999999992006e+00
  +1.43999999999999994671e+00
  +1.46999999999999997335e+00
  +1.50000000000000000000e+00
  +1.53000000000000002665e+00
  +1.56000000000000005329e+00
  +1.58999999999999985789e+00
  +1.61999999999999988454e+00
