<Qucs Dataset 0.0.17>
<indep time 201>
  +0.00000000000e+00
  +5.00000000000e-06
  +1.00000000000e-05
  +1.50000000000e-05
  +2.00000000000e-05
  +2.50000000000e-05
  +3.00000000000e-05
  +3.50000000000e-05
  +4.00000000000e-05
  +4.50000000000e-05
  +5.00000000000e-05
  +5.50000000000e-05
  +6.00000000000e-05
  +6.50000000000e-05
  +7.00000000000e-05
  +7.50000000000e-05
  +8.00000000000e-05
  +8.50000000000e-05
  +9.00000000000e-05
  +9.50000000000e-05
  +1.00000000000e-04
  +1.05000000000e-04
  +1.10000000000e-04
  +1.15000000000e-04
  +1.20000000000e-04
  +1.25000000000e-04
  +1.30000000000e-04
  +1.35000000000e-04
  +1.40000000000e-04
  +1.45000000000e-04
  +1.50000000000e-04
  +1.55000000000e-04
  +1.60000000000e-04
  +1.65000000000e-04
  +1.70000000000e-04
  +1.75000000000e-04
  +1.80000000000e-04
  +1.85000000000e-04
  +1.90000000000e-04
  +1.95000000000e-04
  +2.00000000000e-04
  +2.05000000000e-04
  +2.10000000000e-04
  +2.15000000000e-04
  +2.20000000000e-04
  +2.25000000000e-04
  +2.30000000000e-04
  +2.35000000000e-04
  +2.40000000000e-04
  +2.45000000000e-04
  +2.50000000000e-04
  +2.55000000000e-04
  +2.60000000000e-04
  +2.65000000000e-04
  +2.70000000000e-04
  +2.75000000000e-04
  +2.80000000000e-04
  +2.85000000000e-04
  +2.90000000000e-04
  +2.95000000000e-04
  +3.00000000000e-04
  +3.05000000000e-04
  +3.10000000000e-04
  +3.15000000000e-04
  +3.20000000000e-04
  +3.25000000000e-04
  +3.30000000000e-04
  +3.35000000000e-04
  +3.40000000000e-04
  +3.45000000000e-04
  +3.50000000000e-04
  +3.55000000000e-04
  +3.60000000000e-04
  +3.65000000000e-04
  +3.70000000000e-04
  +3.75000000000e-04
  +3.80000000000e-04
  +3.85000000000e-04
  +3.90000000000e-04
  +3.95000000000e-04
  +4.00000000000e-04
  +4.05000000000e-04
  +4.10000000000e-04
  +4.15000000000e-04
  +4.20000000000e-04
  +4.25000000000e-04
  +4.30000000000e-04
  +4.35000000000e-04
  +4.40000000000e-04
  +4.45000000000e-04
  +4.50000000000e-04
  +4.55000000000e-04
  +4.60000000000e-04
  +4.65000000000e-04
  +4.70000000000e-04
  +4.75000000000e-04
  +4.80000000000e-04
  +4.85000000000e-04
  +4.90000000000e-04
  +4.95000000000e-04
  +5.00000000000e-04
  +5.05000000000e-04
  +5.10000000000e-04
  +5.15000000000e-04
  +5.20000000000e-04
  +5.25000000000e-04
  +5.30000000000e-04
  +5.35000000000e-04
  +5.40000000000e-04
  +5.45000000000e-04
  +5.50000000000e-04
  +5.55000000000e-04
  +5.60000000000e-04
  +5.65000000000e-04
  +5.70000000000e-04
  +5.75000000000e-04
  +5.80000000000e-04
  +5.85000000000e-04
  +5.90000000000e-04
  +5.95000000000e-04
  +6.00000000000e-04
  +6.05000000000e-04
  +6.10000000000e-04
  +6.15000000000e-04
  +6.20000000000e-04
  +6.25000000000e-04
  +6.30000000000e-04
  +6.35000000000e-04
  +6.40000000000e-04
  +6.45000000000e-04
  +6.50000000000e-04
  +6.55000000000e-04
  +6.60000000000e-04
  +6.65000000000e-04
  +6.70000000000e-04
  +6.75000000000e-04
  +6.80000000000e-04
  +6.85000000000e-04
  +6.90000000000e-04
  +6.95000000000e-04
  +7.00000000000e-04
  +7.05000000000e-04
  +7.10000000000e-04
  +7.15000000000e-04
  +7.20000000000e-04
  +7.25000000000e-04
  +7.30000000000e-04
  +7.35000000000e-04
  +7.40000000000e-04
  +7.45000000000e-04
  +7.50000000000e-04
  +7.55000000000e-04
  +7.60000000000e-04
  +7.65000000000e-04
  +7.70000000000e-04
  +7.75000000000e-04
  +7.80000000000e-04
  +7.85000000000e-04
  +7.90000000000e-04
  +7.95000000000e-04
  +8.00000000000e-04
  +8.05000000000e-04
  +8.10000000000e-04
  +8.15000000000e-04
  +8.20000000000e-04
  +8.25000000000e-04
  +8.30000000000e-04
  +8.35000000000e-04
  +8.40000000000e-04
  +8.45000000000e-04
  +8.50000000000e-04
  +8.55000000000e-04
  +8.60000000000e-04
  +8.65000000000e-04
  +8.70000000000e-04
  +8.75000000000e-04
  +8.80000000000e-04
  +8.85000000000e-04
  +8.90000000000e-04
  +8.95000000000e-04
  +9.00000000000e-04
  +9.05000000000e-04
  +9.10000000000e-04
  +9.15000000000e-04
  +9.20000000000e-04
  +9.25000000000e-04
  +9.30000000000e-04
  +9.35000000000e-04
  +9.40000000000e-04
  +9.45000000000e-04
  +9.50000000000e-04
  +9.55000000000e-04
  +9.60000000000e-04
  +9.65000000000e-04
  +9.70000000000e-04
  +9.75000000000e-04
  +9.80000000000e-04
  +9.85000000000e-04
  +9.90000000000e-04
  +9.95000000000e-04
  +1.00000000000e-03
</indep>
<indep V2 15>
  +0.00000000000e+00
  +1.07142857143e-01
  +2.14285714286e-01
  +3.21428571429e-01
  +4.28571428571e-01
  +5.35714285714e-01
  +6.42857142857e-01
  +7.50000000000e-01
  +8.57142857143e-01
  +9.64285714286e-01
  +1.07142857143e+00
  +1.17857142857e+00
  +1.28571428571e+00
  +1.39285714286e+00
  +1.50000000000e+00
</indep>
<dep Pr1.Vt time>
  +1.58493816369e+01
  +1.58493533620e+01
  +1.58493532129e+01
  +1.58493532129e+01
  +1.58493532130e+01
  +1.58493532131e+01
  +1.58493532131e+01
  +1.58493532132e+01
  +1.58493532133e+01
  +1.58493532133e+01
  +1.58493532134e+01
  +1.58493532135e+01
  +1.58493532135e+01
  +1.58493532136e+01
  +1.58493532137e+01
  +1.58493532138e+01
  +1.58493532138e+01
  +1.58493532139e+01
  +1.58493532140e+01
  +1.58493532140e+01
  +1.58493532141e+01
  +1.58493532142e+01
  +1.58493532142e+01
  +1.58493532143e+01
  +1.58493532144e+01
  +1.58493532144e+01
  +1.58493532145e+01
  +1.58493532145e+01
  +1.58493532146e+01
  +1.58493532147e+01
  +1.58493532147e+01
  +1.58493532148e+01
  +1.58493532149e+01
  +1.58493532149e+01
  +1.58493532150e+01
  +1.58493532151e+01
  +1.58493532151e+01
  +1.58493532152e+01
  +1.58493532153e+01
  +1.58493532153e+01
  +1.58493532154e+01
  +1.58493532155e+01
  +1.58493532155e+01
  +1.58493532156e+01
  +1.58493532157e+01
  +1.58493532157e+01
  +1.58493532158e+01
  +1.58493532158e+01
  +1.58493532159e+01
  +1.58493532160e+01
  +1.58493532160e+01
  +1.58493532161e+01
  +1.58493532162e+01
  +1.58493532162e+01
  +1.58493532163e+01
  +1.58493532164e+01
  +1.58493532164e+01
  +1.58493532165e+01
  +1.58493532165e+01
  +1.58493532166e+01
  +1.58493532167e+01
  +1.58493532167e+01
  +1.58493532168e+01
  +1.58493532169e+01
  +1.58493532169e+01
  +1.58493532170e+01
  +1.58493532170e+01
  +1.58493532171e+01
  +1.58493532172e+01
  +1.58493532172e+01
  +1.58493532173e+01
  +1.58493532173e+01
  +1.58493532174e+01
  +1.58493532175e+01
  +1.58493532175e+01
  +1.58493532176e+01
  +1.58493532177e+01
  +1.58493532177e+01
  +1.58493532178e+01
  +1.58493532178e+01
  +1.58493532179e+01
  +1.58493532180e+01
  +1.58493532180e+01
  +1.58493532181e+01
  +1.58493532181e+01
  +1.58493532182e+01
  +1.58493532183e+01
  +1.58493532183e+01
  +1.58493532184e+01
  +1.58493532184e+01
  +1.58493532185e+01
  +1.58493532186e+01
  +1.58493532186e+01
  +1.58493532187e+01
  +1.58493532187e+01
  +1.58493532188e+01
  +1.58493532189e+01
  +1.58493532189e+01
  +1.58493532190e+01
  +1.58493532190e+01
  +1.58493532191e+01
  +1.58493532191e+01
  +1.58493532192e+01
  +1.58493532193e+01
  +1.58493532193e+01
  +1.58493532194e+01
  +1.58493532194e+01
  +1.58493532195e+01
  +1.58493532196e+01
  +1.58493532196e+01
  +1.58493532197e+01
  +1.58493532197e+01
  +1.58493532198e+01
  +1.58493532198e+01
  +1.58493532199e+01
  +1.58493532200e+01
  +1.58493532200e+01
  +1.58493532201e+01
  +1.58493532201e+01
  +1.58493532202e+01
  +1.58493532202e+01
  +1.58493532203e+01
  +1.58493532204e+01
  +1.58493532204e+01
  +1.58493532205e+01
  +1.58493532205e+01
  +1.58493532206e+01
  +1.58493532206e+01
  +1.58493532207e+01
  +1.58493532208e+01
  +1.58493532208e+01
  +1.58493532209e+01
  +1.58493532209e+01
  +1.58493532210e+01
  +1.58493532210e+01
  +1.58493532211e+01
  +1.58493532211e+01
  +1.58493532212e+01
  +1.58493532213e+01
  +1.58493532213e+01
  +1.58493532214e+01
  +1.58493532214e+01
  +1.58493532215e+01
  +1.58493532215e+01
  +1.58493532216e+01
  +1.58493532216e+01
  +1.58493532217e+01
  +1.58493532217e+01
  +1.58493532218e+01
  +1.58493532219e+01
  +1.58493532219e+01
  +1.58493532220e+01
  +1.58493532220e+01
  +1.58493532221e+01
  +1.58493532221e+01
  +1.58493532222e+01
  +1.58493532222e+01
  +1.58493532223e+01
  +1.58493532223e+01
  +1.58493532224e+01
  +1.58493532225e+01
  +1.58493532225e+01
  +1.58493532226e+01
  +1.58493532226e+01
  +1.58493532227e+01
  +1.58493532227e+01
  +1.58493532228e+01
  +1.58493532228e+01
  +1.58493532229e+01
  +1.58493532229e+01
  +1.58493532230e+01
  +1.58493532230e+01
  +1.58493532231e+01
  +1.58493532231e+01
  +1.58493532232e+01
  +1.58493532232e+01
  +1.58493532233e+01
  +1.58493532233e+01
  +1.58493532234e+01
  +1.58493532235e+01
  +1.58493532235e+01
  +1.58493532236e+01
  +1.58493532236e+01
  +1.58493532237e+01
  +1.58493532237e+01
  +1.58493532238e+01
  +1.58493532238e+01
  +1.58493532239e+01
  +1.58493532239e+01
  +1.58493532240e+01
  +1.58493532240e+01
  +1.58493532241e+01
  +1.58493532241e+01
  +1.58493532242e+01
  +1.58493532242e+01
  +1.58493532243e+01
  +1.58493532243e+01
  +1.58493532244e+01
  +1.58493532244e+01
  +1.58493532245e+01
  +1.58493532245e+01
</dep>
<dep V1.It time>
  -3.16987632737e-03
  -3.16987067239e-03
  -3.16987064257e-03
  -3.16987064259e-03
  -3.16987064260e-03
  -3.16987064261e-03
  -3.16987064263e-03
  -3.16987064264e-03
  -3.16987064266e-03
  -3.16987064267e-03
  -3.16987064268e-03
  -3.16987064270e-03
  -3.16987064271e-03
  -3.16987064272e-03
  -3.16987064274e-03
  -3.16987064275e-03
  -3.16987064276e-03
  -3.16987064278e-03
  -3.16987064279e-03
  -3.16987064280e-03
  -3.16987064282e-03
  -3.16987064283e-03
  -3.16987064284e-03
  -3.16987064286e-03
  -3.16987064287e-03
  -3.16987064288e-03
  -3.16987064290e-03
  -3.16987064291e-03
  -3.16987064292e-03
  -3.16987064294e-03
  -3.16987064295e-03
  -3.16987064296e-03
  -3.16987064298e-03
  -3.16987064299e-03
  -3.16987064300e-03
  -3.16987064301e-03
  -3.16987064303e-03
  -3.16987064304e-03
  -3.16987064305e-03
  -3.16987064307e-03
  -3.16987064308e-03
  -3.16987064309e-03
  -3.16987064310e-03
  -3.16987064312e-03
  -3.16987064313e-03
  -3.16987064314e-03
  -3.16987064316e-03
  -3.16987064317e-03
  -3.16987064318e-03
  -3.16987064319e-03
  -3.16987064321e-03
  -3.16987064322e-03
  -3.16987064323e-03
  -3.16987064325e-03
  -3.16987064326e-03
  -3.16987064327e-03
  -3.16987064328e-03
  -3.16987064330e-03
  -3.16987064331e-03
  -3.16987064332e-03
  -3.16987064333e-03
  -3.16987064335e-03
  -3.16987064336e-03
  -3.16987064337e-03
  -3.16987064338e-03
  -3.16987064340e-03
  -3.16987064341e-03
  -3.16987064342e-03
  -3.16987064343e-03
  -3.16987064344e-03
  -3.16987064346e-03
  -3.16987064347e-03
  -3.16987064348e-03
  -3.16987064349e-03
  -3.16987064351e-03
  -3.16987064352e-03
  -3.16987064353e-03
  -3.16987064354e-03
  -3.16987064356e-03
  -3.16987064357e-03
  -3.16987064358e-03
  -3.16987064359e-03
  -3.16987064360e-03
  -3.16987064362e-03
  -3.16987064363e-03
  -3.16987064364e-03
  -3.16987064365e-03
  -3.16987064366e-03
  -3.16987064368e-03
  -3.16987064369e-03
  -3.16987064370e-03
  -3.16987064371e-03
  -3.16987064372e-03
  -3.16987064374e-03
  -3.16987064375e-03
  -3.16987064376e-03
  -3.16987064377e-03
  -3.16987064378e-03
  -3.16987064379e-03
  -3.16987064381e-03
  -3.16987064382e-03
  -3.16987064383e-03
  -3.16987064384e-03
  -3.16987064385e-03
  -3.16987064386e-03
  -3.16987064388e-03
  -3.16987064389e-03
  -3.16987064390e-03
  -3.16987064391e-03
  -3.16987064392e-03
  -3.16987064393e-03
  -3.16987064395e-03
  -3.16987064396e-03
  -3.16987064397e-03
  -3.16987064398e-03
  -3.16987064399e-03
  -3.16987064400e-03
  -3.16987064401e-03
  -3.16987064403e-03
  -3.16987064404e-03
  -3.16987064405e-03
  -3.16987064406e-03
  -3.16987064407e-03
  -3.16987064408e-03
  -3.16987064409e-03
  -3.16987064411e-03
  -3.16987064412e-03
  -3.16987064413e-03
  -3.16987064414e-03
  -3.16987064415e-03
  -3.16987064416e-03
  -3.16987064417e-03
  -3.16987064418e-03
  -3.16987064420e-03
  -3.16987064421e-03
  -3.16987064422e-03
  -3.16987064423e-03
  -3.16987064424e-03
  -3.16987064425e-03
  -3.16987064426e-03
  -3.16987064427e-03
  -3.16987064428e-03
  -3.16987064430e-03
  -3.16987064431e-03
  -3.16987064432e-03
  -3.16987064433e-03
  -3.16987064434e-03
  -3.16987064435e-03
  -3.16987064436e-03
  -3.16987064437e-03
  -3.16987064438e-03
  -3.16987064439e-03
  -3.16987064440e-03
  -3.16987064442e-03
  -3.16987064443e-03
  -3.16987064444e-03
  -3.16987064445e-03
  -3.16987064446e-03
  -3.16987064447e-03
  -3.16987064448e-03
  -3.16987064449e-03
  -3.16987064450e-03
  -3.16987064451e-03
  -3.16987064452e-03
  -3.16987064453e-03
  -3.16987064454e-03
  -3.16987064455e-03
  -3.16987064456e-03
  -3.16987064458e-03
  -3.16987064459e-03
  -3.16987064460e-03
  -3.16987064461e-03
  -3.16987064462e-03
  -3.16987064463e-03
  -3.16987064464e-03
  -3.16987064465e-03
  -3.16987064466e-03
  -3.16987064467e-03
  -3.16987064468e-03
  -3.16987064469e-03
  -3.16987064470e-03
  -3.16987064471e-03
  -3.16987064472e-03
  -3.16987064473e-03
  -3.16987064474e-03
  -3.16987064475e-03
  -3.16987064476e-03
  -3.16987064477e-03
  -3.16987064478e-03
  -3.16987064479e-03
  -3.16987064480e-03
  -3.16987064481e-03
  -3.16987064482e-03
  -3.16987064483e-03
  -3.16987064484e-03
  -3.16987064485e-03
  -3.16987064486e-03
  -3.16987064487e-03
  -3.16987064488e-03
  -3.16987064489e-03
  -3.16987064490e-03
</dep>
<dep V2.It time>
  -6.14393577342e-03
  -6.14420581970e-03
  -6.14420685265e-03
  -6.14420685197e-03
  -6.14420685130e-03
  -6.14420685063e-03
  -6.14420684997e-03
  -6.14420684930e-03
  -6.14420684864e-03
  -6.14420684798e-03
  -6.14420684732e-03
  -6.14420684666e-03
  -6.14420684600e-03
  -6.14420684534e-03
  -6.14420684468e-03
  -6.14420684403e-03
  -6.14420684337e-03
  -6.14420684272e-03
  -6.14420684206e-03
  -6.14420684141e-03
  -6.14420684076e-03
  -6.14420684011e-03
  -6.14420683946e-03
  -6.14420683882e-03
  -6.14420683817e-03
  -6.14420683752e-03
  -6.14420683688e-03
  -6.14420683623e-03
  -6.14420683559e-03
  -6.14420683495e-03
  -6.14420683431e-03
  -6.14420683367e-03
  -6.14420683303e-03
  -6.14420683239e-03
  -6.14420683176e-03
  -6.14420683112e-03
  -6.14420683048e-03
  -6.14420682985e-03
  -6.14420682922e-03
  -6.14420682859e-03
  -6.14420682796e-03
  -6.14420682733e-03
  -6.14420682670e-03
  -6.14420682607e-03
  -6.14420682544e-03
  -6.14420682482e-03
  -6.14420682419e-03
  -6.14420682357e-03
  -6.14420682294e-03
  -6.14420682232e-03
  -6.14420682170e-03
  -6.14420682108e-03
  -6.14420682046e-03
  -6.14420681984e-03
  -6.14420681923e-03
  -6.14420681861e-03
  -6.14420681799e-03
  -6.14420681738e-03
  -6.14420681677e-03
  -6.14420681615e-03
  -6.14420681554e-03
  -6.14420681493e-03
  -6.14420681432e-03
  -6.14420681371e-03
  -6.14420681311e-03
  -6.14420681250e-03
  -6.14420681189e-03
  -6.14420681129e-03
  -6.14420681068e-03
  -6.14420681008e-03
  -6.14420680948e-03
  -6.14420680888e-03
  -6.14420680828e-03
  -6.14420680768e-03
  -6.14420680708e-03
  -6.14420680648e-03
  -6.14420680589e-03
  -6.14420680529e-03
  -6.14420680470e-03
  -6.14420680410e-03
  -6.14420680351e-03
  -6.14420680292e-03
  -6.14420680233e-03
  -6.14420680174e-03
  -6.14420680115e-03
  -6.14420680056e-03
  -6.14420679997e-03
  -6.14420679939e-03
  -6.14420679880e-03
  -6.14420679822e-03
  -6.14420679763e-03
  -6.14420679705e-03
  -6.14420679647e-03
  -6.14420679589e-03
  -6.14420679531e-03
  -6.14420679473e-03
  -6.14420679415e-03
  -6.14420679357e-03
  -6.14420679300e-03
  -6.14420679242e-03
  -6.14420679185e-03
  -6.14420679127e-03
  -6.14420679070e-03
  -6.14420679013e-03
  -6.14420678956e-03
  -6.14420678899e-03
  -6.14420678842e-03
  -6.14420678785e-03
  -6.14420678728e-03
  -6.14420678671e-03
  -6.14420678615e-03
  -6.14420678558e-03
  -6.14420678502e-03
  -6.14420678446e-03
  -6.14420678389e-03
  -6.14420678333e-03
  -6.14420678277e-03
  -6.14420678221e-03
  -6.14420678165e-03
  -6.14420678110e-03
  -6.14420678054e-03
  -6.14420677998e-03
  -6.14420677943e-03
  -6.14420677887e-03
  -6.14420677832e-03
  -6.14420677777e-03
  -6.14420677722e-03
  -6.14420677666e-03
  -6.14420677611e-03
  -6.14420677557e-03
  -6.14420677502e-03
  -6.14420677447e-03
  -6.14420677392e-03
  -6.14420677338e-03
  -6.14420677283e-03
  -6.14420677229e-03
  -6.14420677174e-03
  -6.14420677120e-03
  -6.14420677066e-03
  -6.14420677012e-03
  -6.14420676958e-03
  -6.14420676904e-03
  -6.14420676850e-03
  -6.14420676796e-03
  -6.14420676743e-03
  -6.14420676689e-03
  -6.14420676636e-03
  -6.14420676582e-03
  -6.14420676529e-03
  -6.14420676476e-03
  -6.14420676423e-03
  -6.14420676370e-03
  -6.14420676316e-03
  -6.14420676264e-03
  -6.14420676211e-03
  -6.14420676158e-03
  -6.14420676105e-03
  -6.14420676053e-03
  -6.14420676000e-03
  -6.14420675948e-03
  -6.14420675896e-03
  -6.14420675843e-03
  -6.14420675791e-03
  -6.14420675739e-03
  -6.14420675687e-03
  -6.14420675635e-03
  -6.14420675583e-03
  -6.14420675531e-03
  -6.14420675480e-03
  -6.14420675428e-03
  -6.14420675377e-03
  -6.14420675325e-03
  -6.14420675274e-03
  -6.14420675222e-03
  -6.14420675171e-03
  -6.14420675120e-03
  -6.14420675069e-03
  -6.14420675018e-03
  -6.14420674967e-03
  -6.14420674916e-03
  -6.14420674866e-03
  -6.14420674815e-03
  -6.14420674764e-03
  -6.14420674714e-03
  -6.14420674663e-03
  -6.14420674613e-03
  -6.14420674563e-03
  -6.14420674513e-03
  -6.14420674462e-03
  -6.14420674412e-03
  -6.14420674362e-03
  -6.14420674313e-03
  -6.14420674263e-03
  -6.14420674213e-03
  -6.14420674163e-03
  -6.14420674114e-03
  -6.14420674064e-03
  -6.14420674015e-03
  -6.14420673966e-03
  -6.14420673916e-03
  -6.14420673867e-03
</dep>
<dep V3.It time>
  -4.96115518769e-04
  -5.04026989868e-04
  -5.11951426546e-04
  -5.19854308498e-04
  -5.27702591991e-04
  -5.35463045078e-04
  -5.43102428660e-04
  -5.50587675704e-04
  -5.57886072259e-04
  -5.64965438776e-04
  -5.71794310120e-04
  -5.78342112828e-04
  -5.84579338228e-04
  -5.90477710096e-04
  -5.96010345666e-04
  -6.01151908884e-04
  -6.05878754872e-04
  -6.10169064729e-04
  -6.14002969805e-04
  -6.17362664762e-04
  -6.20232508769e-04
  -6.22599114267e-04
  -6.24451422866e-04
  -6.25780767949e-04
  -6.26580923702e-04
  -6.26848140287e-04
  -6.26581165039e-04
  -6.25781249523e-04
  -6.24452142483e-04
  -6.22600068654e-04
  -6.20233693588e-04
  -6.17364074633e-04
  -6.14004598339e-04
  -6.10170904562e-04
  -6.05880797704e-04
  -6.01154145527e-04
  -5.96012766092e-04
  -5.90480303489e-04
  -5.84582093050e-04
  -5.78345016874e-04
  -5.71797350584e-04
  -5.64968602331e-04
  -5.57889345109e-04
  -5.50591043675e-04
  -5.43105877270e-04
  -5.35466559602e-04
  -5.27706157554e-04
  -5.19857910140e-04
  -5.11955049303e-04
  -5.04030624244e-04
  -4.96117330864e-04
  -4.88247348026e-04
  -4.80452182184e-04
  -4.72762521938e-04
  -4.65208103921e-04
  -4.57817591275e-04
  -4.50618465807e-04
  -4.43636934685e-04
  -4.36897852265e-04
  -4.30424657387e-04
  -4.24239326135e-04
  -4.18362339810e-04
  -4.12812667429e-04
  -4.07607761858e-04
  -4.02763568337e-04
  -3.98294543878e-04
  -3.94213685837e-04
  -3.90532567676e-04
  -3.87261379948e-04
  -3.84408974311e-04
  -3.81982908500e-04
  -3.79989490189e-04
  -3.78433817769e-04
  -3.77319816323e-04
  -3.76650267293e-04
  -3.76426830563e-04
  -3.76650058080e-04
  -3.77319398476e-04
  -3.78433192452e-04
  -3.79988659153e-04
  -3.81981874093e-04
  -3.84407739484e-04
  -3.87259948278e-04
  -3.90530943370e-04
  -3.94211873744e-04
  -3.98292549503e-04
  -4.02761397853e-04
  -4.07605422115e-04
  -4.12810165954e-04
  -4.18359684813e-04
  -4.24236526502e-04
  -4.30421722679e-04
  -4.36894792698e-04
  -4.43633761108e-04
  -4.50615189684e-04
  -4.57814224648e-04
  -4.65204659378e-04
  -4.72759012562e-04
  -4.80448621515e-04
  -4.88243749996e-04
  -4.96113709746e-04
  -5.04026994586e-04
  -5.11951425865e-04
  -5.19854307819e-04
  -5.27702591319e-04
  -5.35463044408e-04
  -5.43102427995e-04
  -5.50587675040e-04
  -5.57886071600e-04
  -5.64965438119e-04
  -5.71794309465e-04
  -5.78342112176e-04
  -5.84579337579e-04
  -5.90477709448e-04
  -5.96010345021e-04
  -6.01151908243e-04
  -6.05878754234e-04
  -6.10169064093e-04
  -6.14002969172e-04
  -6.17362664132e-04
  -6.20232508141e-04
  -6.22599113642e-04
  -6.24451422243e-04
  -6.25780767328e-04
  -6.26580923083e-04
