<Qucs Dataset 0.0.20>
<indep Av 1>
  +1.26666666666666660745e+01
</indep>
<indep RE1 1>
  +1.20000000000000000000e+01
</indep>
<indep RF1 1>
  +1.40000000000000000000e+02
</indep>
<indep acfrequency 100>
  +1.00000000000000000000e+04
  +1.17681195243499842036e+04
  +1.38488637139387301431e+04
  +1.62975083462064412743e+04
  +1.91791026167248855927e+04
  +2.25701971963392024918e+04
  +2.65608778294668663875e+04
  +3.12571584968823626696e+04
  +3.67837977182863396592e+04
  +4.32876128108305929345e+04
  +5.09413801481638001860e+04
  +5.99484250318941049045e+04
  +7.05480231071864400292e+04
  +8.30217568131974549033e+04
  +9.77009957299225352472e+04
  +1.14975699539773602737e+05
  +1.35304777457980730105e+05
  +1.59228279334109276533e+05
  +1.87381742286038468592e+05
  +2.20513073990304663312e+05
  +2.59502421139973739628e+05
  +3.05385550883341580629e+05
  +3.59381366380462830421e+05
  +4.22924287438949919306e+05
  +4.97702356433211243711e+05
  +5.85702081805666559376e+05
  +6.89261210434969747439e+05
  +8.11130830789687111974e+05
  +9.54548456661834148690e+05
  +1.12332403297802759334e+06
  +1.32194114846602967009e+06
  +1.55567614393047243357e+06
  +1.83073828029536921531e+06
  +2.15443469003188470379e+06
  +2.53536449397011334077e+06
  +2.98364724028334068134e+06
  +3.51119173421513382345e+06
  +4.13201240011534048244e+06
  +4.86260158006535749882e+06
  +5.72236765935022290796e+06
  +6.73415065775082819164e+06
  +7.92482898353917431086e+06
  +9.32603346883220039308e+06
  +1.09749876549305636436e+07
  +1.29154966501488424838e+07
  +1.51991108295293431729e+07
  +1.78864952905743569136e+07
  +2.10490414451202154160e+07
  +2.47707635599171258509e+07
  +2.91505306282517872751e+07
  +3.43046928631491810083e+07
  +4.03701725859655812383e+07
  +4.75081016210279688239e+07
  +5.59081018251222968102e+07
  +6.57933224657568112016e+07
  +7.74263682681127935648e+07
  +9.11162756115489602089e+07
  +1.07226722201032459736e+08
  +1.26185688306602090597e+08
  +1.48496826225446701050e+08
  +1.74752840000768482685e+08
  +2.05651230834865450859e+08
  +2.42012826479438364506e+08
  +2.84803586843580603600e+08
  +3.35160265093884527683e+08
  +3.94420605943765521049e+08
  +4.64158883361278355122e+08
  +5.46227721768434286118e+08
  +6.42807311728432774544e+08
  +7.56463327554629087448e+08
  +8.90215085445039749146e+08
  +1.04761575278966522217e+09
  +1.23284673944206786156e+09
  +1.45082877849594044685e+09
  +1.70735264747069334984e+09
  +2.00923300256504845619e+09
  +2.36448941264541149139e+09
  +2.78255940220712661743e+09
  +3.27454916287773466110e+09
  +3.85352859371053361893e+09
  +4.53487850812859058380e+09
  +5.33669923120631599426e+09
  +6.28029144183425426483e+09
  +7.39072203352578830719e+09
  +8.69749002617783737183e+09
  +1.02353102189902763367e+10
  +1.20450354025878295898e+10
  +1.41747416292680759430e+10
  +1.66810053720005989075e+10
  +1.96304065004027442932e+10
  +2.31012970008316154480e+10
  +2.71858824273294601440e+10
  +3.19926713779738693237e+10
  +3.76493580679247589111e+10
  +4.43062145758388595581e+10
  +5.21400828799969635010e+10
  +6.13590727341318130493e+10
  +7.22080901838546752930e+10
  +8.49753435908645629883e+10
  +1.00000000000000061035e+11
</indep>
<dep Gain acfrequency>
  +1.26694733746860368484e+01
  +1.26694733746776826422e+01
  +1.26694733746660919138e+01
  +1.26694733746501224658e+01
  +1.26694733746279517561e+01
  +1.26694733745972563099e+01
  +1.26694733745547249981e+01
  +1.26694733744958423216e+01
  +1.26694733744143306353e+01
  +1.26694733743013827620e+01
  +1.26694733741449798714e+01
  +1.26694733739284242091e+01
  +1.26694733736285041203e+01
  +1.26694733732131332715e+01
  +1.26694733726378796490e+01
  +1.26694733718412528845e+01
  +1.26694733707379558751e+01
  +1.26694733692100705014e+01
  +1.26694733670940884451e+01
  +1.26694733641637427013e+01
  +1.26694733601054743133e+01
  +1.26694733544852713436e+01
  +1.26694733467019204909e+01
  +1.26694733359228752789e+01
  +1.26694733209951255759e+01
  +1.26694733003218633627e+01
  +1.26694732716918174731e+01
  +1.26694732320423710803e+01
  +1.26694731771324207159e+01
  +1.26694731010883785416e+01
  +1.26694729957760774397e+01
  +1.26694728499304307689e+01
  +1.26694726479508279482e+01
  +1.26694723682320731228e+01
  +1.26694719808533786676e+01
  +1.26694714443779563595e+01
  +1.26694707014205594220e+01
  +1.26694696725092263989e+01
  +1.26694682475843247715e+01
  +1.26694662742260355515e+01
  +1.26694635413505842791e+01
  +1.26694597566315021453e+01
  +1.26694545152311306424e+01
  +1.26694472564978148910e+01
  +1.26694372039973810473e+01
  +1.26694232824656207725e+01
  +1.26694040028009631271e+01
  +1.26693773027999387892e+01
  +1.26693403266081716652e+01
  +1.26692891193129959504e+01
  +1.26692182040421350564e+01
  +1.26691199963953504692e+01
  +1.26689839936946064824e+01
  +1.26687956525628937499e+01
  +1.26685348352181339493e+01
  +1.26681736591461291397e+01
  +1.26676735217872113992e+01
  +1.26669809851348933449e+01
  +1.26660220860880290417e+01
  +1.26646944755477210975e+01
  +1.26628565676018531860e+01
  +1.26603125805892595679e+01
  +1.26567919511075981376e+01
  +1.26519210738846954456e+01
  +1.26451846398007585748e+01
  +1.26358729974355679104e+01
  +1.26230109696520038653e+01
  +1.26052625119459591474e+01
  +1.25808047580529045462e+01
  +1.25471649172719708076e+01
  +1.25010152589845908722e+01
  +1.24379270006432065543e+01
  +1.23520964826463899300e+01
  +1.22360810234501897753e+01
  +1.20806219748644689815e+01
  +1.18746898053805036710e+01
  +1.16059492842654279343e+01
  +1.12618750019724949141e+01
  +1.08316769247321786906e+01
  +1.03089387791036930508e+01
  +9.69441916383033053251e+00
  +8.99800510029564648562e+00
  +8.23873317100435365035e+00
  +7.44240879305843527902e+00
  +6.63744542676763682465e+00
  +5.85038371215586128216e+00
  +5.10253954342583870840e+00
  +4.40848432570435466715e+00
  +3.77620360538592336752e+00
  +3.20830623409646165101e+00
  +2.70362487213721713886e+00
  +2.25875126920509305961e+00
  +1.86927543811940632956e+00
  +1.53064831864759476332e+00
  +1.23866105288862859979e+00
  +9.89572798226074024086e-01
  +7.79964065782931759152e-01
  +6.06450157245024823460e-01
  +4.65422406129454457879e-01
  +3.52949717740058899196e-01
</dep>
<dep VCC.i acfrequency>
  -1.21417571278114198313e-06+j2.21655947138240848895e-12
  -1.21417571277956586657e-06+j2.60847157160293218841e-12
  -1.21417571277741419112e-06+j3.06967936676983557720e-12
  -1.21417571277438435427e-06+j3.61243442629555499042e-12
  -1.21417571277024003382e-06+j4.25115406189110382686e-12
  -1.21417571276443425824e-06+j5.00281150410410812934e-12
  -1.21417571275643085568e-06+j5.88736811828978678665e-12
  -1.21417571274537135825e-06+j6.92832483245207787865e-12
  -1.21417571273002100366e-06+j8.15333438039873205295e-12
  -1.21417571270875539449e-06+j9.59494311344226462704e-12
  -1.21417571267934259891e-06+j1.12914401434344654134e-11
  -1.21417571263857278558e-06+j1.32879044268497080106e-11
  -1.21417571258212947459e-06+j1.56373649873007399199e-11
  -1.21417571250397332103e-06+j1.84022375053887794980e-11
  -1.21417571239571044015e-06+j2.16559728290257526123e-11
  -1.21417571224577862046e-06+j2.54850080407545566103e-11
  -1.21417571203814733993e-06+j2.99910625551233425479e-11
  -1.21417571175060781818e-06+j3.52938404072940612936e-11
  -1.21417571135240386539e-06+j4.15342131507067240381e-11
  -1.21417571080089986640e-06+j4.88779588797670116060e-11
  -1.21417571003719780874e-06+j5.75201659199912050324e-11
  -1.21417570897948637992e-06+j6.76904188721800488224e-11
  -1.21417570751472416269e-06+j7.96588939411871037713e-11
  -1.21417570548616411028e-06+j9.37435383301878995622e-11
  -1.21417570267684593302e-06+j1.10318516048453160633e-10
  -1.21417569878629485728e-06+j1.29824147925254370884e-10
  -1.21417569339823971748e-06+j1.52778608137071775260e-10
  -1.21417568593646326963e-06+j1.79791691157122473323e-10
  -1.21417567560279429730e-06+j2.11581009310989733162e-10
  -1.21417566129172838466e-06+j2.48991057667541598528e-10
  -1.21417564147260055129e-06+j2.93015647883505680728e-10
  -1.21417561402532841132e-06+j3.44824308778089753642e-10
  -1.21417557601396998517e-06+j4.05793355242044685759e-10
  -1.21417552337258691976e-06+j4.77542449803609271902e-10
  -1.21417545047029878756e-06+j5.61977628667698285703e-10
  -1.21417534950886414891e-06+j6.61341934909019593326e-10
  -1.21417520968879037972e-06+j7.78275003202413387357e-10
  -1.21417501605395150878e-06+j9.15883178625828263325e-10
  -1.21417474789180153721e-06+j1.07782203139534063038e-09
  -1.21417437651788946118e-06+j1.26839345758383159816e-09
  -1.21417386220758215862e-06+j1.49265994315844403437e-09
  -1.21417314994700407743e-06+j1.75657902205612566652e-09
  -1.21417216354842533574e-06+j2.06716149362710503678e-09
  -1.21417079750107759158e-06+j2.43265759104542391486e-09
  -1.21416890568591491679e-06+j2.86277602750141018607e-09
  -1.21416628574672513123e-06+j3.36894170950838434980e-09
  -1.21416265744746518305e-06+j3.96459891371283455203e-09
  -1.21415763270149680561e-06+j4.66556790131596887607e-09
  -1.21415067406859522886e-06+j5.49046431260836315283e-09
  -1.21414103728580293997e-06+j6.46119226967496731714e-09
  -1.21412769169184520400e-06+j7.60352393919264152666e-09
  -1.21410921005001189922e-06+j8.94778038521876181915e-09
  -1.21408361601468100423e-06+j1.05296308762698000286e-08
  -1.21404817298385225519e-06+j1.23910303773065609623e-08
  -1.21399909186528410150e-06+j1.45813176828512062298e-08
  -1.21393112671243663251e-06+j1.71584993760303879235e-08
  -1.21383701539159587177e-06+j2.01907472309418032975e-08
  -1.21370670624423400523e-06+j2.37581382738855104890e-08
  -1.21352628954490569133e-06+j2.79546665490977841129e-08
  -1.21327652237028453469e-06+j3.28905521151618808282e-08
  -1.21293079466708118565e-06+j3.86948632967509415948e-08
  -1.21245232962011283281e-06+j4.55184484144682111526e-08
  -1.21179033922298077405e-06+j5.35371361173548153099e-08
  -1.21087476266708318515e-06+j6.29550978747593049377e-08
  -1.20960909863289137180e-06+j7.40081545879137626592e-08
  -1.20786070494150070904e-06+j8.69666246620321897989e-08
  -1.20544779265279142661e-06+j1.02137013000902650084e-07
  -1.20212222028681427628e-06+j1.19861372093150003103e-07
  -1.19754717260836932926e-06+j1.40512452790250194090e-07
  -1.19126903774789679339e-06+j1.64481720191407204998e-07
  -1.18268355274731172570e-06+j1.92155882315937240015e-07
  -1.17099803586395842178e-06+j2.23875826461271554285e-07
  -1.15519495724791891206e-06+j2.59870155079045316554e-07
  -1.13400804952263091373e-06+j3.00154907481687900762e-07
  -1.10593113546506411981e-06+j3.44393777958909447759e-07
  -1.06929080432709635050e-06+j3.91722990767494922260e-07
  -1.02242207810014172750e-06+j4.40566618964276012855e-07
  -9.63979837308988749591e-07+j4.88503344181437442461e-07
  -8.93380916102426516906e-07+j5.32285038811561652888e-07
  -8.11291502214299285759e-07+j5.68120850577159403423e-07
  -7.19973509373929501727e-07+j5.92281232787395292364e-07
  -6.23256863375762701312e-07+j6.01922339107854234253e-07
  -5.26004372474258408286e-07+j5.95847180590465522304e-07
  -4.33183230561035272673e-07+j5.74857958991652869225e-07
  -3.48894043270396737324e-07+j5.41519586500335931250e-07
  -2.75735562338469443246e-07+j4.99456281090503415042e-07
  -2.14676396336225139130e-07+j4.52511580494596759651e-07
  -1.65342362646034691152e-07+j4.04083500639569213708e-07
  -1.26492942670056207180e-07+j3.56774029379997603282e-07
  -9.64833407422502405060e-08+j3.12322982964324403050e-07
  -7.36063257885831262302e-08+j2.71717411035302089038e-07
  -5.62960564554078609530e-08+j2.35370206133866439040e-07
  -4.32222890723097776263e-08+j2.03299220552659090701e-07
  -3.33142699523322842965e-08+j1.75275982285998611518e-07
  -2.57464726561847470641e-08+j1.50937595923984048839e-07
  -1.99064192177276660387e-08+j1.29866472848142320113e-07
  -1.53550862574924591018e-08+j1.11644603567087149331e-07
  -1.17852988668818938375e-08+j9.58871958426838793111e-08
  -8.98234873280978740634e-09+j8.22588121594418442726e-08
  -6.79109385483792499650e-09+j7.04755731873143761643e-08
</dep>
<dep V1.i acfrequency>
  -4.83867722728022435356e-07+j8.90772932996635207393e-13
  -4.83867722727390548777e-07+j1.04826235697070187452e-12
  -4.83867722726513869677e-07+j1.23360225197134144089e-12
  -4.83867722725300918496e-07+j1.45171345682606006624e-12
  -4.83867722723629722491e-07+j1.70838461637118817557e-12
  -4.83867722721301228919e-07+j2.01045958568599661454e-12
  -4.83867722718078268555e-07+j2.36593167297654048071e-12
  -4.83867722713622875252e-07+j2.78425508977204712343e-12
  -4.83867722707448852100e-07+j3.27653954728586676182e-12
  -4.83867722698905677794e-07+j3.85587916221640533327e-12
  -4.83867722687071780488e-07+j4.53762783622296145856e-12
  -4.83867722670684234057e-07+j5.33994735654219869323e-12
  -4.83867722647979515906e-07+j6.28411497889958589491e-12
  -4.83867722616547817299e-07+j7.39521920327307735688e-12
  -4.83867722572999312382e-07+j8.70278133192659250527e-12
  -4.83867722512710895328e-07+j1.02415388570123684525e-11
  -4.83867722429206999256e-07+j1.20523676327993233376e-11
  -4.83867722313557355803e-07+j1.41833681010437069419e-11
  -4.83867722153409683498e-07+j1.66911567539183544391e-11
  -4.83867721931620035491e-07+j1.96423547809187254125e-11
  -4.83867721624474877388e-07+j2.31153566289844682621e-11
  -4.83867721199103401606e-07+j2.72024287432743577392e-11
  -4.83867720610009774483e-07+j3.20121434478213445221e-11
  -4.83867719794183215071e-07+j3.76722728775308934088e-11
  -4.83867718664348836618e-07+j4.43331805921092117899e-11
  -4.83867717099674848099e-07+j5.21718170368149603989e-11
  -4.83867714932764669247e-07+j6.13964168903054679129e-11
  -4.83867711931849651023e-07+j7.22520373220313538360e-11
  -4.83867707775926541033e-07+j8.50270605604859752689e-11
  -4.83867702020439520152e-07+j1.00060859604010423626e-10
  -4.83867694049736349075e-07+j1.17752813735973451010e-10
  -4.83867683011223944522e-07+j1.38572915310913464473e-10
  -4.83867667724136048682e-07+j1.63074257880399016206e-10
  -4.83867646553265604241e-07+j1.91907727552541862616e-10
  -4.83867617234011263806e-07+j2.25839293845067480073e-10
  -4.83867576630189070938e-07+j2.65770357970487763004e-10
  -4.83867520398508839582e-07+j3.12761697518313444569e-10
  -4.83867442524055991838e-07+j3.68061644571520242017e-10
  -4.83867334676826780073e-07+j4.33139245902427229704e-10
  -4.83867185320748729264e-07+j5.09723284173966507468e-10
  -4.83866978479695193233e-07+j5.99848196633912467506e-10
  -4.83866692028628994324e-07+j7.05908109208326686767e-10
  -4.83866295327025932461e-07+j8.30720418513604116976e-10
  -4.83865745941454649256e-07+j9.77600606651444918757e-10
  -4.83864985106919457342e-07+j1.15045026793688381080e-09
  -4.83863931441501694942e-07+j1.35386067514707842514e-09
  -4.83862472242209137577e-07+j1.59323461532771166108e-09
  -4.83860451431543528035e-07+j1.87492970070202256589e-09
  -4.83857652866294951836e-07+j2.20642690848693144686e-09
  -4.83853777224935711482e-07+j2.59652874111929872080e-09
  -4.83848410004668088800e-07+j3.05559213156087199916e-09
  -4.83840977211296835979e-07+j3.59580205301146782088e-09
  -4.83830684014541601900e-07+j4.23149273030232313650e-09
  -4.83816429830565055559e-07+j4.97952438159875055072e-09
  -4.83796690793750751395e-07+j5.85972451382271814815e-09
  -4.83769357132998724777e-07+j6.89540389117271354852e-09
  -4.83731508223924034102e-07+j8.11395827275194006194e-09
  -4.83679101574471636772e-07+j9.54756765616273133053e-09
  -4.83606543087784410649e-07+j1.12340046929788046548e-08
  -4.83506093806812522546e-07+j1.32175625235944939766e-08
  -4.83367051925295737103e-07+j1.55501084544187484791e-08
  -4.83174626856930477929e-07+j1.82922619317079157736e-08
  -4.82908393118235232992e-07+j2.15146803410255511947e-08
  -4.82540174264399720732e-07+j2.52994097844455554999e-08
  -4.82031160252637907960e-07+j2.97412130972830672411e-08
  -4.81328006261613433825e-07+j3.49487131044420363294e-08
  -4.80357602133218514243e-07+j4.10450693014402655664e-08
  -4.79020152785524623514e-07+j4.81677177873131315503e-08
  -4.77180201422159874157e-07+j5.64664172681972346525e-08
  -4.74655319626727833685e-07+j6.60984247708329668272e-08
  -4.71202492657393570662e-07+j7.72190504572283659250e-08
  -4.66502931452012931361e-07+j8.99651359502360622001e-08
  -4.60147423793287988889e-07+j1.04428315598216918029e-07
  -4.51626730241543910244e-07+j1.20614676568459786434e-07
  -4.40335140597175893338e-07+j1.38388529383021940734e-07
  -4.25599712680736464476e-07+j1.57401962199085978721e-07
  -4.06750936980793921891e-07+j1.77020550452334403464e-07
  -3.83248008288363440899e-07+j1.96269755234733404532e-07
  -3.54856658501210665968e-07+j2.13842384538973053130e-07
  -3.21845218775472167164e-07+j2.28212840663399495222e-07
  -2.85123970174821250569e-07+j2.37880052724757454713e-07
  -2.46234049055045149668e-07+j2.41699045479860447210e-07
  -2.07132285227112197590e-07+j2.39187083908520994221e-07
  -1.69817846759339165868e-07+j2.30665405951743419508e-07
  -1.35941822317038744576e-07+j2.17164163146690099460e-07
  -1.06551846581326464724e-07+j2.00139611016905278003e-07
  -8.20406439301975423596e-08+j1.81136438337409978333e-07
  -6.22617311247635547297e-08+j1.61520642363496413080e-07
  -4.67211159464558603033e-08+j1.42338963317479714152e-07
  -3.47630588573281334016e-08+j1.24292838348696208418e-07
  -2.57072107041967264832e-08+j1.07783078906344177570e-07
  -1.89298203939045230317e-08+j9.29823755618956130890e-08
  -1.39003342051636776726e-08+j7.99077351979472006484e-08
  -1.01892723268846125611e-08+j6.84800177161183512016e-08
  -7.46072897808791881340e-09+j5.85675919733232807074e-08
  -5.45840680333534503762e-09+j5.00158876064281064695e-08
  -3.99024543889690698964e-09+j4.26660913497235114356e-08
  -2.91412369031392327409e-09+j3.63661074554755368223e-08
  -2.12565961819658314632e-09+j3.09762572109478163068e-08
  -1.54839662888436003191e-09+j2.63715608259253575706e-08
</dep>
<dep _net11.v acfrequency>
  +4.92659861211624801151e-05-j8.98438995904618698878e-11
  +4.92659861210988171188e-05-j1.05729404135901753140e-10
  +4.92659861210106511534e-05-j1.24423642554949880479e-10
  +4.92659861208885699888e-05-j1.46423242803855457750e-10
  +4.92659861207194886600e-05-j1.72312649280121659253e-10
  +4.92659861204853348720e-05-j2.02779549255288837531e-10
  +4.92659861201610567785e-05-j2.38633400816394260332e-10
  +4.92659861197119666862e-05-j2.80826643011073888869e-10
  +4.92659861190900479912e-05-j3.30480165215170864671e-10
  +4.92659861182287306803e-05-j3.88912984004144092243e-10
  +4.92659861170359321078e-05-j4.57677497907200060949e-10
  +4.92659861153840281252e-05-j5.38600312327441829198e-10
  +4.92659861130963344362e-05-j6.33831281831862590359e-10
  +4.92659861099281330579e-05-j7.45900235385370823908e-10
  +4.92659861055405227199e-05-j8.77784315256403172860e-10
  +4.92659860994642200644e-05-j1.03298706849205154631e-09
  +4.92659860910491713502e-05-j1.21563152190276709687e-09
  +4.92659860793953261436e-05-j1.43056971084731574358e-09
  +4.92659860632560687868e-05-j1.68351153498870714800e-09
  +4.92659860409050241606e-05-j1.98117648954235018227e-09
  +4.92659860099513638443e-05-j2.33147217495763954832e-09
  +4.92659859670840699283e-05-j2.74370431747502307229e-09
  +4.92659859077177193884e-05-j3.22882403020988300279e-09
  +4.92659858255020926664e-05-j3.79971870492445494563e-09
  +4.92659857116427922605e-05-j4.47155437829909249611e-09
  +4.92659855539605956963e-05-j5.26217862015890860673e-09
  +4.92659853355887120780e-05-j6.19259467070362457720e-09
  +4.92659850331683918465e-05-j7.28751937792870728579e-09
  +4.92659846143506539233e-05-j8.57603983352680774772e-09
  +4.92659840343356953351e-05-j1.00923860611093533808e-08
  +4.92659832310809073469e-05-j1.18768403496866910887e-08
  +4.92659821186643316626e-05-j1.39768073623085226091e-08
  +4.92659805780938786089e-05-j1.64480734411613606172e-08
  +4.92659784445790036944e-05-j1.93562885727656349518e-08
  +4.92659754899036402692e-05-j2.27787103670250457661e-08
