<Qucs Dataset 0.0.20>
<indep frequency 39>
  +1.00000000000000000000e+09
  +1.50000000000000000000e+09
  +2.00000000000000000000e+09
  +2.50000000000000000000e+09
  +3.00000000000000000000e+09
  +3.50000000000000000000e+09
  +4.00000000000000000000e+09
  +4.50000000000000000000e+09
  +5.00000000000000000000e+09
  +5.50000000000000000000e+09
  +6.00000000000000000000e+09
  +6.50000000000000000000e+09
  +7.00000000000000000000e+09
  +7.50000000000000000000e+09
  +8.00000000000000000000e+09
  +8.50000000000000000000e+09
  +9.00000000000000000000e+09
  +9.50000000000000000000e+09
  +1.00000000000000000000e+10
  +1.05000000000000000000e+10
  +1.10000000000000000000e+10
  +1.15000000000000000000e+10
  +1.20000000000000000000e+10
  +1.25000000000000000000e+10
  +1.30000000000000000000e+10
  +1.35000000000000000000e+10
  +1.40000000000000000000e+10
  +1.45000000000000000000e+10
  +1.50000000000000000000e+10
  +1.55000000000000000000e+10
  +1.60000000000000000000e+10
  +1.65000000000000000000e+10
  +1.70000000000000000000e+10
  +1.75000000000000000000e+10
  +1.80000000000000000000e+10
  +1.85000000000000000000e+10
  +1.90000000000000000000e+10
  +1.95000000000000000000e+10
  +2.00000000000000000000e+10
</indep>
<dep S22_dB frequency>
  -2.11374796827077027217e+00
  -1.90516368120600931846e+00
  -1.70204175474308483373e+00
  -1.50681973483256648194e+00
  -1.31410116641167551421e+00
  -1.12018089706255485893e+00
  -9.25547437779304704719e-01
  -7.35669986096370021045e-01
  -5.61804085368964423175e-01
  -4.22029437727991063589e-01
  -3.42027855590358531579e-01
  -3.54518563079873949562e-01
  -4.95889472435456002408e-01
  -7.99163310255549541594e-01
  -1.28473420549199968121e+00
  -1.95317986936398968467e+00
  -2.78455395606626909810e+00
  -3.74446619033688055111e+00
  -4.79282398573977985734e+00
  -5.89067379266142499006e+00
  -7.00333140297360134952e+00
  -8.10052544386653572417e+00
  -9.15514537503918113259e+00
  -1.01419771085583025894e+01
  -1.10373367903927093181e+01
  -1.18200384123917050516e+01
  -1.24735696747406983320e+01
  -1.29886901647041206331e+01
  -1.33652161545640897344e+01
  -1.36119648316852366321e+01
  -1.37447254705106320927e+01
  -1.37830875156202345977e+01
  -1.37472994236315919636e+01
  -1.36559806092913493814e+01
  -1.35249111071521390670e+01
  -1.33667004012653212186e+01
  -1.31909970393721067694e+01
  -1.30049448915399565863e+01
  -1.28136954984833550952e+01
</dep>
<dep S21_dB frequency>
  +7.13286537928628039396e+00
  +9.61086733072194654426e+00
  +1.10291490623172840913e+01
  +1.19556652720657332623e+01
  +1.26373047717202382501e+01
  +1.31919367412317445343e+01
  +1.36776032961428555268e+01
  +1.41209732656593516253e+01
  +1.45295204722436093192e+01
  +1.48966564148766025255e+01
  +1.52040547596915267548e+01
  +1.54238445154722203512e+01
  +1.55228527883711642232e+01
  +1.54700986373954272324e+01
  +1.52462682355355454433e+01
  +1.48509467504595900067e+01
  +1.43032390247296721242e+01
  +1.36354855167068613753e+01
  +1.28842051663187024957e+01
  +1.20828377016886037154e+01
  +1.12581316829831941106e+01
  +1.04295422264987784899e+01
  +9.61022073856866221320e+00
  +8.80849051474283761820e+00
  +8.02923523750754775108e+00
  +7.27500199715988582483e+00
  +6.54680545025531213099e+00
  +5.84468608613097906357e+00
  +5.16808632972730830346e+00
  +4.51609888482837362744e+00
  +3.88762818916775199085e+00
  +3.28149383090921675787e+00
  +2.69649562163700062811e+00
  +2.13145352665830722927e+00
  +1.58523121241050057861e+00
  +1.05674899310518610740e+00
  +5.44989982616007617722e-01
  +4.90019524230448366708e-02
  -4.32103464239807943947e-01
</dep>
<dep S11_dB frequency>
  -7.01856516280459190316e-03
  -2.80013863941453444717e-02
  -6.93117705873072809108e-02
  -1.35011600382372559670e-01
  -2.29818675640305308816e-01
  -3.60532821408534376317e-01
  -5.36860638817941215883e-01
  -7.72020341479207727886e-01
  -1.08296947010664235123e+00
  -1.48943366719963066203e+00
  -2.00984269636419998761e+00
  -2.65072875529518814375e+00
  -3.38549731339143811226e+00
  -4.12489851400048301855e+00
  -4.70687657205967813212e+00
  -4.96191410273910449291e+00
  -4.84057076422906007451e+00
  -4.44813552548320689795e+00
  -3.93962848144828825525e+00
  -3.42633253226195488850e+00
  -2.96162917380248646992e+00
  -2.56174352033309382648e+00
  -2.22533937106660451022e+00
  -1.94464327372675471750e+00
  -1.71055661756344878910e+00
  -1.51465742601677355594e+00
  -1.34980311609491976377e+00
  -1.21016674628704934413e+00
  -1.09107629625059088241e+00
  -9.88809832745886629901e-01
  -9.00403911399583867237e-01
  -8.23492443201040202894e-01
  -7.56177471337565521026e-01
  -6.96927870948412242491e-01
  -6.44500757733989848575e-01
  -5.97880731307546486875e-01
  -5.56232886998848763405e-01
  -5.18866374779117123239e-01
  -4.85206018516916637306e-01
</dep>
<dep NF frequency>
  +4.93920229891252304810e+00
  +3.48371000491062465798e+00
  +2.81198749906089728867e+00
  +2.43896115733289464700e+00
  +2.19742214297964499892e+00
  +2.01991473050998004979e+00
  +1.87600108261452258596e+00
  +1.75096646931662647262e+00
  +1.63758498191982271308e+00
  +1.53258863926247568266e+00
  +1.43502275181672778182e+00
  +1.34542394964040101790e+00
  +1.26537769077610495749e+00
  +1.19725278315767380555e+00
  +1.14401160395034096062e+00
  +1.10904099417657753257e+00
  +1.09597305080398266242e+00
  +1.10848099768465790937e+00
  +1.15004881134100211959e+00
  +1.22372602073141267809e+00
  +1.33189016691673378645e+00
  +1.47604629607071524688e+00
  +1.65669290172962813124e+00
  +1.87327577764214248113e+00
  +2.12423683895834303215e+00
  +2.40714822608584366748e+00
  +2.71890799423740059382e+00
  +3.05596625577778979732e+00
  +3.41455091761330864486e+00
  +3.79086856602228916557e+00
  +4.18126551792444267619e+00
  +4.58234351308547083192e+00
  +4.99103192242608617590e+00
  +5.40462292514037123681e+00
  +5.82077807101286381908e+00
  +6.23751469699290161941e+00
  +6.65317959944189940558e+00
  +7.06641582393489375846e+00
  +7.47612685470923565845e+00
</dep>
<dep Rn frequency>
  +3.20237216060887419644e+01
  +3.14273669873515508755e+01
  +3.06045898977658943352e+01
  +2.95674906857791057746e+01
  +2.83315998423625856617e+01
  +2.69158578212838222044e+01
  +2.53425905353268525744e+01
  +2.36374806232749925528e+01
  +2.18295345984758775160e+01
  +1.99510460052046987300e+01
  +1.80375547237592712690e+01
  +1.61278025791851398196e+01
  +1.42636854216700719178e+01
  +1.24902018589064347509e+01
  +1.08553988320426952896e+01
  +9.41031423718344939289e+00
  +8.20891680371357601587e+00
  +7.30804344898356017524e+00
  +6.76733433607617662631e+00
  +6.64916586746325233293e+00
  +7.01858185234830500576e+00
  +7.94322308937346299729e+00
  +9.49325560915662869377e+00
  +1.17412978228296847050e+01
  +1.47623468233924466375e+01
  +1.86337040863061993434e+01
  +2.34349008143627202116e+01
  +2.92476231695098718433e+01
  +3.61556376310506024652e+01
  +4.42447167154941567446e+01
  +5.36025652883881065236e+01
  +6.43187476927515859870e+01
  +7.64846159123212316899e+01
  +9.01932389807778207569e+01
  +1.05539333840501868167e+02
  +1.22619197846280385988e+02
  +1.41530643100814842228e+02
  +1.62372932799935853154e+02
  +1.85246719756166442039e+02
</dep>
<dep Fmin frequency>
  +1.02732990113301103641e+00
  +1.04124914048655026200e+00
  +1.05533748398639692923e+00
  +1.06959451137862537884e+00
  +1.08401971973167476904e+00
  +1.09861252407077314430e+00
  +1.11337225820106811014e+00
  +1.12829817571960377975e+00
  +1.14338945121549784290e+00
  +1.15864518165702734542e+00
  +1.17406438796357037724e+00
  +1.18964601675969339212e+00
  +1.20538894230793136586e+00
  +1.22129196861618138925e+00
  +1.23735383171494395249e+00
  +1.25357320209904399277e+00
  +1.26994868732783361409e+00
  +1.28647883477734881197e+00
  +1.30316213453732698824e+00
  +1.31999702244553063224e+00
  +1.33698188325133981991e+00
  +1.35411505390022135487e+00
  +1.37139482693025338556e+00
  +1.38881945397164963119e+00
  +1.40638714933990716105e+00
  +1.42409609371300605041e+00
  +1.44194443788297199660e+00
  +1.45993030657190048238e+00
  +1.47805180230261212770e+00
  +1.49630700931398097353e+00
  +1.51469399751108846353e+00
  +1.53321082644040540544e+00
  +1.55185554928036206768e+00
  +1.57062621683780778703e+00
  +1.58952088154108617246e+00
  +1.60853760142076418482e+00
  +1.62767444406923456057e+00
  +1.64692949057079918163e+00
  +1.66630083939427509065e+00
</dep>
<dep Sopt frequency>
  -3.90228894214638855065e-01-j9.06948359796552305845e-01
  +2.16676274807779470355e-02-j9.67356009840409480915e-01
  +3.26791510047308109144e-01-j8.83821905025863219230e-01
  +5.26811142266333520823e-01-j7.46768035022325249450e-01
  +6.48615196809695260249e-01-j5.99528651320045291584e-01
  +7.15930643923215814795e-01-j4.58948292033180937910e-01
  +7.44922469799032649362e-01-j3.30484494353126212474e-01
  +7.45783931799928523354e-01-j2.15383226528290200319e-01
  +7.24817309547640009626e-01-j1.13687345356972738242e-01
  +6.85987841884307503193e-01-j2.54401530657575140892e-02
  +6.31990562267999878010e-01+j4.88616865541015230057e-02
  +5.65007860555379104461e-01+j1.08149875195862610333e-01
  +4.87284311252241808532e-01+j1.50858780102030770598e-01
  +4.01570287313481266711e-01+j1.75160259026798575954e-01
  +3.11417388122907146109e-01+j1.79355385670136230347e-01
  +2.21258855845178264987e-01+j1.62393538268093828858e-01
  +1.36198178564955890701e-01+j1.24424861545409437547e-01
  +6.14826116019995053130e-02+j6.72216441271556025550e-02
  +1.75346590774660363726e-03-j5.71693879925729703251e-03
  -3.97113824782128616020e-02-j8.94857667999609390774e-02
  -6.15027262899054544265e-02-j1.78466646911554005506e-01
  -6.41602519981429864071e-02-j2.67178238119648026050e-01
  -4.98326845694769191009e-02-j3.51012664035537325091e-01
  -2.16809469369073706813e-02-j4.26668341510649362647e-01
  +1.67591418760896088136e-02-j4.92237803103476923017e-01
  +6.20896250604481905744e-02-j5.47032820472443837012e-01
  +1.11369458769467549741e-01-j5.91277248752038686597e-01
  +1.62250969111663728706e-01-j6.25780877848941541330e-01
  +2.12984897974334397297e-01-j6.51662295635286770157e-01
  +2.62350834639833274675e-01-j6.70145954963883960787e-01
  +3.09557536442837788471e-01-j6.82431147252726799657e-01
  +3.54141107378032005126e-01-j6.89618224011520619676e-01
  +3.95875222554089245541e-01-j6.92674973313049169299e-01
  +4.34698460754680326978e-01-j6.92428421259255189035e-01
  +4.70658746321918564082e-01-j6.89571139149627310161e-01
  +5.03872613567083682540e-01-j6.84674732316526424292e-01
  +5.34496327374683888323e-01-j6.78205981556247117226e-01
  +5.62706014921521280314e-01-j6.70543055989278324880e-01
  +5.88684405378375852358e-01-j6.61990473811104762625e-01
</dep>
<dep F frequency>
  +3.11831676697532289566e+00
  +2.23033962607063163119e+00
  +1.91072748110601997595e+00
  +1.75346101965224576702e+00
  +1.65860211290686265784e+00
  +1.59217746589105813015e+00
  +1.54028153203480444589e+00
  +1.49656866211371353259e+00
  +1.45800327059143253194e+00
  +1.42317682775482401425e+00
  +1.39156108493495800360e+00
  +1.36314606732259391286e+00
  +1.33825159317081210375e+00
  +1.31742311251024468710e+00
  +1.30137110724709170739e+00
  +1.29093417901860285646e+00
  +1.28705558968605338066e+00
  +1.29076773158818847165e+00
  +1.30318142512134937938e+00
  +1.32547823888519245017e+00
  +1.35890474996235299798e+00
  +1.40476807753499444154e+00
  +1.46443226936904857816e+00
  +1.53931527059775552502e+00
  +1.63088629765440140673e+00
  +1.74066349968739420007e+00
  +1.87021182840929700575e+00
  +2.02114106284731409602e+00
  +2.19510395258973423083e+00
  +2.39379445478100461031e+00
  +2.61894604815188003499e+00
  +2.87233011296501539178e+00
  +3.15575436968401845661e+00
  +3.47106137194805475232e+00
  +3.82012705139958841372e+00
  +4.20485931330448448051e+00
  +4.62719668288388685795e+00
  +5.08910700295940987559e+00
  +5.59258618397729811988e+00
</dep>
<dep S[2,2] frequency>
  +7.82179249582435009991e-01-j5.33087669377709377772e-02
  +7.97426883958038956735e-01-j9.48545149716244068161e-02
  +8.09287010691552843866e-01-j1.44290459085929273497e-01
  +8.16697262527363299078e-01-j1.99600975666023805477e-01
  +8.19293932215497955340e-01-j2.60124253097481661356e-01
  +8.16307239111072280302e-01-j3.26022840623886311917e-01
  +8.06170280401147909544e-01-j3.97683974479486002096e-01
  +7.86371326095794853650e-01-j4.75180111458787246548e-01
  +7.53446550715057616898e-01-j5.57651985242205494586e-01
  +7.03251654643832657676e-01-j6.42521220855094776780e-01
  +6.31805810645620358201e-01-j7.24629506791200084237e-01
  +5.36989786030434346209e-01-j7.95772591904667092599e-01
  +4.20920797196208784641e-01-j8.45529759772415401287e-01
  +2.91775315192360995553e-01-j8.64170813773380563916e-01
  +1.63021829748621449596e-01-j8.46961907972561989233e-01
  +4.92322205786752259415e-02-j7.97102574508724903701e-01
  -3.92354040636883061310e-02-j7.24663982679789597796e-01
  -9.90056113589959235766e-02-j6.42208738156231473404e-01
  -1.32693850769987353733e-01-j5.60420428232146550229e-01
  -1.45989496316346334392e-01-j4.86085604648620439594e-01
  -1.45051215195990068629e-01-j4.22295372693209103421e-01
  -1.35100751651975464762e-01-j3.69608862336279431204e-01
  -1.20016636820754751813e-01-j3.27216446170025265783e-01
  -1.02448249422877779580e-01-j2.93748312981895187690e-01
  -8.40991899264321995933e-02-j2.67731551692664160313e-01
  -6.60088399459314301154e-02-j2.47806446855635242876e-01
  -4.87750764383721724382e-02-j2.32805493965029697279e-01
  -3.27130501463929815320e-02-j2.21763992289369410438e-01
  -1.79621693248917524421e-02-j2.13901248237845786893e-01
  -4.55579487812450556472e-03-j2.08592265350406591562e-01
  +7.53435110854477896325e-03-j2.05339061732454031262e-01
  +1.83703622494518110930e-02-j2.03745242223719091879e-01
  +2.80309910506448267675e-02-j2.03494826521287808241e-01
  +3.66012667839725053254e-02-j2.04335195093763827279e-01
  +4.41663775730296720434e-02-j2.06063597651122004661e-01
  +5.08082145386373751350e-02-j2.08516580793329825427e-01
  +5.66035619316970078918e-02-j2.11561738831646195536e-01
  +6.16232915185487006848e-02-j2.15091283955596818123e-01
  +6.59321573614700812138e-02-j2.19017029082251124539e-01
</dep>
<dep S[2,1] frequency>
  -1.35496203127627601326e+00-j1.82528077625547346940e+00
  -2.35321216220014850506e+00-j1.89877610443863864553e+00
  -3.17653124672158915232e+00-j1.60738432201785008679e+00
  -3.79605996112086385708e+00-j1.13043828570178850335e+00
  -4.24729262101162952092e+00-j5.60798375350364142200e-01
  -4.56617204015471234158e+00+j6.54187646742670075861e-02
  -4.77230535667246602571e+00+j7.39464875736279614316e-01
  -4.86722192174267220821e+00+j1.46237486101840064023e+00
  -4.83592098549394577844e+00+j2.23381404358937052379e+00
  -4.64994270918439767115e+00+j3.04256543730848161289e+00
  -4.27413245723519885644e+00+j3.85692029289134108438e+00
  -3.68038972273157982684e+00+j4.61728411436066021878e+00
  -2.86888636088326620666e+00+j5.23813197639131633565e+00
  -1.88857216599237554000e+00+j5.62771557520536447328e+00
  -8.39506231430142024763e-01+j5.72389753339899787221e+00
  +1.54814594923235238078e-01+j5.52556820122198644185e+00
  +9.91783726733809323228e-01+j5.09429037087576919163e+00
  +1.62001020814656859770e+00+j4.52462080651960985023e+00
  +2.03963607995998286171e+00+j3.90737068343186377817e+00
  +2.28284256062688850619e+00+j3.30798536233981765875e+00
  +2.39264986107648791602e+00+j2.76322873924552769864e+00
  +2.40946539682563765084e+00+j2.28781533215614496513e+00
  +2.36561906060523075013e+00+j1.88293481096484138781e+00
  +2.28472851272652999199e+00+j1.54293103275095222493e+00
  +2.18308555343557486594e+00+j1.25949518047697917034e+00
  +2.07148689740412450533e+00+j1.02393223655709975084e+00
  +1.95685722570749209837e+00+j8.28219015161553606674e-01
  +1.84349285073470858798e+00+j6.65393900544750116488e-01
  +1.73394855959224747366e+00+j5.29613040401108459143e-01
  +1.62964550180366041232e+00+j4.16059293822393316820e-01
  +1.53127842278840420320e+00+j3.20799770749646606660e-01
  +1.43908469916156023238e+00+j2.40637508974600317080e-01
  +1.35302043725368559279e+00+j1.72976578998491281602e-01
  +1.27287489626013150534e+00+j1.15706952697700704569e-01
  +1.19834428009450966179e+00+j6.71095116200629282499e-02
  +1.12907887066515466579e+00+j2.57791353345410839681e-02
  +1.06471271592992611232e+00-j9.43693041617210508221e-03
  +1.00488192965780354093e+00-j3.94882059282556444058e-02
  +9.49235581571651554356e-01-j6.51600704277357639649e-02
</dep>
<dep S[1,2] frequency>
  -8.03120220894793304667e-03+j5.69090930357540793899e-03
  -1.28297961698553772414e-02+j1.48640478784567917070e-02
  -1.51145035329905523536e-02+j2.68541069990318077843e-02
  -1.44749593215473155994e-02+j4.03203694441098825507e-02
  -1.09089425793107656221e-02+j5.44992731886695114252e-02
  -4.34860914405988275427e-03+j6.89465903487710557451e-02
  +5.45171251197013040368e-03+j8.32649235709120166815e-02
  +1.88871841122961840742e-02+j9.68994839854339790053e-02
  +3.63942408484601298557e-02+j1.08971381018902788163e-01
  +5.82427400456947269580e-02+j1.18147542572773670000e-01
  +8.41958760991543403440e-02+j1.22614844425500579828e-01
  +1.13072128611583069824e-01+j1.20302493273956187525e-01
  +1.42417222143248117794e-01+j1.09499372646685008692e-01
  +1.68684624372339997400e-01+j8.97900336241855417940e-02
  +1.88209389908668950353e-01+j6.27827274408281621465e-02
  +1.98617252005264616210e-01+j3.19083548476757697387e-02
  +1.99702158118096689821e-01+j1.19212485900771015049e-03
  +1.93154402445606887539e-01-j2.61639592557601427525e-02
  +1.81526474989138236760e-01-j4.84806142447395879702e-02
  +1.67255614815937841966e-01-j6.54561388960149953542e-02
  +1.52172489176767289365e-01-j7.76295988777763595889e-02
  +1.37436624202502827297e-01-j8.58766512594877490239e-02
  +1.23675064451437582980e-01-j9.10957711783649121129e-02
  +1.11159314173334730635e-01-j9.40656123697016233187e-02
  +9.99498073975896433874e-02-j9.54060348167552058074e-02
  +8.99941946545194937368e-02-j9.55877240928197924319e-02
  +8.11875555082370442550e-02-j9.49585093781057792972e-02
  +7.34066069517778918563e-02-j9.37714170116635131746e-02
  +6.65278029236628792864e-02-j9.22088381455368338857e-02
  +6.04360546047692168137e-02-j9.04015325863015972718e-02
  +5.50282490276633243220e-02-j8.84428959153344268485e-02
  +5.02140234499216728259e-02-j8.63994091057900398534e-02
  +4.59151878857715772808e-02-j8.43181939084178683208e-02
  +4.20645594576009862475e-02-j8.22324428548086433510e-02
  +3.86046123087696868570e-02-j8.01653145516734860765e-02
  +3.54861455789770643965e-02-j7.81327299350288578816e-02
  +3.26670619622711488894e-02-j7.61453839556914258146e-02
  +3.01112909280678506252e-02-j7.42101971750768751868e-02
  +2.77878609106377710836e-02-j7.23313667239364327388e-02
</dep>
<dep S[1,1] frequency>
  -3.79189312466886807584e-01+j9.24446151011631078731e-01
  +6.72066425530730565674e-02+j9.94513172665960509811e-01
  +4.20053278288372022864e-01+j8.98733719421049515041e-01
  +6.65922978193172920847e-01+j7.25215324634366109713e-01
  +8.22331534564815558319e-01+j5.21755602997467704540e-01
  +9.07846912176161313646e-01+j3.10081659963562794591e-01
  +9.34748659164940987054e-01+j9.98169454787564136566e-02
  +9.09090897583369361712e-01-j1.03409348527901720494e-01
  +8.32570211512214997107e-01-j2.93468789040703337268e-01
  +7.05077475072537596112e-01-j4.61016332870945344524e-01
  +5.28153491117843931768e-01-j5.92100391926315916535e-01
  +3.09421088174551606187e-01-j6.68892944186460058908e-01
  +6.67032620862025860120e-02-j6.73919728957073971287e-01
  -1.71430938282770312098e-01-j5.97856610875914573633e-01
  -3.71921256355347451539e-01-j4.47194183280469392816e-01
  -5.08754426672826109979e-01-j2.45320375227135040186e-01
  -5.72238571314322097550e-01-j2.43965996341278801296e-02
  -5.69481819751365248017e-01+j1.86457807230736710702e-01
  -5.17437211420065268364e-01+j3.68698598657268783452e-01
  -4.34806122070337253138e-01+j5.15042476761056633450e-01
