<Qucs Dataset 0.0.17>
<indep time 200>
  +0.00000000000e+00
  +1.50753768844e-08
  +3.01507537688e-08
  +4.52261306533e-08
  +6.03015075377e-08
  +7.53768844221e-08
  +9.04522613065e-08
  +1.05527638191e-07
  +1.20603015075e-07
  +1.35678391960e-07
  +1.50753768844e-07
  +1.65829145729e-07
  +1.80904522613e-07
  +1.95979899497e-07
  +2.11055276382e-07
  +2.26130653266e-07
  +2.41206030151e-07
  +2.56281407035e-07
  +2.71356783920e-07
  +2.86432160804e-07
  +3.01507537688e-07
  +3.16582914573e-07
  +3.31658291457e-07
  +3.46733668342e-07
  +3.61809045226e-07
  +3.76884422111e-07
  +3.91959798995e-07
  +4.07035175879e-07
  +4.22110552764e-07
  +4.37185929648e-07
  +4.52261306533e-07
  +4.67336683417e-07
  +4.82412060302e-07
  +4.97487437186e-07
  +5.12562814070e-07
  +5.27638190955e-07
  +5.42713567839e-07
  +5.57788944724e-07
  +5.72864321608e-07
  +5.87939698492e-07
  +6.03015075377e-07
  +6.18090452261e-07
  +6.33165829146e-07
  +6.48241206030e-07
  +6.63316582915e-07
  +6.78391959799e-07
  +6.93467336683e-07
  +7.08542713568e-07
  +7.23618090452e-07
  +7.38693467337e-07
  +7.53768844221e-07
  +7.68844221106e-07
  +7.83919597990e-07
  +7.98994974874e-07
  +8.14070351759e-07
  +8.29145728643e-07
  +8.44221105528e-07
  +8.59296482412e-07
  +8.74371859296e-07
  +8.89447236181e-07
  +9.04522613065e-07
  +9.19597989950e-07
  +9.34673366834e-07
  +9.49748743719e-07
  +9.64824120603e-07
  +9.79899497487e-07
  +9.94974874372e-07
  +1.01005025126e-06
  +1.02512562814e-06
  +1.04020100503e-06
  +1.05527638191e-06
  +1.07035175879e-06
  +1.08542713568e-06
  +1.10050251256e-06
  +1.11557788945e-06
  +1.13065326633e-06
  +1.14572864322e-06
  +1.16080402010e-06
  +1.17587939698e-06
  +1.19095477387e-06
  +1.20603015075e-06
  +1.22110552764e-06
  +1.23618090452e-06
  +1.25125628141e-06
  +1.26633165829e-06
  +1.28140703518e-06
  +1.29648241206e-06
  +1.31155778894e-06
  +1.32663316583e-06
  +1.34170854271e-06
  +1.35678391960e-06
  +1.37185929648e-06
  +1.38693467337e-06
  +1.40201005025e-06
  +1.41708542714e-06
  +1.43216080402e-06
  +1.44723618090e-06
  +1.46231155779e-06
  +1.47738693467e-06
  +1.49246231156e-06
  +1.50753768844e-06
  +1.52261306533e-06
  +1.53768844221e-06
  +1.55276381910e-06
  +1.56783919598e-06
  +1.58291457286e-06
  +1.59798994975e-06
  +1.61306532663e-06
  +1.62814070352e-06
  +1.64321608040e-06
  +1.65829145729e-06
  +1.67336683417e-06
  +1.68844221106e-06
  +1.70351758794e-06
  +1.71859296482e-06
  +1.73366834171e-06
  +1.74874371859e-06
  +1.76381909548e-06
  +1.77889447236e-06
  +1.79396984925e-06
  +1.80904522613e-06
  +1.82412060302e-06
  +1.83919597990e-06
  +1.85427135678e-06
  +1.86934673367e-06
  +1.88442211055e-06
  +1.89949748744e-06
  +1.91457286432e-06
  +1.92964824121e-06
  +1.94472361809e-06
  +1.95979899497e-06
  +1.97487437186e-06
  +1.98994974874e-06
  +2.00502512563e-06
  +2.02010050251e-06
  +2.03517587940e-06
  +2.05025125628e-06
  +2.06532663317e-06
  +2.08040201005e-06
  +2.09547738693e-06
  +2.11055276382e-06
  +2.12562814070e-06
  +2.14070351759e-06
  +2.15577889447e-06
  +2.17085427136e-06
  +2.18592964824e-06
  +2.20100502513e-06
  +2.21608040201e-06
  +2.23115577889e-06
  +2.24623115578e-06
  +2.26130653266e-06
  +2.27638190955e-06
  +2.29145728643e-06
  +2.30653266332e-06
  +2.32160804020e-06
  +2.33668341709e-06
  +2.35175879397e-06
  +2.36683417085e-06
  +2.38190954774e-06
  +2.39698492462e-06
  +2.41206030151e-06
  +2.42713567839e-06
  +2.44221105528e-06
  +2.45728643216e-06
  +2.47236180905e-06
  +2.48743718593e-06
  +2.50251256281e-06
  +2.51758793970e-06
  +2.53266331658e-06
  +2.54773869347e-06
  +2.56281407035e-06
  +2.57788944724e-06
  +2.59296482412e-06
  +2.60804020101e-06
  +2.62311557789e-06
  +2.63819095477e-06
  +2.65326633166e-06
  +2.66834170854e-06
  +2.68341708543e-06
  +2.69849246231e-06
  +2.71356783920e-06
  +2.72864321608e-06
  +2.74371859296e-06
  +2.75879396985e-06
  +2.77386934673e-06
  +2.78894472362e-06
  +2.80402010050e-06
  +2.81909547739e-06
  +2.83417085427e-06
  +2.84924623116e-06
  +2.86432160804e-06
  +2.87939698492e-06
  +2.89447236181e-06
  +2.90954773869e-06
  +2.92462311558e-06
  +2.93969849246e-06
  +2.95477386935e-06
  +2.96984924623e-06
  +2.98492462312e-06
  +3.00000000000e-06
</indep>
<dep V1.It time>
  -8.00000000000e-03
  -8.00000000000e-03
  -8.00000000000e-03
  -8.00000000000e-03
  -8.00000000000e-03
  -8.00000000000e-03
  -8.00000000000e-03
  -8.00000000000e-03
  -8.00000000000e-03
  -8.00000000000e-03
  -8.00000000000e-03
  -8.00000000000e-03
  -8.00000000000e-03
  -8.00000000000e-03
  -8.00000000000e-03
  -8.00000000000e-03
  -8.00000000000e-03
  -8.00000000000e-03
  -8.00000000000e-03
  -8.00000000000e-03
  -8.00000000000e-03
  -8.00000000000e-03
  -8.00000000000e-03
  -8.00000000000e-03
  -8.00000000000e-03
  -8.00000000000e-03
  -8.00000000000e-03
  -8.00000000000e-03
  -8.00000000000e-03
  -8.00000000000e-03
  -8.00000000000e-03
  -8.00000000000e-03
  -8.00000000000e-03
  -8.00000000000e-03
  -8.00000000000e-03
  -8.00000000000e-03
  -8.00000000000e-03
  -8.00000000000e-03
  -8.00000000000e-03
  -8.00000000000e-03
  -8.00000000000e-03
  -8.00000000000e-03
  -8.00000000000e-03
  -8.00000000000e-03
  -8.00000000000e-03
  -8.00000000000e-03
  -8.00000000000e-03
  -8.00000000000e-03
  -8.00000000000e-03
  -8.00000000000e-03
  -8.00000000000e-03
  -8.00000000000e-03
  -8.00000000000e-03
  -8.00000000000e-03
  -8.00000000000e-03
  -8.00000000000e-03
  -8.00000000000e-03
  -8.00000000000e-03
  -8.00000000000e-03
  -8.00000000000e-03
  -8.00000000000e-03
  -8.00000000000e-03
  -8.00000000000e-03
  -8.00000000000e-03
  -8.00000000000e-03
  -8.00000000000e-03
  -8.00000000000e-03
  -8.00000000000e-03
  -8.00000000000e-03
  -8.00000000000e-03
  -8.00000000000e-03
  -8.00000000000e-03
  -8.00000000000e-03
  -8.00000000000e-03
  -8.00000000000e-03
  -8.00000000000e-03
  -8.00000000000e-03
  -8.00000000000e-03
  -8.00000000000e-03
  -8.00000000000e-03
  -8.00000000001e-03
  -8.00000000000e-03
  -8.00000000000e-03
  -8.00000000000e-03
  -8.00000000000e-03
  -8.00000000000e-03
  -8.00000000000e-03
  -8.00000000000e-03
  -8.00000000000e-03
  -8.00000000000e-03
  -8.00000000000e-03
  -8.00000000000e-03
  -8.00000000000e-03
  -8.00000000000e-03
  -8.00000000000e-03
  -8.00000000000e-03
  -8.00000000000e-03
  -8.00000000000e-03
  -8.00000000000e-03
  -8.00000000000e-03
  -8.00000000000e-03
  -8.00000000000e-03
  -8.00000000000e-03
  -8.00000000000e-03
  -8.00000000000e-03
  -8.00000000000e-03
  -8.00000000000e-03
  -8.00000000000e-03
  -8.00000000000e-03
  -8.00000000000e-03
  -8.00000000000e-03
  -8.00000000000e-03
  -8.00000000000e-03
  -8.00000000000e-03
  -8.00000000000e-03
  -8.00000000000e-03
  -8.00000000000e-03
  -8.00000000000e-03
  -8.00000000000e-03
  -8.00000000000e-03
  -8.00000000000e-03
  -8.00000000000e-03
  -8.00000000000e-03
  -8.00000000000e-03
  -8.00000000000e-03
  -8.00000000000e-03
  -8.00000000000e-03
  -8.00000000000e-03
  -8.00000000000e-03
  -8.00000000000e-03
  -8.00000000000e-03
  -8.00000000000e-03
  -8.00000000000e-03
  -8.00000000000e-03
  -8.00000000000e-03
  -8.00000000000e-03
  -8.00000000000e-03
  -8.00000000000e-03
  -8.00000000000e-03
  -8.00000000000e-03
  -8.00000000000e-03
  -8.00000000000e-03
  -8.00000000000e-03
  -8.00000000000e-03
  -8.00000000000e-03
  -8.00000000000e-03
  -8.00000000000e-03
  -8.00000000000e-03
  -8.00000000000e-03
  -8.00000000000e-03
  -8.00000000000e-03
  -8.00000000000e-03
  -8.00000000000e-03
  -8.00000000000e-03
  -8.00000000000e-03
  -8.00000000000e-03
  -8.00000000000e-03
  -8.00000000000e-03
  -8.00000000000e-03
  -8.00000000000e-03
  -8.00000000000e-03
  -8.00000000000e-03
  -8.00000000000e-03
  -8.00000000000e-03
  -8.00000000000e-03
  -8.00000000000e-03
  -8.00000000000e-03
  -8.00000000000e-03
  -8.00000000000e-03
  -8.00000000000e-03
  -8.00000000000e-03
  -8.00000000000e-03
  -8.00000000000e-03
  -8.00000000000e-03
  -8.00000000000e-03
  -8.00000000000e-03
  -8.00000000000e-03
  -8.00000000000e-03
  -8.00000000000e-03
  -8.00000000000e-03
  -8.00000000000e-03
  -8.00000000000e-03
  -8.00000000000e-03
  -8.00000000000e-03
  -8.00000000000e-03
  -8.00000000000e-03
  -8.00000000000e-03
  -8.00000000000e-03
  -8.00000000000e-03
  -8.00000000000e-03
  -8.00000000000e-03
  -8.00000000000e-03
  -8.00000000000e-03
  -8.00000000000e-03
  -8.00000000000e-03
  -8.00000000000e-03
  -8.00000000000e-03
  -8.00000000000e-03
  -8.00000000000e-03
  -8.00000000000e-03
</dep>
<dep _net1.Vt time>
  +7.86475468867e-01
  +7.86475468869e-01
  +7.86475468866e-01
  +7.86475468869e-01
  +7.86475468866e-01
  +7.86475468869e-01
  +7.86475468866e-01
  +7.86475468869e-01
  +7.86475468866e-01
  +7.86475468868e-01
  +7.86475468866e-01
  +7.86475468868e-01
  +7.86475468865e-01
  +7.86475468868e-01
  +7.86475468866e-01
  +7.86475468869e-01
  +7.86475468869e-01
  +7.86475468875e-01
  +7.86475468877e-01
  +7.86475468885e-01
  +7.86475468884e-01
  +7.86475468880e-01
  +7.86475468856e-01
  +7.86475468813e-01
  +7.86475468734e-01
  +7.86475468629e-01
  +7.86475468510e-01
  +7.86475468442e-01
  +7.86475468520e-01
  +7.86475468920e-01
  +7.86475469839e-01
  +7.86475471481e-01
  +7.86475473876e-01
  +7.86475476690e-01
  +7.86475478839e-01
  +7.86475478148e-01
  +7.86475471037e-01
  +7.86475452718e-01
  +7.86475418256e-01
  +7.86475365318e-01
  +7.86475299125e-01
  +7.86475240002e-01
  +7.86475232518e-01
  +7.86475353279e-01
  +7.86475710712e-01
  +7.86476425980e-01
  +7.86477579630e-01
  +7.86479107591e-01
  +7.86480636513e-01
  +7.86481270501e-01
  +7.86479386206e-01
  +7.86472568441e-01
  +7.86457920368e-01
  +7.86433090162e-01
  +7.86398413108e-01
  +7.86360471786e-01
  +7.86336967615e-01
  +7.86361879177e-01
  +7.86488283096e-01
  +7.86783916337e-01
  +7.87311963802e-01
  +7.88088141691e-01
  +7.89004274501e-01
  +7.89718368513e-01
  +7.89538177760e-01
  +7.87307523152e-01
  +7.81454380517e-01
  +7.70333815888e-01
  +7.53106631676e-01
  +7.31416065315e-01
  +7.11574124578e-01
  +7.07580747334e-01
  +7.43975052011e-01
  +8.58235923197e-01
  +1.09982870706e+00
  +1.46636651000e+00
  +1.75309199438e+00
  +1.77032095085e+00
  +1.38507390293e+00
  +2.62374783741e-01
  -1.75939657660e+00
  -2.73946286458e+00
  -2.09959643024e+00
  -6.16817991780e-01
  +1.37603061632e+00
  +3.05556764620e+00
  +3.33094197113e+00
  +3.11649564859e+00
  +2.46300041275e+00
  +7.77101365254e-01
  -2.97820153679e+00
  -5.06041944127e+00
  -4.23862260757e+00
  -2.10495370495e+00
  +1.88162034874e-01
  +2.71535957715e+00
  +3.41108697427e+00
  +3.37158777151e+00
  +2.94480734781e+00
  +1.92399433842e+00
  -8.78564168738e-01
  -4.58640630077e+00
  -5.09313448666e+00
  -3.39084691312e+00
  -1.04298002644e+00
  +1.45543457248e+00
  +3.20999417514e+00
  +3.44983051703e+00
  +3.22827519943e+00
  +2.58121986683e+00
  +9.32963749272e-01
  -2.90948855217e+00
  -5.22079175367e+00
  -4.47654440970e+00
  -2.31632422990e+00
  +2.56568815706e-02
  +2.61253706697e+00
  +3.40361785951e+00
  +3.39279360047e+00
  +2.99420639390e+00
  +2.03502075259e+00
  -5.78615889075e-01
  -4.43030973998e+00
  -5.16085582409e+00
  -3.55503264490e+00
  -1.21418471303e+00
  +1.22273244242e+00
  +3.16020434821e+00
  +3.45166102649e+00
  +3.25676016395e+00
  +2.64825643302e+00
  +1.12749010147e+00
  -2.61116715478e+00
  -5.17216731222e+00
  -4.59724024604e+00
  -2.48768470974e+00
  -1.38542413796e-01
  +2.47884178540e+00
  +3.38511127271e+00
  +3.40652369681e+00
  +3.03676834164e+00
  +2.13601091082e+00
  -2.89737105166e-01
  -4.24470234939e+00
  -5.20796571742e+00
  -3.71021937066e+00
  -1.38365030868e+00
  +9.91476177188e-01
  +3.10276238445e+00
  +3.45102907807e+00
  +3.28301983470e+00
  +2.71069762692e+00
  +1.30839070250e+00
  -2.30403538322e+00
  -5.10707627368e+00
  -4.71034668612e+00
  -2.65793127874e+00
  -3.03030225882e-01
  +2.32865425276e+00
  +3.36314386279e+00
  +3.41881651059e+00
  +3.07705668465e+00
  +2.23036804664e+00
  -1.96577534542e-02
  -4.03845893698e+00
  -5.24173436404e+00
  -3.86370485234e+00
  -1.55546055753e+00
  +7.81395148462e-01
  +3.03662286132e+00
  +3.44813624302e+00
  +3.30751647248e+00
  +2.77036575237e+00
  +1.47214061707e+00
  -1.98520545125e+00
  -5.02423948424e+00
  -4.81752308050e+00
  -2.83061351355e+00
  -4.71198198593e-01
  +2.15837457279e+00
  +3.33681395946e+00
  +3.42954257235e+00
  +3.11567688412e+00
  +2.31981082565e+00
  +2.29378407817e-01
  -3.81119353885e+00
  -5.26387748695e+00
  -4.01355724266e+00
  -1.72893165487e+00
  +5.90373840882e-01
  +2.96002384309e+00
  +3.44274621811e+00
  +3.33056590250e+00
  +2.82698189777e+00
  +1.62118627970e+00
  -1.65828333944e+00
  -4.92095085081e+00
  -4.91313548742e+00
  -2.99888669592e+00
  -6.38957310202e-01
</dep>
<dep _net2.Vt time>
  +5.00000000000e+00
  +5.00000000000e+00
  +5.00000000000e+00
  +5.00000000000e+00
  +5.00000000000e+00
  +5.00000000000e+00
  +5.00000000000e+00
  +5.00000000000e+00
  +5.00000000000e+00
  +5.00000000000e+00
  +5.00000000000e+00
  +5.00000000000e+00
  +5.00000000000e+00
  +5.00000000000e+00
  +5.00000000000e+00
  +5.00000000000e+00
  +5.00000000000e+00
  +5.00000000000e+00
  +5.00000000000e+00
  +5.00000000000e+00
  +5.00000000000e+00
  +5.00000000000e+00
  +5.00000000000e+00
  +5.00000000000e+00
  +5.00000000000e+00
  +5.00000000000e+00
  +5.00000000000e+00
  +5.00000000000e+00
  +5.00000000000e+00
  +5.00000000000e+00
  +5.00000000000e+00
  +5.00000000000e+00
  +5.00000000000e+00
  +5.00000000000e+00
  +5.00000000000e+00
  +5.00000000000e+00
  +5.00000000000e+00
  +5.00000000000e+00
  +5.00000000000e+00
  +5.00000000000e+00
  +5.00000000000e+00
  +5.00000000000e+00
  +5.00000000000e+00
  +5.00000000000e+00
  +5.00000000000e+00
  +5.00000000000e+00
  +5.00000000000e+00
  +5.00000000000e+00
  +5.00000000000e+00
  +5.00000000000e+00
  +5.00000000000e+00
  +5.00000000000e+00
  +5.00000000000e+00
  +5.00000000000e+00
  +5.00000000000e+00
  +5.00000000000e+00
  +5.00000000000e+00
  +5.00000000000e+00
  +5.00000000000e+00
  +5.00000000000e+00
  +5.00000000000e+00
  +5.00000000000e+00
  +5.00000000000e+00
  +5.00000000000e+00
  +5.00000000000e+00
  +5.00000000000e+00
  +5.00000000000e+00
  +5.00000000000e+00
  +5.00000000000e+00
  +5.00000000000e+00
  +5.00000000000e+00
  +5.00000000000e+00
  +5.00000000000e+00
  +5.00000000000e+00
  +5.00000000000e+00
  +5.00000000000e+00
  +5.00000000000e+00
  +5.00000000000e+00
  +5.00000000000e+00
  +5.00000000000e+00
  +5.00000000000e+00
  +5.00000000000e+00
  +5.00000000000e+00
  +5.00000000000e+00
  +5.00000000000e+00
  +5.00000000000e+00
  +5.00000000000e+00
  +5.00000000000e+00
  +5.00000000000e+00
  +5.00000000000e+00
  +5.00000000000e+00
  +5.00000000000e+00
  +5.00000000000e+00
  +5.00000000000e+00
  +5.00000000000e+00
  +5.00000000000e+00
  +5.00000000000e+00
  +5.00000000000e+00
  +5.00000000000e+00
  +5.00000000000e+00
  +5.00000000000e+00
  +5.00000000000e+00
  +5.00000000000e+00
  +5.00000000000e+00
  +5.00000000000e+00
  +5.00000000000e+00
  +5.00000000000e+00
  +5.00000000000e+00
  +5.00000000000e+00
  +5.00000000000e+00
  +5.00000000000e+00
  +5.00000000000e+00
  +5.00000000000e+00
  +5.00000000000e+00
  +5.00000000000e+00
  +5.00000000000e+00
  +5.00000000000e+00
  +5.00000000000e+00
  +5.00000000000e+00
  +5.00000000000e+00
  +5.00000000000e+00
  +5.00000000000e+00
  +5.00000000000e+00
  +5.00000000000e+00
  +5.00000000000e+00
  +5.00000000000e+00
  +5.00000000000e+00
  +5.00000000000e+00
  +5.00000000000e+00
  +5.00000000000e+00
  +5.00000000000e+00
  +5.00000000000e+00
  +5.00000000000e+00
  +5.00000000000e+00
  +5.00000000000e+00
  +5.00000000000e+00
  +5.00000000000e+00
  +5.00000000000e+00
  +5.00000000000e+00
  +5.00000000000e+00
  +5.00000000000e+00
  +5.00000000000e+00
  +5.00000000000e+00
  +5.00000000000e+00
  +5.00000000000e+00
  +5.00000000000e+00
  +5.00000000000e+00
  +5.00000000000e+00
  +5.00000000000e+00
  +5.00000000000e+00
  +5.00000000000e+00
  +5.00000000000e+00
  +5.00000000000e+00
  +5.00000000000e+00
  +5.00000000000e+00
  +5.00000000000e+00
  +5.00000000000e+00
  +5.00000000000e+00
  +5.00000000000e+00
  +5.00000000000e+00
  +5.00000000000e+00
  +5.00000000000e+00
  +5.00000000000e+00
  +5.00000000000e+00
  +5.00000000000e+00
  +5.00000000000e+00
  +5.00000000000e+00
  +5.00000000000e+00
  +5.00000000000e+00
  +5.00000000000e+00
  +5.00000000000e+00
  +5.00000000000e+00
  +5.00000000000e+00
  +5.00000000000e+00
  +5.00000000000e+00
  +5.00000000000e+00
  +5.00000000000e+00
  +5.00000000000e+00
  +5.00000000000e+00
  +5.00000000000e+00
  +5.00000000000e+00
  +5.00000000000e+00
  +5.00000000000e+00
  +5.00000000000e+00
  +5.00000000000e+00
  +5.00000000000e+00
  +5.00000000000e+00
  +5.00000000000e+00
  +5.00000000000e+00
  +5.00000000000e+00
  +5.00000000000e+00
  +5.00000000000e+00
  +5.00000000000e+00
  +5.00000000000e+00
  +5.00000000000e+00
  +5.00000000000e+00
  +5.00000000000e+00
  +5.00000000000e+00
  +5.00000000000e+00
  +5.00000000000e+00
</dep>
<dep _net0.Vt time>
  +7.86475468867e-01
  +7.86475468869e-01
  +7.86475468866e-01
  +7.86475468869e-01
  +7.86475468866e-01
  +7.86475468869e-01
  +7.86475468866e-01
  +7.86475468869e-01
  +7.86475468866e-01
  +7.86475468869e-01
  +7.86475468866e-01
  +7.86475468869e-01
  +7.86475468867e-01
  +7.86475468869e-01
  +7.86475468866e-01
  +7.86475468868e-01
  +7.86475468863e-01
  +7.86475468862e-01
  +7.86475468855e-01
  +7.86475468853e-01
  +7.86475468848e-01
  +7.86475468857e-01
  +7.86475468875e-01
  +7.86475468924e-01
  +7.86475468998e-01
  +7.86475469108e-01
  +7.86475469222e-01
  +7.86475469295e-01
  +7.86475469211e-01
  +7.86475468817e-01
  +7.86475467893e-01
  +7.86475466256e-01
  +7.86475463856e-01
  +7.86475461047e-01
  +7.86475458893e-01
  +7.86475459589e-01
  +7.86475466695e-01
  +7.86475485019e-01
  +7.86475519476e-01
  +7.86475572419e-01
  +7.86475638607e-01
  +7.86475697735e-01
  +7.86475705214e-01
  +7.86475584458e-01
  +7.86475227020e-01
  +7.86474511757e-01
  +7.86473358103e-01
  +7.86471830149e-01
  +7.86470301225e-01
  +7.86469667243e-01
  +7.86471551529e-01
  +7.86478369298e-01
  +7.86493017433e-01
  +7.86517847977e-01
  +7.86552525959e-01
  +7.86590468913e-01
  +7.86613974419e-01
  +7.86589061444e-01
  +7.86462654683e-01
  +7.86167042701e-01
  +7.85639130626e-01
  +7.84863378312e-01
  +7.83948094706e-01
  +7.83234922934e-01
  +7.83414859535e-01
  +7.85643569672e-01
  +7.91502209784e-01
  +8.02675688843e-01
  +8.20095579207e-01
  +8.42222407611e-01
  +8.62655070855e-01
  +8.66789740542e-01
  +8.29384414079e-01
  +7.15850190229e-01
  +4.93735640404e-01
  +1.48310310998e-01
  -1.86274878840e-01
  -2.08585718844e-01
  +2.31958477111e-01
  +1.35440068474e+00
  +2.61367332124e+00
  +2.93715529580e+00
  +2.73808768959e+00
  +2.05251382562e+00
  +2.40989780155e-01
  -3.18966617913e+00
  -4.51719760319e+00
  -3.44633746802e+00
  -1.39702034221e+00
  +7.95867907728e-01
  +3.00191172075e+00
  +3.42024166092e+00
  +3.28054347193e+00
  +2.73991848769e+00
  +1.42817936935e+00
  -2.03418568290e+00
  -5.00149349277e+00
  -4.75622760184e+00
  -2.76692943537e+00
  -4.20319677414e-01
  +2.20611673303e+00
  +3.34297557653e+00
  +3.42526336811e+00
  +3.10366858877e+00
  +2.29366337038e+00
  +1.59822276526e-01
  -3.87766860570e+00
  -5.25612314969e+00
  -3.96835457017e+00
  -1.67719811036e+00
  +6.44650150079e-01
  +2.98375760583e+00
  +3.44458896296e+00
  +3.32377814226e+00
  +2.81013441418e+00
  +1.57810959228e+00
  -1.75639096532e+00
  -4.95400332770e+00
  -4.88630951494e+00
  -2.94916027957e+00
  -5.88940818777e-01
  +2.02854168278e+00
  +3.31561816731e+00
  +3.43557516872e+00
  +3.14105341037e+00
  +2.37860650526e+00
  +3.86284892284e-01
  -3.64171754697e+00
  -5.26849601979e+00
  -4.11339386337e+00
  -1.85005759617e+00
  +4.69760853627e-01
  +2.90046157211e+00
  +3.43729963063e+00
  +3.34479290787e+00
  +2.86360678262e+00
  +1.71549194645e+00
  -1.43268501832e+00
  -4.83852070698e+00
  -4.97260801303e+00
  -3.11438453914e+00
  -7.55244266091e-01
  +1.83129593205e+00
  +3.28173330621e+00
  +3.44266070269e+00
