<Qucs Dataset 0.0.18>
<indep time 200>
  +0.00000000000e+00
  +1.50753768844e-08
  +3.01507537688e-08
  +4.52261306533e-08
  +6.03015075377e-08
  +7.53768844221e-08
  +9.04522613065e-08
  +1.05527638191e-07
  +1.20603015075e-07
  +1.35678391960e-07
  +1.50753768844e-07
  +1.65829145729e-07
  +1.80904522613e-07
  +1.95979899497e-07
  +2.11055276382e-07
  +2.26130653266e-07
  +2.41206030151e-07
  +2.56281407035e-07
  +2.71356783920e-07
  +2.86432160804e-07
  +3.01507537688e-07
  +3.16582914573e-07
  +3.31658291457e-07
  +3.46733668342e-07
  +3.61809045226e-07
  +3.76884422111e-07
  +3.91959798995e-07
  +4.07035175879e-07
  +4.22110552764e-07
  +4.37185929648e-07
  +4.52261306533e-07
  +4.67336683417e-07
  +4.82412060302e-07
  +4.97487437186e-07
  +5.12562814070e-07
  +5.27638190955e-07
  +5.42713567839e-07
  +5.57788944724e-07
  +5.72864321608e-07
  +5.87939698492e-07
  +6.03015075377e-07
  +6.18090452261e-07
  +6.33165829146e-07
  +6.48241206030e-07
  +6.63316582915e-07
  +6.78391959799e-07
  +6.93467336683e-07
  +7.08542713568e-07
  +7.23618090452e-07
  +7.38693467337e-07
  +7.53768844221e-07
  +7.68844221106e-07
  +7.83919597990e-07
  +7.98994974874e-07
  +8.14070351759e-07
  +8.29145728643e-07
  +8.44221105528e-07
  +8.59296482412e-07
  +8.74371859296e-07
  +8.89447236181e-07
  +9.04522613065e-07
  +9.19597989950e-07
  +9.34673366834e-07
  +9.49748743719e-07
  +9.64824120603e-07
  +9.79899497487e-07
  +9.94974874372e-07
  +1.01005025126e-06
  +1.02512562814e-06
  +1.04020100503e-06
  +1.05527638191e-06
  +1.07035175879e-06
  +1.08542713568e-06
  +1.10050251256e-06
  +1.11557788945e-06
  +1.13065326633e-06
  +1.14572864322e-06
  +1.16080402010e-06
  +1.17587939698e-06
  +1.19095477387e-06
  +1.20603015075e-06
  +1.22110552764e-06
  +1.23618090452e-06
  +1.25125628141e-06
  +1.26633165829e-06
  +1.28140703518e-06
  +1.29648241206e-06
  +1.31155778894e-06
  +1.32663316583e-06
  +1.34170854271e-06
  +1.35678391960e-06
  +1.37185929648e-06
  +1.38693467337e-06
  +1.40201005025e-06
  +1.41708542714e-06
  +1.43216080402e-06
  +1.44723618090e-06
  +1.46231155779e-06
  +1.47738693467e-06
  +1.49246231156e-06
  +1.50753768844e-06
  +1.52261306533e-06
  +1.53768844221e-06
  +1.55276381910e-06
  +1.56783919598e-06
  +1.58291457286e-06
  +1.59798994975e-06
  +1.61306532663e-06
  +1.62814070352e-06
  +1.64321608040e-06
  +1.65829145729e-06
  +1.67336683417e-06
  +1.68844221106e-06
  +1.70351758794e-06
  +1.71859296482e-06
  +1.73366834171e-06
  +1.74874371859e-06
  +1.76381909548e-06
  +1.77889447236e-06
  +1.79396984925e-06
  +1.80904522613e-06
  +1.82412060302e-06
  +1.83919597990e-06
  +1.85427135678e-06
  +1.86934673367e-06
  +1.88442211055e-06
  +1.89949748744e-06
  +1.91457286432e-06
  +1.92964824121e-06
  +1.94472361809e-06
  +1.95979899497e-06
  +1.97487437186e-06
  +1.98994974874e-06
  +2.00502512563e-06
  +2.02010050251e-06
  +2.03517587940e-06
  +2.05025125628e-06
  +2.06532663317e-06
  +2.08040201005e-06
  +2.09547738693e-06
  +2.11055276382e-06
  +2.12562814070e-06
  +2.14070351759e-06
  +2.15577889447e-06
  +2.17085427136e-06
  +2.18592964824e-06
  +2.20100502513e-06
  +2.21608040201e-06
  +2.23115577889e-06
  +2.24623115578e-06
  +2.26130653266e-06
  +2.27638190955e-06
  +2.29145728643e-06
  +2.30653266332e-06
  +2.32160804020e-06
  +2.33668341709e-06
  +2.35175879397e-06
  +2.36683417085e-06
  +2.38190954774e-06
  +2.39698492462e-06
  +2.41206030151e-06
  +2.42713567839e-06
  +2.44221105528e-06
  +2.45728643216e-06
  +2.47236180905e-06
  +2.48743718593e-06
  +2.50251256281e-06
  +2.51758793970e-06
  +2.53266331658e-06
  +2.54773869347e-06
  +2.56281407035e-06
  +2.57788944724e-06
  +2.59296482412e-06
  +2.60804020101e-06
  +2.62311557789e-06
  +2.63819095477e-06
  +2.65326633166e-06
  +2.66834170854e-06
  +2.68341708543e-06
  +2.69849246231e-06
  +2.71356783920e-06
  +2.72864321608e-06
  +2.74371859296e-06
  +2.75879396985e-06
  +2.77386934673e-06
  +2.78894472362e-06
  +2.80402010050e-06
  +2.81909547739e-06
  +2.83417085427e-06
  +2.84924623116e-06
  +2.86432160804e-06
  +2.87939698492e-06
  +2.89447236181e-06
  +2.90954773869e-06
  +2.92462311558e-06
  +2.93969849246e-06
  +2.95477386935e-06
  +2.96984924623e-06
  +2.98492462312e-06
  +3.00000000000e-06
</indep>
<dep V1.It time>
  -8.00000000000e-03
  -8.00000000000e-03
  -8.00000000000e-03
  -8.00000000000e-03
  -8.00000000000e-03
  -8.00000000000e-03
  -8.00000000000e-03
  -8.00000000000e-03
  -8.00000000000e-03
  -8.00000000000e-03
  -8.00000000000e-03
  -8.00000000000e-03
  -8.00000000000e-03
  -8.00000000000e-03
  -8.00000000000e-03
  -8.00000000000e-03
  -8.00000000000e-03
  -8.00000000000e-03
  -8.00000000000e-03
  -8.00000000000e-03
  -8.00000000000e-03
  -8.00000000000e-03
  -8.00000000000e-03
  -8.00000000000e-03
  -8.00000000000e-03
  -8.00000000000e-03
  -8.00000000000e-03
  -8.00000000000e-03
  -8.00000000000e-03
  -8.00000000000e-03
  -8.00000000000e-03
  -8.00000000000e-03
  -8.00000000000e-03
  -8.00000000000e-03
  -8.00000000000e-03
  -8.00000000000e-03
  -8.00000000000e-03
  -8.00000000000e-03
  -8.00000000000e-03
  -8.00000000000e-03
  -8.00000000000e-03
  -8.00000000000e-03
  -8.00000000000e-03
  -8.00000000000e-03
  -8.00000000000e-03
  -8.00000000000e-03
  -8.00000000000e-03
  -8.00000000000e-03
  -8.00000000000e-03
  -8.00000000000e-03
  -8.00000000000e-03
  -8.00000000000e-03
  -8.00000000000e-03
  -8.00000000000e-03
  -8.00000000000e-03
  -8.00000000000e-03
  -8.00000000000e-03
  -8.00000000000e-03
  -8.00000000000e-03
  -8.00000000000e-03
  -8.00000000000e-03
  -8.00000000000e-03
  -8.00000000000e-03
  -8.00000000000e-03
  -8.00000000000e-03
  -8.00000000000e-03
  -8.00000000000e-03
  -8.00000000000e-03
  -8.00000000000e-03
  -8.00000000000e-03
  -8.00000000000e-03
  -8.00000000000e-03
  -8.00000000000e-03
  -8.00000000000e-03
  -8.00000000000e-03
  -8.00000000000e-03
  -8.00000000000e-03
  -8.00000000000e-03
  -8.00000000000e-03
  -8.00000000000e-03
  -8.00000000000e-03
  -8.00000000000e-03
  -8.00000000000e-03
  -8.00000000000e-03
  -8.00000000000e-03
  -8.00000000000e-03
  -8.00000000000e-03
  -8.00000000000e-03
  -8.00000000000e-03
  -8.00000000000e-03
  -8.00000000000e-03
  -8.00000000000e-03
  -8.00000000000e-03
  -8.00000000000e-03
  -8.00000000000e-03
  -8.00000000000e-03
  -8.00000000000e-03
  -8.00000000000e-03
  -8.00000000000e-03
  -8.00000000000e-03
  -8.00000000000e-03
  -8.00000000000e-03
  -8.00000000000e-03
  -8.00000000000e-03
  -8.00000000000e-03
  -8.00000000000e-03
  -8.00000000000e-03
  -8.00000000000e-03
  -8.00000000000e-03
  -8.00000000000e-03
  -8.00000000000e-03
  -8.00000000000e-03
  -8.00000000000e-03
  -8.00000000000e-03
  -8.00000000000e-03
  -8.00000000000e-03
  -8.00000000000e-03
  -8.00000000000e-03
  -8.00000000000e-03
  -8.00000000000e-03
  -8.00000000000e-03
  -8.00000000000e-03
  -8.00000000000e-03
  -8.00000000000e-03
  -8.00000000000e-03
  -8.00000000000e-03
  -8.00000000000e-03
  -8.00000000000e-03
  -8.00000000000e-03
  -8.00000000000e-03
  -8.00000000000e-03
  -8.00000000000e-03
  -8.00000000000e-03
  -8.00000000000e-03
  -8.00000000000e-03
  -8.00000000000e-03
  -8.00000000000e-03
  -8.00000000000e-03
  -8.00000000000e-03
  -8.00000000000e-03
  -8.00000000000e-03
  -8.00000000000e-03
  -8.00000000000e-03
  -8.00000000000e-03
  -8.00000000000e-03
  -8.00000000000e-03
  -8.00000000000e-03
  -8.00000000000e-03
  -8.00000000000e-03
  -8.00000000000e-03
  -8.00000000000e-03
  -8.00000000000e-03
  -8.00000000000e-03
  -8.00000000000e-03
  -8.00000000000e-03
  -8.00000000000e-03
  -8.00000000000e-03
  -8.00000000000e-03
  -8.00000000000e-03
  -8.00000000000e-03
  -8.00000000000e-03
  -8.00000000000e-03
  -8.00000000000e-03
  -8.00000000000e-03
  -8.00000000000e-03
  -8.00000000000e-03
  -8.00000000000e-03
  -8.00000000000e-03
  -8.00000000000e-03
  -8.00000000000e-03
  -8.00000000000e-03
  -8.00000000000e-03
  -8.00000000000e-03
  -8.00000000000e-03
  -8.00000000000e-03
  -8.00000000000e-03
  -8.00000000000e-03
  -8.00000000000e-03
  -8.00000000000e-03
  -8.00000000000e-03
  -8.00000000000e-03
  -8.00000000000e-03
  -8.00000000000e-03
  -8.00000000000e-03
  -8.00000000000e-03
  -8.00000000000e-03
  -8.00000000000e-03
  -8.00000000000e-03
  -8.00000000000e-03
  -8.00000000000e-03
  -8.00000000000e-03
  -8.00000000000e-03
  -8.00000000000e-03
  -8.00000000000e-03
  -8.00000000000e-03
  -8.00000000000e-03
  -8.00000000000e-03
  -8.00000000000e-03
  -8.00000000000e-03
  -8.00000000000e-03
</dep>
<dep _net1.Vt time>
  +7.86475468867e-01
  +7.86475468869e-01
  +7.86475468866e-01
  +7.86475468869e-01
  +7.86475468866e-01
  +7.86475468869e-01
  +7.86475468866e-01
  +7.86475468869e-01
  +7.86475468866e-01
  +7.86475468868e-01
  +7.86475468866e-01
  +7.86475468868e-01
  +7.86475468865e-01
  +7.86475468868e-01
  +7.86475468866e-01
  +7.86475468869e-01
  +7.86475468869e-01
  +7.86475468875e-01
  +7.86475468877e-01
  +7.86475468885e-01
  +7.86475468884e-01
  +7.86475468880e-01
  +7.86475468856e-01
  +7.86475468813e-01
  +7.86475468734e-01
  +7.86475468629e-01
  +7.86475468510e-01
  +7.86475468442e-01
  +7.86475468520e-01
  +7.86475468920e-01
  +7.86475469839e-01
  +7.86475471481e-01
  +7.86475473876e-01
  +7.86475476690e-01
  +7.86475478839e-01
  +7.86475478148e-01
  +7.86475471037e-01
  +7.86475452718e-01
  +7.86475418256e-01
  +7.86475365318e-01
  +7.86475299125e-01
  +7.86475240002e-01
  +7.86475232518e-01
  +7.86475353279e-01
  +7.86475710712e-01
  +7.86476425980e-01
  +7.86477579630e-01
  +7.86479107591e-01
  +7.86480636513e-01
  +7.86481270501e-01
  +7.86479386206e-01
  +7.86472568441e-01
  +7.86457920368e-01
  +7.86433090162e-01
  +7.86398413108e-01
  +7.86360471786e-01
  +7.86336967615e-01
  +7.86361879177e-01
  +7.86488283096e-01
  +7.86783916337e-01
  +7.87311963802e-01
  +7.88088141691e-01
  +7.89004274501e-01
  +7.89718368513e-01
  +7.89538177760e-01
  +7.87307523152e-01
  +7.81454380517e-01
  +7.70333815888e-01
  +7.53106631676e-01
  +7.31416065315e-01
  +7.11574124578e-01
  +7.07580747334e-01
  +7.43975052011e-01
  +8.58235923197e-01
  +1.09982870706e+00
  +1.46636651000e+00
  +1.75309199438e+00
  +1.77032095085e+00
  +1.38507390293e+00
  +2.62374793620e-01
  -1.75849631208e+00
  -2.73945379954e+00
  -2.10059152335e+00
  -6.18013436158e-01
  +1.37404639945e+00
  +3.05509875616e+00
  +3.33102419485e+00
  +3.11671217533e+00
  +2.46361268774e+00
  +7.78917655900e-01
  -2.97532878235e+00
  -5.05941146771e+00
  -4.23916291393e+00
  -2.10636640795e+00
  +1.86965709953e-01
  +2.71432818865e+00
  +3.41095275367e+00
  +3.37169813423e+00
  +2.94513617566e+00
  +1.92471348092e+00
  -8.76211061307e-01
  -4.58464820814e+00
  -5.09421655212e+00
  -3.39258641429e+00
  -1.04456364479e+00
  +1.45357640306e+00
  +3.20963932711e+00
  +3.44988279482e+00
  +3.22844961161e+00
  +2.58163677253e+00
  +9.34487012724e-01
  -2.90739892830e+00
  -5.21973476111e+00
  -4.47645846848e+00
  -2.31675551460e+00
  +2.49472907257e-02
  +2.61205326633e+00
  +3.40350384607e+00
  +3.39276192169e+00
  +2.99429627943e+00
  +2.03536183756e+00
  -5.77800959178e-01
  -4.42993843840e+00
  -5.16225436612e+00
  -3.55626197893e+00
  -1.21532845773e+00
  +1.22141407967e+00
  +3.15991293776e+00
  +3.45181285035e+00
  +3.25709503063e+00
  +2.64890689717e+00
  +1.12898444211e+00
  -2.60927851939e+00
  -5.17196850370e+00
  -4.59826437050e+00
  -2.48922197290e+00
  -1.40167794296e-01
  +2.47754283857e+00
  +3.38497474262e+00
  +3.40679562603e+00
  +3.03712201513e+00
  +2.13691431302e+00
  -2.86794845410e-01
  -4.24201377725e+00
  -5.20824748833e+00
  -3.71198983530e+00
  -1.38570091135e+00
  +9.88923353173e-01
  +3.10201986198e+00
  +3.45112835648e+00
  +3.28348502453e+00
  +2.71144513660e+00
  +1.31037684196e+00
  -2.30052225412e+00
  -5.10641644770e+00
  -4.71221454808e+00
  -2.66054265662e+00
  -3.05506285651e-01
  +2.32677217244e+00
  +3.36291991888e+00
  +3.41912956047e+00
  +3.07771008507e+00
  +2.23160177145e+00
  -1.67997879209e-02
  -4.03695329241e+00
  -5.24323222411e+00
  -3.86485801236e+00
  -1.55650363265e+00
  +7.79499944709e-01
  +3.03617139596e+00
  +3.44821386890e+00
  +3.30802164858e+00
  +2.77130312251e+00
  +1.47403518872e+00
  -1.98237800886e+00
  -5.02396630117e+00
  -4.81810821309e+00
  -2.83282963907e+00
  -4.73321542094e-01
  +2.15651515158e+00
  +3.33653946643e+00
  +3.42956766526e+00
  +3.11602178173e+00
  +2.32072288028e+00
  +2.31429429800e-01
  -3.80837790086e+00
  -5.26290948254e+00
  -4.01364727194e+00
  -1.72989878265e+00
  +5.89327617751e-01
  +2.95954496359e+00
  +3.44254726402e+00
  +3.33034182374e+00
  +2.82676530126e+00
  +1.62124517376e+00
  -1.65814145875e+00
  -4.92072008768e+00
  -4.91223380094e+00
  -2.99814305074e+00
  -6.38560260800e-01
</dep>
<dep _net2.Vt time>
  +5.00000000000e+00
  +5.00000000000e+00
  +5.00000000000e+00
  +5.00000000000e+00
  +5.00000000000e+00
  +5.00000000000e+00
  +5.00000000000e+00
  +5.00000000000e+00
  +5.00000000000e+00
  +5.00000000000e+00
  +5.00000000000e+00
  +5.00000000000e+00
  +5.00000000000e+00
  +5.00000000000e+00
  +5.00000000000e+00
  +5.00000000000e+00
  +5.00000000000e+00
  +5.00000000000e+00
  +5.00000000000e+00
  +5.00000000000e+00
  +5.00000000000e+00
  +5.00000000000e+00
  +5.00000000000e+00
  +5.00000000000e+00
  +5.00000000000e+00
  +5.00000000000e+00
  +5.00000000000e+00
  +5.00000000000e+00
  +5.00000000000e+00
  +5.00000000000e+00
  +5.00000000000e+00
  +5.00000000000e+00
  +5.00000000000e+00
  +5.00000000000e+00
  +5.00000000000e+00
  +5.00000000000e+00
  +5.00000000000e+00
  +5.00000000000e+00
  +5.00000000000e+00
  +5.00000000000e+00
  +5.00000000000e+00
  +5.00000000000e+00
  +5.00000000000e+00
  +5.00000000000e+00
  +5.00000000000e+00
  +5.00000000000e+00
  +5.00000000000e+00
  +5.00000000000e+00
  +5.00000000000e+00
  +5.00000000000e+00
  +5.00000000000e+00
  +5.00000000000e+00
  +5.00000000000e+00
  +5.00000000000e+00
  +5.00000000000e+00
  +5.00000000000e+00
  +5.00000000000e+00
  +5.00000000000e+00
  +5.00000000000e+00
  +5.00000000000e+00
  +5.00000000000e+00
  +5.00000000000e+00
  +5.00000000000e+00
  +5.00000000000e+00
  +5.00000000000e+00
  +5.00000000000e+00
  +5.00000000000e+00
  +5.00000000000e+00
  +5.00000000000e+00
  +5.00000000000e+00
  +5.00000000000e+00
  +5.00000000000e+00
  +5.00000000000e+00
  +5.00000000000e+00
  +5.00000000000e+00
  +5.00000000000e+00
  +5.00000000000e+00
  +5.00000000000e+00
  +5.00000000000e+00
  +5.00000000000e+00
  +5.00000000000e+00
  +5.00000000000e+00
  +5.00000000000e+00
  +5.00000000000e+00
  +5.00000000000e+00
  +5.00000000000e+00
  +5.00000000000e+00
  +5.00000000000e+00
  +5.00000000000e+00
  +5.00000000000e+00
  +5.00000000000e+00
  +5.00000000000e+00
  +5.00000000000e+00
  +5.00000000000e+00
  +5.00000000000e+00
  +5.00000000000e+00
  +5.00000000000e+00
  +5.00000000000e+00
  +5.00000000000e+00
  +5.00000000000e+00
  +5.00000000000e+00
  +5.00000000000e+00
  +5.00000000000e+00
  +5.00000000000e+00
  +5.00000000000e+00
  +5.00000000000e+00
  +5.00000000000e+00
  +5.00000000000e+00
  +5.00000000000e+00
  +5.00000000000e+00
  +5.00000000000e+00
  +5.00000000000e+00
  +5.00000000000e+00
  +5.00000000000e+00
  +5.00000000000e+00
  +5.00000000000e+00
  +5.00000000000e+00
  +5.00000000000e+00
  +5.00000000000e+00
  +5.00000000000e+00
  +5.00000000000e+00
  +5.00000000000e+00
  +5.00000000000e+00
  +5.00000000000e+00
  +5.00000000000e+00
  +5.00000000000e+00
  +5.00000000000e+00
  +5.00000000000e+00
  +5.00000000000e+00
  +5.00000000000e+00
  +5.00000000000e+00
  +5.00000000000e+00
  +5.00000000000e+00
  +5.00000000000e+00
  +5.00000000000e+00
  +5.00000000000e+00
  +5.00000000000e+00
  +5.00000000000e+00
  +5.00000000000e+00
  +5.00000000000e+00
  +5.00000000000e+00
  +5.00000000000e+00
  +5.00000000000e+00
  +5.00000000000e+00
  +5.00000000000e+00
  +5.00000000000e+00
  +5.00000000000e+00
  +5.00000000000e+00
  +5.00000000000e+00
  +5.00000000000e+00
  +5.00000000000e+00
  +5.00000000000e+00
  +5.00000000000e+00
  +5.00000000000e+00
  +5.00000000000e+00
  +5.00000000000e+00
  +5.00000000000e+00
  +5.00000000000e+00
  +5.00000000000e+00
  +5.00000000000e+00
  +5.00000000000e+00
  +5.00000000000e+00
  +5.00000000000e+00
  +5.00000000000e+00
  +5.00000000000e+00
  +5.00000000000e+00
  +5.00000000000e+00
  +5.00000000000e+00
  +5.00000000000e+00
  +5.00000000000e+00
  +5.00000000000e+00
  +5.00000000000e+00
  +5.00000000000e+00
  +5.00000000000e+00
  +5.00000000000e+00
  +5.00000000000e+00
  +5.00000000000e+00
  +5.00000000000e+00
  +5.00000000000e+00
  +5.00000000000e+00
  +5.00000000000e+00
  +5.00000000000e+00
  +5.00000000000e+00
  +5.00000000000e+00
  +5.00000000000e+00
  +5.00000000000e+00
  +5.00000000000e+00
  +5.00000000000e+00
  +5.00000000000e+00
  +5.00000000000e+00
  +5.00000000000e+00
  +5.00000000000e+00
  +5.00000000000e+00
  +5.00000000000e+00
  +5.00000000000e+00
  +5.00000000000e+00
  +5.00000000000e+00
  +5.00000000000e+00
  +5.00000000000e+00
  +5.00000000000e+00
</dep>
<dep _net0.Vt time>
  +7.86475468867e-01
  +7.86475468869e-01
  +7.86475468866e-01
  +7.86475468869e-01
  +7.86475468866e-01
  +7.86475468869e-01
  +7.86475468866e-01
  +7.86475468869e-01
  +7.86475468866e-01
  +7.86475468869e-01
  +7.86475468866e-01
  +7.86475468869e-01
  +7.86475468867e-01
  +7.86475468869e-01
  +7.86475468866e-01
  +7.86475468868e-01
  +7.86475468863e-01
  +7.86475468862e-01
  +7.86475468855e-01
  +7.86475468853e-01
  +7.86475468848e-01
  +7.86475468857e-01
  +7.86475468875e-01
  +7.86475468924e-01
  +7.86475468998e-01
  +7.86475469108e-01
  +7.86475469222e-01
  +7.86475469295e-01
  +7.86475469211e-01
  +7.86475468817e-01
  +7.86475467893e-01
  +7.86475466256e-01
  +7.86475463856e-01
  +7.86475461047e-01
  +7.86475458893e-01
  +7.86475459589e-01
  +7.86475466695e-01
  +7.86475485019e-01
  +7.86475519476e-01
  +7.86475572419e-01
  +7.86475638607e-01
  +7.86475697735e-01
  +7.86475705214e-01
  +7.86475584458e-01
  +7.86475227020e-01
  +7.86474511757e-01
  +7.86473358103e-01
  +7.86471830149e-01
  +7.86470301225e-01
  +7.86469667243e-01
  +7.86471551529e-01
  +7.86478369298e-01
  +7.86493017433e-01
  +7.86517847977e-01
  +7.86552525959e-01
  +7.86590468913e-01
  +7.86613974419e-01
  +7.86589061444e-01
  +7.86462654683e-01
  +7.86167042701e-01
  +7.85639130626e-01
  +7.84863378312e-01
  +7.83948094706e-01
  +7.83234922934e-01
  +7.83414859535e-01
  +7.85643569672e-01
  +7.91502209784e-01
  +8.02675688843e-01
  +8.20095579207e-01
  +8.42222407611e-01
  +8.62655070855e-01
  +8.66789740542e-01
  +8.29384414079e-01
  +7.15850190229e-01
  +4.93735640404e-01
  +1.48310310998e-01
  -1.86274878837e-01
  -2.08585718841e-01
  +2.31958477111e-01
  +1.35440067422e+00
  +2.61332383084e+00
  +2.93715270316e+00
  +2.73843065864e+00
  +2.05325872621e+00
  +2.42964551328e-01
  -3.18776196859e+00
  -4.51766745395e+00
  -3.44728196912e+00
  -1.39839660758e+00
  +7.94047711887e-01
  +3.00115859193e+00
  +3.42008700480e+00
  +3.28064569250e+00
  +2.74040290389e+00
  +1.42933712283e+00
  -2.03125875524e+00
  -5.00062534127e+00
  -4.75689063799e+00
  -2.76810726053e+00
  -4.21365861206e-01
  +2.20481638533e+00
  +3.34267213923e+00
  +3.42542939480e+00
  +3.10407341219e+00
  +2.29447751782e+00
  +1.61774943917e-01
  -3.87594047424e+00
  -5.25648021867e+00
  -3.96922135813e+00
  -1.67823651228e+00
  +6.43223656461e-01
  +2.98319939111e+00
  +3.44443125660e+00
  +3.32376266583e+00
  +2.81027268855e+00
  +1.57873165864e+00
  -1.75514234363e+00
  -4.95328523853e+00
  -4.88610553078e+00
  -2.94950275639e+00
  -5.89482275681e-01
  +2.02802426987e+00
  +3.31555186170e+00
  +3.43578705478e+00
  +3.14132716022e+00
  +2.37915393953e+00
  +3.87474354501e-01
  -3.64037676459e+00
  -5.26952198262e+00
  -4.11512852395e+00
  -1.85178715198e+00
  +4.68473761913e-01
  +2.89991159096e+00
  +3.43726926264e+00
  +3.34496911980e+00
  +2.86407279593e+00
  +1.71678906502e+00
  -1.42972458424e+00
  -4.83767604189e+00
  -4.97433065190e+00
  -3.11578819220e+00
  -7.56793104632e-01
  +1.82913080240e+00
  +3.28123084673e+00
  +3.44270256753e+00
