<Qucs Dataset 0.0.19>
<indep time 200>
  +0.00000000000000000000e+00
  +1.50753768844221115499e-08
  +3.01507537688442230998e-08
  +4.52261306532663313409e-08
  +6.03015075376884461995e-08
  +7.53768844221105610581e-08
  +9.04522613065326626818e-08
  +1.05527638190954777540e-07
  +1.20603015075376892399e-07
  +1.35678391959798994023e-07
  +1.50753768844221122116e-07
  +1.65829145728643223740e-07
  +1.80904522613065325364e-07
  +1.95979899497487453457e-07
  +2.11055276381909555081e-07
  +2.26130653266331683174e-07
  +2.41206030150753784798e-07
  +2.56281407035175886422e-07
  +2.71356783919597988045e-07
  +2.86432160804020142609e-07
  +3.01507537688442244232e-07
  +3.16582914572864345856e-07
  +3.31658291457286447480e-07
  +3.46733668341708549104e-07
  +3.61809045226130650727e-07
  +3.76884422110552805291e-07
  +3.91959798994974906914e-07
  +4.07035175879397008538e-07
  +4.22110552763819110162e-07
  +4.37185929648241211785e-07
  +4.52261306532663366349e-07
  +4.67336683417085467972e-07
  +4.82412060301507569596e-07
  +4.97487437185929724159e-07
  +5.12562814070351772843e-07
  +5.27638190954773927407e-07
  +5.42713567839195976091e-07
  +5.57788944723618130654e-07
  +5.72864321608040285217e-07
  +5.87939698492462333902e-07
  +6.03015075376884488465e-07
  +6.18090452261306537149e-07
  +6.33165829145728691712e-07
  +6.48241206030150846276e-07
  +6.63316582914572894960e-07
  +6.78391959798995049523e-07
  +6.93467336683417098207e-07
  +7.08542713567839252770e-07
  +7.23618090452261301454e-07
  +7.38693467336683456018e-07
  +7.53768844221105610581e-07
  +7.68844221105527659265e-07
  +7.83919597989949813828e-07
  +7.98994974874371862513e-07
  +8.14070351758794017076e-07
  +8.29145728643216171639e-07
  +8.44221105527638220323e-07
  +8.59296482412060374887e-07
  +8.74371859296482423571e-07
  +8.89447236180904578134e-07
  +9.04522613065326732697e-07
  +9.19597989949748781381e-07
  +9.34673366834170935945e-07
  +9.49748743718592984629e-07
  +9.64824120603015139192e-07
  +9.79899497487437293755e-07
  +9.94974874371859448319e-07
  +1.01005025125628139112e-06
  +1.02512562814070354569e-06
  +1.04020100502512570025e-06
  +1.05527638190954785481e-06
  +1.07035175879397000938e-06
  +1.08542713567839195218e-06
  +1.10050251256281410674e-06
  +1.11557788944723626131e-06
  +1.13065326633165841587e-06
  +1.14572864321608057043e-06
  +1.16080402010050251324e-06
  +1.17587939698492466780e-06
  +1.19095477386934682237e-06
  +1.20603015075376897693e-06
  +1.22110552763819113149e-06
  +1.23618090452261307430e-06
  +1.25125628140703522886e-06
  +1.26633165829145738342e-06
  +1.28140703517587953799e-06
  +1.29648241206030169255e-06
  +1.31155778894472363536e-06
  +1.32663316582914578992e-06
  +1.34170854271356794448e-06
  +1.35678391959799009905e-06
  +1.37185929648241225361e-06
  +1.38693467336683419641e-06
  +1.40201005025125635098e-06
  +1.41708542713567850554e-06
  +1.43216080402010066010e-06
  +1.44723618090452260291e-06
  +1.46231155778894475747e-06
  +1.47738693467336691204e-06
  +1.49246231155778906660e-06
  +1.50753768844221122116e-06
  +1.52261306532663316397e-06
  +1.53768844221105531853e-06
  +1.55276381909547747309e-06
  +1.56783919597989962766e-06
  +1.58291457286432178222e-06
  +1.59798994974874372503e-06
  +1.61306532663316587959e-06
  +1.62814070351758803415e-06
  +1.64321608040201018871e-06
  +1.65829145728643234328e-06
  +1.67336683417085428608e-06
  +1.68844221105527644065e-06
  +1.70351758793969859521e-06
  +1.71859296482412074977e-06
  +1.73366834170854290434e-06
  +1.74874371859296484714e-06
  +1.76381909547738700170e-06
  +1.77889447236180915627e-06
  +1.79396984924623131083e-06
  +1.80904522613065346539e-06
  +1.82412060301507540820e-06
  +1.83919597989949756276e-06
  +1.85427135678391971733e-06
  +1.86934673366834187189e-06
  +1.88442211055276402645e-06
  +1.89949748743718596926e-06
  +1.91457286432160833558e-06
  +1.92964824120603027838e-06
  +1.94472361809045222119e-06
  +1.95979899497487458751e-06
  +1.97487437185929653032e-06
  +1.98994974874371889664e-06
  +2.00502512562814083944e-06
  +2.02010050251256278225e-06
  +2.03517587939698514857e-06
  +2.05025125628140709137e-06
  +2.06532663316582945770e-06
  +2.08040201005025140050e-06
  +2.09547738693467334331e-06
  +2.11055276381909570963e-06
  +2.12562814070351765243e-06
  +2.14070351758794001875e-06
  +2.15577889447236196156e-06
  +2.17085427135678390436e-06
  +2.18592964824120627068e-06
  +2.20100502512562821349e-06
  +2.21608040201005057981e-06
  +2.23115577889447252262e-06
  +2.24623115577889446542e-06
  +2.26130653266331683174e-06
  +2.27638190954773877455e-06
  +2.29145728643216114087e-06
  +2.30653266331658308367e-06
  +2.32160804020100502648e-06
  +2.33668341708542739280e-06
  +2.35175879396984933561e-06
  +2.36683417085427170193e-06
  +2.38190954773869364473e-06
  +2.39698492462311558754e-06
  +2.41206030150753795386e-06
  +2.42713567839195989666e-06
  +2.44221105527638226299e-06
  +2.45728643216080420579e-06
  +2.47236180904522614860e-06
  +2.48743718592964851492e-06
  +2.50251256281407045772e-06
  +2.51758793969849282404e-06
  +2.53266331658291476685e-06
  +2.54773869346733670965e-06
  +2.56281407035175907598e-06
  +2.57788944723618101878e-06
  +2.59296482412060338510e-06
  +2.60804020100502532791e-06
  +2.62311557788944727071e-06
  +2.63819095477386963703e-06
  +2.65326633165829157984e-06
  +2.66834170854271394616e-06
  +2.68341708542713588897e-06
  +2.69849246231155783177e-06
  +2.71356783919598019809e-06
  +2.72864321608040214090e-06
  +2.74371859296482450722e-06
  +2.75879396984924645002e-06
  +2.77386934673366839283e-06
  +2.78894472361809075915e-06
  +2.80402010050251270195e-06
  +2.81909547738693506828e-06
  +2.83417085427135701108e-06
  +2.84924623115577895389e-06
  +2.86432160804020132021e-06
  +2.87939698492462326301e-06
  +2.89447236180904520582e-06
  +2.90954773869346757214e-06
  +2.92462311557788951494e-06
  +2.93969849246231188127e-06
  +2.95477386934673382407e-06
  +2.96984924623115576688e-06
  +2.98492462311557813320e-06
  +3.00000000000000007600e-06
</indep>
<dep V1.It time>
  -7.99999999999994812483e-03
  -8.00000000000016669999e-03
  -7.99999999999995506372e-03
  -8.00000000000021700697e-03
  -8.00000000000002965683e-03
  -8.00000000000018057777e-03
  -8.00000000000010771939e-03
  -7.99999999999996720679e-03
  -8.00000000000022047641e-03
  -8.00000000000014067914e-03
  -8.00000000000010771939e-03
  -8.00000000000008343326e-03
  -8.00000000000014241386e-03
  -7.99999999999991343036e-03
  -8.00000000000010598467e-03
  -8.00000000000009731105e-03
  -8.00000000000016843471e-03
  -8.00000000000001057487e-03
  -7.99999999999984230670e-03
  -8.00000000000004006517e-03
  -8.00000000000012333190e-03
  -8.00000000000022741531e-03
  -8.00000000000013027079e-03
  -7.99999999999987700117e-03
  -8.00000000000005914713e-03
  -7.99999999999991343036e-03
  -8.00000000000008343326e-03
  -7.99999999999990822619e-03
  -7.99999999999992383870e-03
  -8.00000000000001404432e-03
  -7.99999999999963760933e-03
  -7.99999999999983710253e-03
  -8.00000000000000363598e-03
  -7.99999999999997761513e-03
  -7.99999999999979720389e-03
  -7.99999999999987526644e-03
  -8.00000000000001751377e-03
  -7.99999999999984751087e-03
  -7.99999999999999496236e-03
  -8.00000000000011639301e-03
  -8.00000000000006608603e-03
  -8.00000000000006608603e-03
  -8.00000000000008343326e-03
  -8.00000000000031935565e-03
  -7.99999999999972781495e-03
  -7.99999999999990302202e-03
  -7.99999999999989955257e-03
  -8.00000000000006088186e-03
  -8.00000000000020486390e-03
  -7.99999999999989434840e-03
  -8.00000000000010598467e-03
  -7.99999999999986832755e-03
  -8.00000000000013894441e-03
  -7.99999999999983883725e-03
  -7.99999999999988914423e-03
  -7.99999999999959077179e-03
  -8.00000000000010771939e-03
  -7.99999999999991169564e-03
  -8.00000000000023088476e-03
  -7.99999999999986312338e-03
  -8.00000000000009731105e-03
  -8.00000000000003486100e-03
  -7.99999999999980587750e-03
  -7.99999999999998802347e-03
  -8.00000000000021180280e-03
  -7.99999999999989955257e-03
  -7.99999999999992210398e-03
  -8.00000000000012506662e-03
  -8.00000000000002271794e-03
  -7.99999999999981802057e-03
  -8.00000000000006261658e-03
  -8.00000000000012333190e-03
  -8.00000000000016323054e-03
  -8.00000000000018925139e-03
  -7.99999999999990128730e-03
  -8.00000000000005741241e-03
  -8.00000000000049629745e-03
  -8.00000000000015455692e-03
  -8.00000000000863562000e-03
  -8.00000000000038180570e-03
  -7.99999999999975730525e-03
  -7.99999999999999322764e-03
  -7.99999999999979546916e-03
  -8.00000000000001924849e-03
  -7.99999999999962199682e-03
  -8.00000000000009557632e-03
  -8.00000000000004526934e-03
  -8.00000000000001404432e-03
  -8.00000000000011292356e-03
  -8.00000000000019619029e-03
  -7.99999999999992383870e-03
  -7.99999999999985444976e-03
  -8.00000000000042343906e-03
  -8.00000000000000710543e-03
  -8.00000000000018751667e-03
  -7.99999999999993771649e-03
  -8.00000000000002792211e-03
  -8.00000000000031241676e-03
  -8.00000000000032976399e-03
  -7.99999999999784217053e-03
  -8.00000000000023955837e-03
  -8.00000000000029506952e-03
  -8.00000000000009904577e-03
  -7.99999999999992904287e-03
  -8.00000000000024129310e-03
  -7.99999999999999843181e-03
  -8.00000000000005741241e-03
  -7.99999999999990822619e-03
  -7.99999999999981628585e-03
  -7.99999999999985618448e-03
  -7.99999999999982669419e-03
  -7.99999999999987700117e-03
  -8.00000000000015629165e-03
  -8.00000000000022915003e-03
  -8.00000000000010945411e-03
  -7.99999999999907555892e-03
  -7.99999999999990302202e-03
  -8.00000000000010078050e-03
  -8.00000000000154407043e-03
  -7.99999999999981455112e-03
  -8.00000000000021353752e-03
  -8.00000000000015282220e-03
  -7.99999999999997067623e-03
  -7.99999999999986485810e-03
  -8.00000000000025170144e-03
  -7.99999999999987873589e-03
  -8.00000000000010078050e-03
  -7.99999999999977985665e-03
  -7.99999999999995332900e-03
  -7.99999999997296103171e-03
  -7.99999999999957862873e-03
  -8.00000000000025170144e-03
  -8.00000000000008169854e-03
  -7.99999999999985271504e-03
  -8.00000000000018404722e-03
  -7.99999999999986485810e-03
  -8.00000000000003312628e-03
  -7.99999999999986659283e-03
  -8.00000000000013027079e-03
  -7.99999999999988914423e-03
  -8.00000000000026557923e-03
  -8.00000000000053966553e-03
  -7.99999999999952658702e-03
  -8.00000000000017190416e-03
  -7.99999999999988740951e-03
  -7.99999999999989261368e-03
  -7.99999999999968965103e-03
  -8.00000000000055527805e-03
  -7.99999999999977638721e-03
  -7.99999999999969485520e-03
  -7.99999999999974689691e-03
  -8.00000000000017884305e-03
  -8.00000000000015802637e-03
  -8.00000000000002618739e-03
  -8.00000000000162733715e-03
  -7.99999999999961852737e-03
  -8.00000000000028466118e-03
  -7.99999999999989608312e-03
  -7.99999999999963413988e-03
  -7.99999999999997588040e-03
  -8.00000000000034364178e-03
  -7.99999999999995853317e-03
  -8.00000000000065242256e-03
  -7.99999999999994812483e-03
  -7.99999999999987179700e-03
  -8.00000000000006435130e-03
  -7.99999999999997934985e-03
  -7.99999999999987700117e-03
  -7.99999999999973475384e-03
  -8.00000000000022568059e-03
  -8.00000000000004526934e-03
  -8.00000000000010251522e-03
  -8.00000000000071487261e-03
  -7.99999999999999149292e-03
  -7.99999999999990302202e-03
  -8.00000000000002965683e-03
  -8.00000000000017537360e-03
  -8.00000000000027772229e-03
  -7.99999999999992036925e-03
  -8.00000000000007822909e-03
  -8.00000000000003659573e-03
  -8.00000000000002618739e-03
  -8.00000000000008516798e-03
  -7.99999999999991863453e-03
  -7.99999999999991516508e-03
  -7.99999999999990649147e-03
  -7.99999999999997067623e-03
  -8.00000000000031068204e-03
  -7.99999999999998628875e-03
  -7.99999999999992210398e-03
  -8.00000000000029853897e-03
  -7.99999999999978159138e-03
  -7.99999999999993424704e-03
  -8.00000000000068885175e-03
  -8.00000000000010251522e-03
  -8.00000000000044599047e-03
  -8.00000000000003139156e-03
  -8.00000000000228306263e-03
  -8.00000000000075130180e-03
  -8.00000000000012333190e-03
</dep>
<dep _net1.Vt time>
  +7.86475468866847604588e-01
  +7.86475468868564009384e-01
  +7.86475468865879268066e-01
  +7.86475468868544247414e-01
  +7.86475468865881266467e-01
  +7.86475468868610638751e-01
  +7.86475468865972526800e-01
  +7.86475468868826022018e-01
  +7.86475468866159488357e-01
  +7.86475468868926164134e-01
  +7.86475468866191906869e-01
  +7.86475468868565563696e-01
  +7.86475468865092119941e-01
  +7.86475468866442595228e-01
  +7.86475468861682625032e-01
  +7.86475468861893345363e-01
  +7.86475468857277260071e-01
  +7.86475468860351467626e-01
  +7.86475468863447879642e-01
  +7.86475468881351114092e-01
  +7.86475468907701813492e-01
  +7.86475468955420531358e-01
  +7.86475469009930150399e-01
  +7.86475469065109011879e-01
  +7.86475469072996480335e-01
  +7.86475468979455527574e-01
  +7.86475468681059441955e-01
  +7.86475468082930229130e-01
  +7.86475467100465230885e-01
  +7.86475465789409744488e-01
  +7.86475464443368910139e-01
  +7.86475463819542586208e-01
  +7.86475465277596486047e-01
  +7.86475470889071881508e-01
  +7.86475483151797938319e-01
  +7.86475504185047524786e-01
  +7.86475533892057043772e-01
  +7.86475566983112051034e-01
  +7.86475588753560383992e-01
  +7.86475570615522090456e-01
  +7.86475467397977912043e-01
  +7.86475220734045965543e-01
  +7.86474774799340470288e-01
  +7.86474112691558646659e-01
  +7.86473320705885381443e-01
  +7.86472682044073279073e-01
  +7.86472785864752998997e-01
  +7.86474609380288569582e-01
  +7.86479486885034662080e-01
  +7.86488826054523304521e-01
  +7.86503384383894443843e-01
  +7.86521915625091105895e-01
  +7.86539099436884603378e-01
  +7.86542967353747624060e-01
  +7.86512631447502608140e-01
  +7.86418072717530947102e-01
  +7.86224993360039814405e-01
  +7.85908963760793000120e-01
  +7.85483485469364306475e-01
  +7.85045037767524211958e-01
  +7.84832739802777012983e-01
  +7.85283291057021881620e-01
  +7.87061536393594884942e-01
  +7.91000753887091789807e-01
  +7.97832883044980789577e-01
  +8.07614846160241262041e-01
  +8.18675021215307774369e-01
  +8.26343666501367146715e-01
  +8.21328147400667285538e-01
  +7.88851537640458677636e-01
  +7.10257781198568860503e-01
  +5.69764668524422313034e-01
  +3.67407763107917118006e-01
  +1.47517017357597424176e-01
  +7.27737382446237701661e-02
  +3.10431443950643259910e-01
  +1.06574362893526353169e+00
  +2.28120529106494984717e+00
  +2.76034894203155412029e+00
  +2.66893856683438013278e+00
  +2.10899715130463905055e+00
  +5.94135944334554411128e-01
  -2.57089777286253173827e+00
  -4.28049962140046691417e+00
  -3.52133301976314028181e+00
  -1.61195235165915762288e+00
  +4.98001337039207347956e-01
  +2.85085191388758785180e+00
  +3.39913312150706792281e+00
  +3.30981324810529153879e+00
  +2.82644344853348439273e+00
  +1.66736612418652296874e+00
  -1.49212726642459903026e+00
  -4.81457856657571614534e+00
  -4.89994351423997187567e+00
  -3.03727813949258962367e+00
  -6.93749223558450700544e-01
  +1.89640006457047194388e+00
  +3.29115481215515703894e+00
  +3.43865375863453515137e+00
  +3.16205861491116824169e+00
  +2.42957045802158244641e+00
  +5.21055189299753473975e-01
  -3.47312608901444619391e+00
  -5.26529573623751101508e+00
  -4.20520703735467105133e+00
  -1.96249705855432021728e+00
  +3.62463089343593725111e-01
  +2.83987341375835189439e+00
  +3.43120812721031320791e+00
  +3.35770135749848819273e+00
  +2.89758598056955651856e+00
  +1.80014674730540180647e+00
  -1.21913557422870288960e+00
  -4.75251328785225268803e+00
  -5.02655608499527417621e+00
  -3.22347421423730784440e+00
  -8.66553939645087756283e-01
  +1.69088730983918300588e+00
  +3.25608452776972123743e+00
  +3.44631144742079431609e+00
  +3.19648366228542313294e+00
  +2.50676519660899188580e+00
  +7.24127726582722619497e-01
  -3.20776808876768271261e+00
  -5.25392353346449958451e+00
  -4.34189177591262964739e+00
  -2.13564104062546844531e+00
  +1.97842755103978196196e-01
  +2.73622269977663634677e+00
  +3.41933561637634042540e+00
  +3.37565406072610230126e+00
  +2.94587141516236883376e+00
  +1.91904374256939624921e+00
  -9.01505574743247994896e-01
  -4.60549008749197152923e+00
  -5.09751977841790626655e+00
  -3.38643011039140606755e+00
  -1.03531488935346538405e+00
  +1.46781218921271672251e+00
  +3.21289190354460796328e+00
  +3.45000863150487990794e+00
  +3.22689282079551231774e+00
  +2.57764801233423179738e+00
  +9.22277818980282049210e-01
  -2.92483648555080755216e+00
  -5.22275180662189875136e+00
  -4.46953942084664745948e+00
  -2.30684426552217480832e+00
  +3.44170793374026021127e-02
  +2.61930321183115966122e+00
  +3.40448524789529782808e+00
  +3.39167270880443716408e+00
  +2.99153833952607772773e+00
  +2.02886080216304875989e+00
  -5.95388620680238900285e-01
  -4.44028102353087650300e+00
  -5.15857811364285634426e+00
  -3.54635692129085100532e+00
  -1.20484415572829073326e+00
  +1.23569222612099660630e+00
  +3.16311574589368005306e+00
  +3.45164512371219833753e+00
  +3.25542052798217884657e+00
  +2.64452057191975731243e+00
  +1.11690845870938026962e+00
  -2.62860234036406970048e+00
  -5.17581209570011679943e+00
  -4.59077224361666136332e+00
  -2.48028101472427486840e+00
  -1.30676262078195770666e-01
  +2.48587953678750794850e+00
  +3.38619798066588462149e+00
  +3.40596987107360460456e+00
  +3.03471371362069319844e+00
  +2.13123185568742101736e+00
  -3.03345256006974484109e-01
  -4.25387214320693107794e+00
  -5.20516660727113666951e+00
  -3.70296004571632586533e+00
  -1.37532655905485690084e+00
  +1.00252567208106135865e+00
  +3.10569861629851740048e+00
  +3.45116068608873494128e+00
  +3.28182846321703758363e+00
  +2.70759882098109860848e+00
  +1.29941655198082584022e+00
  -2.31999286749834654486e+00
  -5.11069454651225374420e+00
  -4.70362636800789424285e+00
  -2.64883320609179584437e+00
  -2.94460881132718066411e-01
  +2.33675081878355195286e+00
  +3.36433803657115415575e+00
  +3.41837266417348262237e+00
  +3.07519091324451077085e+00
  +2.22579905030621949535e+00
  -3.30119096786698484891e-02
  -4.05049169256601349076e+00
  -5.24090015565297573374e+00
</dep>
<dep _net2.Vt time>
  +5.00000000000000000000e+00
  +5.00000000000000000000e+00
  +5.00000000000000000000e+00
  +5.00000000000000000000e+00
  +5.00000000000000000000e+00
  +5.00000000000000000000e+00
  +5.00000000000000000000e+00
  +5.00000000000000000000e+00
  +5.00000000000000000000e+00
  +5.00000000000000000000e+00
  +5.00000000000000000000e+00
  +5.00000000000000000000e+00
  +5.00000000000000000000e+00
  +5.00000000000000000000e+00
  +5.00000000000000000000e+00
  +5.00000000000000000000e+00
  +5.00000000000000000000e+00
  +5.00000000000000000000e+00
  +5.00000000000000000000e+00
  +5.00000000000000000000e+00
  +5.00000000000000000000e+00
  +5.00000000000000000000e+00
  +5.00000000000000000000e+00
  +5.00000000000000000000e+00
  +5.00000000000000000000e+00
  +5.00000000000000000000e+00
  +5.00000000000000000000e+00
  +5.00000000000000000000e+00
  +5.00000000000000000000e+00
  +5.00000000000000000000e+00
  +5.00000000000000000000e+00
  +5.00000000000000000000e+00
  +5.00000000000000000000e+00
  +5.00000000000000000000e+00
  +5.00000000000000000000e+00
  +5.00000000000000000000e+00
  +5.00000000000000000000e+00
  +5.00000000000000000000e+00
  +5.00000000000000000000e+00
  +5.00000000000000000000e+00
  +5.00000000000000000000e+00
  +5.00000000000000000000e+00
  +5.00000000000000000000e+00
  +5.00000000000000000000e+00
  +5.00000000000000000000e+00
  +5.00000000000000000000e+00
  +5.00000000000000000000e+00
  +5.00000000000000000000e+00
  +5.00000000000000000000e+00
  +5.00000000000000000000e+00
  +5.00000000000000000000e+00
  +5.00000000000000000000e+00
  +5.00000000000000000000e+00
  +5.00000000000000000000e+00
  +5.00000000000000000000e+00
  +5.00000000000000000000e+00
  +5.00000000000000000000e+00
  +5.00000000000000000000e+00
  +5.00000000000000000000e+00
  +5.00000000000000000000e+00
  +5.00000000000000000000e+00
  +5.00000000000000000000e+00
