<Qucs Dataset 0.0.19>
<indep time 300>
  +0.00000000000000000000e+00
  +6.68896321070234092020e-09
  +1.33779264214046818404e-08
  +2.00668896321070235878e-08
  +2.67558528428093636808e-08
  +3.34448160535117037738e-08
  +4.01337792642140471755e-08
  +4.68227424749163839598e-08
  +5.35117056856187273616e-08
  +6.02006688963210641459e-08
  +6.68896321070234075476e-08
  +7.35785953177257509493e-08
  +8.02675585284280943511e-08
  +8.69565217391304377528e-08
  +9.36454849498327679197e-08
  +1.00334448160535111321e-07
  +1.07023411371237454723e-07
  +1.13712374581939798125e-07
  +1.20401337792642128292e-07
  +1.27090301003344471693e-07
  +1.33779264214046815095e-07
  +1.40468227424749158497e-07
  +1.47157190635451501899e-07
  +1.53846153846153845300e-07
  +1.60535117056856188702e-07
  +1.67224080267558532104e-07
  +1.73913043478260875506e-07
  +1.80602006688963192438e-07
  +1.87290969899665535839e-07
  +1.93979933110367879241e-07
  +2.00668896321070222643e-07
  +2.07357859531772566045e-07
  +2.14046822742474909446e-07
  +2.20735785953177252848e-07
  +2.27424749163879596250e-07
  +2.34113712374581939652e-07
  +2.40802675585284256583e-07
  +2.47491638795986626455e-07
  +2.54180602006688943387e-07
  +2.60869565217391313258e-07
  +2.67558528428093630190e-07
  +2.74247491638796000062e-07
  +2.80936454849498316994e-07
  +2.87625418060200633926e-07
  +2.94314381270903003797e-07
  +3.01003344481605320729e-07
  +3.07692307692307690601e-07
  +3.14381270903010007533e-07
  +3.21070234113712377404e-07
  +3.27759197324414694336e-07
  +3.34448160535117064208e-07
  +3.41137123745819381140e-07
  +3.47826086956521751011e-07
  +3.54515050167224067943e-07
  +3.61204013377926384875e-07
  +3.67892976588628754747e-07
  +3.74581939799331071679e-07
  +3.81270903010033441550e-07
  +3.87959866220735758482e-07
  +3.94648829431438128354e-07
  +4.01337792642140445286e-07
  +4.08026755852842815157e-07
  +4.14715719063545132089e-07
  +4.21404682274247501961e-07
  +4.28093645484949818893e-07
  +4.34782608695652135825e-07
  +4.41471571906354505696e-07
  +4.48160535117056822628e-07
  +4.54849498327759192500e-07
  +4.61538461538461509432e-07
  +4.68227424749163879303e-07
  +4.74916387959866196235e-07
  +4.81605351170568513167e-07
  +4.88294314381270883038e-07
  +4.94983277591973252910e-07
  +5.01672240802675516902e-07
  +5.08361204013377886774e-07
  +5.15050167224080256645e-07
  +5.21739130434782626517e-07
  +5.28428093645484890509e-07
  +5.35117056856187260381e-07
  +5.41806020066889630252e-07
  +5.48494983277592000124e-07
  +5.55183946488294264116e-07
  +5.61872909698996633988e-07
  +5.68561872909699003859e-07
  +5.75250836120401267852e-07
  +5.81939799331103637723e-07
  +5.88628762541806007595e-07
  +5.95317725752508377466e-07
  +6.02006688963210641459e-07
  +6.08695652173913011330e-07
  +6.15384615384615381202e-07
  +6.22073578595317751073e-07
  +6.28762541806020015066e-07
  +6.35451505016722384937e-07
  +6.42140468227424754809e-07
  +6.48829431438127018801e-07
  +6.55518394648829388673e-07
  +6.62207357859531758544e-07
  +6.68896321070234128416e-07
  +6.75585284280936392408e-07
  +6.82274247491638762280e-07
  +6.88963210702341132151e-07
  +6.95652173913043502023e-07
  +7.02341137123745766015e-07
  +7.09030100334448135886e-07
  +7.15719063545150505758e-07
  +7.22408026755852769750e-07
  +7.29096989966555139622e-07
  +7.35785953177257509493e-07
  +7.42474916387959879365e-07
  +7.49163879598662143357e-07
  +7.55852842809364513229e-07
  +7.62541806020066883100e-07
  +7.69230769230769252972e-07
  +7.75919732441471516964e-07
  +7.82608695652173886836e-07
  +7.89297658862876256707e-07
  +7.95986622073578520700e-07
  +8.02675585284280890571e-07
  +8.09364548494983260443e-07
  +8.16053511705685630314e-07
  +8.22742474916387894307e-07
  +8.29431438127090264178e-07
  +8.36120401337792634050e-07
  +8.42809364548495003921e-07
  +8.49498327759197267914e-07
  +8.56187290969899637785e-07
  +8.62876254180602007657e-07
  +8.69565217391304271649e-07
  +8.76254180602006641521e-07
  +8.82943143812709011392e-07
  +8.89632107023411381264e-07
  +8.96321070234113645256e-07
  +9.03010033444816015128e-07
  +9.09698996655518384999e-07
  +9.16387959866220754871e-07
  +9.23076923076923018863e-07
  +9.29765886287625388735e-07
  +9.36454849498327758606e-07
  +9.43143812709030022598e-07
  +9.49832775919732392470e-07
  +9.56521739130434656462e-07
  +9.63210702341137026334e-07
  +9.69899665551839396205e-07
  +9.76588628762541766077e-07
  +9.83277591973244135948e-07
  +9.89966555183946505820e-07
  +9.96655518394648875691e-07
  +1.00334448160535103380e-06
  +1.01003344481605340368e-06
  +1.01672240802675577355e-06
  +1.02341137123745814342e-06
  +1.03010033444816051329e-06
  +1.03678929765886288316e-06
  +1.04347826086956525303e-06
  +1.05016722408026762291e-06
  +1.05685618729096978102e-06
  +1.06354515050167215089e-06
  +1.07023411371237452076e-06
  +1.07692307692307689063e-06
  +1.08361204013377926050e-06
  +1.09030100334448163038e-06
  +1.09698996655518400025e-06
  +1.10367892976588615836e-06
  +1.11036789297658852823e-06
  +1.11705685618729089810e-06
  +1.12374581939799326798e-06
  +1.13043478260869563785e-06
  +1.13712374581939800772e-06
  +1.14381270903010037759e-06
  +1.15050167224080253570e-06
  +1.15719063545150490557e-06
  +1.16387959866220727545e-06
  +1.17056856187290964532e-06
  +1.17725752508361201519e-06
  +1.18394648829431438506e-06
  +1.19063545150501675493e-06
  +1.19732441471571912480e-06
  +1.20401337792642128292e-06
  +1.21070234113712365279e-06
  +1.21739130434782602266e-06
  +1.22408026755852839253e-06
  +1.23076923076923076240e-06
  +1.23745819397993313227e-06
  +1.24414715719063550215e-06
  +1.25083612040133766026e-06
  +1.25752508361204003013e-06
  +1.26421404682274240000e-06
  +1.27090301003344476987e-06
  +1.27759197324414713975e-06
  +1.28428093645484950962e-06
  +1.29096989966555187949e-06
  +1.29765886287625403760e-06
  +1.30434782608695640747e-06
  +1.31103678929765877735e-06
  +1.31772575250836114722e-06
  +1.32441471571906351709e-06
  +1.33110367892976588696e-06
  +1.33779264214046825683e-06
  +1.34448160535117062670e-06
  +1.35117056856187278482e-06
  +1.35785953177257515469e-06
  +1.36454849498327752456e-06
  +1.37123745819397989443e-06
  +1.37792642140468226430e-06
  +1.38461538461538463417e-06
  +1.39130434782608700405e-06
  +1.39799331103678916216e-06
  +1.40468227424749153203e-06
  +1.41137123745819390190e-06
  +1.41806020066889627177e-06
  +1.42474916387959864164e-06
  +1.43143812709030101152e-06
  +1.43812709030100338139e-06
  +1.44481605351170553950e-06
  +1.45150501672240790937e-06
  +1.45819397993311027924e-06
  +1.46488294314381264912e-06
  +1.47157190635451501899e-06
  +1.47826086956521738886e-06
  +1.48494983277591975873e-06
  +1.49163879598662212860e-06
  +1.49832775919732428671e-06
  +1.50501672240802665659e-06
  +1.51170568561872902646e-06
  +1.51839464882943139633e-06
  +1.52508361204013376620e-06
  +1.53177257525083613607e-06
  +1.53846153846153850594e-06
  +1.54515050167224066406e-06
  +1.55183946488294303393e-06
  +1.55852842809364540380e-06
  +1.56521739130434777367e-06
  +1.57190635451505014354e-06
  +1.57859531772575251341e-06
  +1.58528428093645488329e-06
  +1.59197324414715704140e-06
  +1.59866220735785941127e-06
  +1.60535117056856178114e-06
  +1.61204013377926415101e-06
  +1.61872909698996652089e-06
  +1.62541806020066889076e-06
  +1.63210702341137126063e-06
  +1.63879598662207363050e-06
  +1.64548494983277578861e-06
  +1.65217391304347815848e-06
  +1.65886287625418052836e-06
  +1.66555183946488289823e-06
  +1.67224080267558526810e-06
  +1.67892976588628763797e-06
  +1.68561872909699000784e-06
  +1.69230769230769216596e-06
  +1.69899665551839453583e-06
  +1.70568561872909690570e-06
  +1.71237458193979927557e-06
  +1.71906354515050164544e-06
  +1.72575250836120401531e-06
  +1.73244147157190638518e-06
  +1.73913043478260854330e-06
  +1.74581939799331091317e-06
  +1.75250836120401328304e-06
  +1.75919732441471565291e-06
  +1.76588628762541802278e-06
  +1.77257525083612039266e-06
  +1.77926421404682276253e-06
  +1.78595317725752492064e-06
  +1.79264214046822729051e-06
  +1.79933110367892966038e-06
  +1.80602006688963203026e-06
  +1.81270903010033440013e-06
  +1.81939799331103677000e-06
  +1.82608695652173913987e-06
  +1.83277591973244150974e-06
  +1.83946488294314366785e-06
  +1.84615384615384603773e-06
  +1.85284280936454840760e-06
  +1.85953177257525077747e-06
  +1.86622073578595314734e-06
  +1.87290969899665551721e-06
  +1.87959866220735788708e-06
  +1.88628762541806004520e-06
  +1.89297658862876241507e-06
  +1.89966555183946478494e-06
  +1.90635451505016715481e-06
  +1.91304347826086931292e-06
  +1.91973244147157189455e-06
  +1.92642140468227405267e-06
  +1.93311036789297663430e-06
  +1.93979933110367879241e-06
  +1.94648829431438137404e-06
  +1.95317725752508353215e-06
  +1.95986622073578569027e-06
  +1.96655518394648827190e-06
  +1.97324414715719043001e-06
  +1.97993311036789301164e-06
  +1.98662207357859516975e-06
  +1.99331103678929775138e-06
  +1.99999999999999990950e-06
</indep>
<dep V1.It time>
  -8.00000000000019792501e-03
  -7.99999999999971740661e-03
  -7.99999999999972087605e-03
  -7.99999999999982842891e-03
  -8.00000000000005394296e-03
  -8.00000000000013027079e-03
  -8.00000000000003486100e-03
  -7.99999999999997588040e-03
  -8.00000000000023261948e-03
  -8.00000000000002271794e-03
  -8.00000000000009384160e-03
  -7.99999999999992210398e-03
  -7.99999999999997761513e-03
  -7.99999999999990822619e-03
  -7.99999999999989261368e-03
  -8.00000000000003139156e-03
  -7.99999999999994118594e-03
  -7.99999999999999843181e-03
  -7.99999999999925250072e-03
  -7.99999999999990475674e-03
  -8.00000000000000016653e-03
  -7.99999999999994985955e-03
  -7.99999999999980587750e-03
  -8.00000000000023782365e-03
  -8.00000000000003486100e-03
  -8.00000000000041303072e-03
  -8.00000000000007302492e-03
  -7.99999999999994985955e-03
  -8.00000000000021353752e-03
  -7.99999999999997414568e-03
  -8.00000000000026210978e-03
  -8.00000000000012506662e-03
  -7.99999999999986138866e-03
  -7.99999999999988567478e-03
  -7.99999999999999843181e-03
  -7.99999999999989434840e-03
  -8.00000000000024649727e-03
  -8.00000000000039394876e-03
  -7.99999999999992383870e-03
  -8.00000000000001924849e-03
  -8.00000000000041129600e-03
  -7.99999999999953699537e-03
  -7.99999999999997934985e-03
  -8.00000000000027598757e-03
  -7.99999999999990128730e-03
  -8.00000000000012680135e-03
  -8.00000000000005394296e-03
  -7.99999999999992036925e-03
  -8.00000000000009731105e-03
  -8.00000000000015108748e-03
  -7.99999999999982322474e-03
  -8.00000000000029333480e-03
  -7.99999999999973475384e-03
  -8.00000000000059344196e-03
  -7.99999999999999496236e-03
  -7.99999999999997934985e-03
  -7.99999999999992557342e-03
  -8.00000000000016149582e-03
  -8.00000000000006955547e-03
  -7.99999999999983363308e-03
  -7.99999999999989261368e-03
  -8.00000000000002271794e-03
  -8.00000000000000190126e-03
  -7.99999999999875290035e-03
  -7.99999999999978159138e-03
  -7.99999999999956475094e-03
  -8.00000000000002792211e-03
  -8.00000000000005220824e-03
  -7.99999999999997067623e-03
  -8.00000000000004526934e-03
  -7.99999999999995506372e-03
  -8.00000000000001924849e-03
  -7.99999999999995159428e-03
  -8.00000000000028466118e-03
  -7.99999999999976424414e-03
  -7.99999999999996373734e-03
  -8.00000000000004006517e-03
  -8.00000000000004526934e-03
  -8.00000000000078946572e-03
  -7.99999999999995506372e-03
  -7.99999999999988220534e-03
  -7.99999999999997414568e-03
  -8.00000000000014935275e-03
  -7.99999999999991516508e-03
  -8.00000000000024129310e-03
  -8.00000000000005394296e-03
  -8.00000000000003833045e-03
  -7.99999999999998802347e-03
  -8.00000000000019792501e-03
  -7.99999999999996373734e-03
  -8.00000000000036966263e-03
  -8.00000000000026904867e-03
  -8.00000000000000710543e-03
  -8.00000000000028466118e-03
  -7.99999999999996894151e-03
  -7.99999999999990128730e-03
  -7.99999999999988914423e-03
  -8.00000000000007302492e-03
  -8.00000000000011292356e-03
  -8.00000000000023435420e-03
  -7.99999999999982149002e-03
  -8.00000000000021006807e-03
  -8.00000000000000363598e-03
  -7.99999999999951617868e-03
  -7.99999999999977118303e-03
  -7.99999999999989608312e-03
  -7.99999999999996720679e-03
  -8.00000000000004526934e-03
  -7.99999999999948668838e-03
  -8.00000000000022568059e-03
  -8.00000000000013894441e-03
  -7.99999999999961852737e-03
  -8.00000000000013547496e-03
  -7.99999999999972434550e-03
  -7.99999999999946587170e-03
  -7.99999999999982495946e-03
  -7.99999999999997588040e-03
  -7.99999999999963413988e-03
  -7.99999999999991863453e-03
  -8.00000000000001577904e-03
  -8.00000000000000190126e-03
  -7.99999999999953873009e-03
  -7.99999999999967230380e-03
  -7.99999999999991863453e-03
  -7.99999999999997241096e-03
  -7.99999999999976944831e-03
  -7.99999999999995506372e-03
  -7.99999999999979373444e-03
  -8.00000000000021527224e-03
  -8.00000000000006608603e-03
  -8.00000000000007302492e-03
  -7.99999999999999496236e-03
  -8.00000000000010945411e-03
  -7.99999999999992036925e-03
  -8.00000000000033496816e-03
  -8.00000000000011465828e-03
  -7.99999999999981975529e-03
  -7.99999999999960638430e-03
  -7.99999999999933576744e-03
  -7.99999999999994292066e-03
  -7.99999999999991689981e-03
  -7.99999999999990302202e-03
  -7.99999999999995159428e-03
  -8.00000000000000363598e-03
  -8.00000000000001057487e-03
  -7.99999999999990822619e-03
  -7.99999999999990822619e-03
  -8.00000000000041650017e-03
  -7.99999999999980587750e-03
  -7.99999999999981802057e-03
  -7.99999999999993771649e-03
  -7.99999999999978332610e-03
  -8.00000000000004526934e-03
  -7.99999999999982842891e-03
  -8.00000000000004873879e-03
  -7.99999999999973301912e-03
  -7.99999999999982322474e-03
  -8.00000000000004353462e-03
  -8.00000000000020486390e-03
  -7.99999999999927678684e-03
  -7.99999999999994639011e-03
  -8.00000000000060558503e-03
  -7.99999999999982322474e-03
  -8.00000000000009384160e-03
  -7.99999999999988567478e-03
  -7.99999999999990649147e-03
  -7.99999999999996720679e-03
  -7.99999999999980761223e-03
  -7.99999999999993945121e-03
  -8.00000000000001057487e-03
  -8.00000000000004526934e-03
  -7.99999999999962546626e-03
  -7.99999999999988394006e-03
  -7.99999999999995679845e-03
  -7.99999999999994118594e-03
  -8.00000000000001751377e-03
  -7.99999999999962893571e-03
  -8.00000000000012853607e-03
  -8.00000000000002618739e-03
  -8.00000000000010945411e-03
  -8.00000000000029333480e-03
  -7.99999999999999843181e-03
  -8.00000000000019619029e-03
  -7.99999999999992557342e-03
  -7.99999999999994465538e-03
  -8.00000000000033843761e-03
  -8.00000000000035231540e-03
  -8.00000000000010771939e-03
  -8.00000000000027945701e-03
  -7.99999999999995332900e-03
  -8.00000000000010598467e-03
  -7.99999999999980761223e-03
  -7.99999999999975903997e-03
  -8.00000000000002445266e-03
  -8.00000000000000710543e-03
  -7.99999999999991343036e-03
  -7.99999999999991169564e-03
  -8.00000000000031415148e-03
  -8.00000000000187019844e-03
  -8.00000000000039915293e-03
  -8.00000000000020312918e-03
  -8.00000000000010078050e-03
  -7.99999999999985791921e-03
  -7.99999999999997934985e-03
  -7.99999999999987353172e-03
  -7.99999999999956648566e-03
  -8.00000000000030200842e-03
  -7.99999999999984924559e-03
  -8.00000000000056395166e-03
  -7.99999999999983363308e-03
  -8.00000000000003486100e-03
  -7.99999999999992210398e-03
  -8.00000000000010945411e-03
  -7.99999999999993771649e-03
  -8.00000000000006435130e-03
  -8.00000000000031415148e-03
  -8.00000000000046507243e-03
  -7.99999999999994292066e-03
  -8.00000000000038874459e-03
  -7.99999999999937740081e-03
  -8.00000000000018751667e-03
  -7.99999999999971393716e-03
  -8.00000000000026557923e-03
  -7.99999999999979199972e-03
  -7.99999999999985618448e-03
  -7.99999999999998975819e-03
  -7.99999999999996547206e-03
  -7.99999999999984577614e-03
  -7.99999999999991516508e-03
  -7.99999999999951617868e-03
  -7.99999999999993077759e-03
  -7.99999999999935311468e-03
  -8.00000000000003659573e-03
  -8.00000000000016149582e-03
  -8.00000000000006435130e-03
  -8.00000000000027598757e-03
  -7.99999999999987526644e-03
  -8.00000000000025864033e-03
  -8.00000000000002618739e-03
  -8.00000000000008343326e-03
  -7.99999999999967403852e-03
  -8.00000000000025690561e-03
  -8.00000000000013547496e-03
  -7.99999999999956128149e-03
  -7.99999999999981628585e-03
  -7.99999999999985791921e-03
  -8.00000000000024302782e-03
  -7.99999999999980067333e-03
  -8.00000000000010424994e-03
  -8.00000000000007475964e-03
  -7.99999999999874249201e-03
  -8.00000000000019445556e-03
  -8.00000000000018578195e-03
  -7.99999999999942770779e-03
  -7.99999999999988740951e-03
  -8.00000000000005914713e-03
  -7.99999999999984751087e-03
  -7.99999999999999149292e-03
  -8.00000000000026904867e-03
  -8.00000000000003833045e-03
  -8.00000000000017537360e-03
  -7.99999999999992383870e-03
  -7.99999999999977291776e-03
  -7.99999999999993424704e-03
  -8.00000000000034364178e-03
  -7.99999999999998108458e-03
  -8.00000000000017537360e-03
  -8.00000000000007649437e-03
  -7.99999999999983883725e-03
  -7.99999999999980587750e-03
  -7.99999999999980934695e-03
  -7.99999999999989955257e-03
  -8.00000000000007649437e-03
  -7.99999999999990302202e-03
  -8.00000000000023261948e-03
  -8.00000000000020139446e-03
  -7.99999999999998802347e-03
  -8.00000000000008516798e-03
  -7.99999999999978853027e-03
  -7.99999999999909464088e-03
  -8.00000000000006955547e-03
  -7.99999999999993077759e-03
  -7.99999999999991169564e-03
  -7.99999999999952138285e-03
  -7.99999999999941383000e-03
  -7.99999999999990649147e-03
  -7.99999999999981628585e-03
  -7.99999999999905474224e-03
  -7.99999999999990649147e-03
  -8.00000000000007996381e-03
  -8.00000000000004700407e-03
  -7.99999999999958036345e-03
  -7.99999999999979893861e-03
  -7.99999999999989434840e-03
  -7.99999999999980414278e-03
  -7.99999999999992036925e-03
  -7.99999999999993598176e-03
  -8.00000000000025690561e-03
  -7.99999999999946934115e-03
  -7.99999999999813013463e-03
</dep>
<dep _net1.Vt time>
  +7.36466394825733949858e-01
  +7.15620293052410927359e-01
  +6.90940655612549914366e-01
  +6.63280479419385393669e-01
  +6.33723842285484506576e-01
  +6.04007329937609749315e-01
  +5.76654667017093780501e-01
  +5.55110393934318713249e-01
  +5.43879092799403052183e-01
  +5.48694341369971860800e-01
  +5.76765630823325547993e-01
  +6.37128720355444322365e-01
  +7.41301592609351245322e-01
  +9.03943633592094064610e-01
  +1.14310236443360979663e+00
  +1.44649208771055981515e+00
  +1.75010188418570433733e+00
  +2.00066066679961807040e+00
  +2.16955525591287923248e+00
  +2.25055850641983745675e+00
  +2.24646620914446515371e+00
  +2.15870224802467625125e+00
  +1.98049511483336315720e+00
  +1.68818292704639416613e+00
  +1.21550801246646500431e+00
  +4.94457809333967102106e-01
  -5.30641281729913094622e-01
  -1.77740906437102896831e+00
  -2.80281888145078106334e+00
  -3.38583523867956603937e+00
  -3.51053448172625648382e+00
  -3.25310597332057938047e+00
  -2.71872293331981706999e+00
  -2.00884016164233525359e+00
  -1.20557313287353018438e+00
  -3.61797253170681620826e-01
  +5.07362213385530003151e-01
  +1.68741655849664695666e+00
  +2.63457785534361743629e+00
  +3.10744811966691214522e+00
  +3.31388829295958542431e+00
  +3.37757772692845792406e+00
  +3.34929130542663511250e+00
  +3.24600714924853006593e+00
  +3.06752095845802363883e+00
  +2.80074946395480894878e+00
  +2.41548900578531178240e+00
  +1.84195316742162229495e+00
  +8.86878392455105357683e-01
  -5.24241487010101980815e-01
  -2.42408887974281261890e+00
  -4.00889914321557228050e+00
  -4.91702875706050424043e+00
  -5.15528239610571503704e+00
  -4.85528122762362368547e+00
  -4.17598898149034170046e+00
  -3.26604682321949413293e+00
  -2.24739638994443424735e+00
  -1.20643777227433535160e+00
  -1.87230315018919402092e-01
  +8.58777778300743754869e-01
  +2.17270684651175161051e+00
  +2.94120813865020291900e+00
