<Qucs Dataset 0.0.12>
<indep outvolts_tot_V 1>
  +5.45429403367e+00
</indep>
<indep Tsky_C 1>
  -2.63150000000e+02
</indep>
<indep Tsky_K 1>
  +1.00000000000e+01
</indep>
<indep acfrequency 151>
  +3.50000000000e+10
  +3.51000000000e+10
  +3.52000000000e+10
  +3.53000000000e+10
  +3.54000000000e+10
  +3.55000000000e+10
  +3.56000000000e+10
  +3.57000000000e+10
  +3.58000000000e+10
  +3.59000000000e+10
  +3.60000000000e+10
  +3.61000000000e+10
  +3.62000000000e+10
  +3.63000000000e+10
  +3.64000000000e+10
  +3.65000000000e+10
  +3.66000000000e+10
  +3.67000000000e+10
  +3.68000000000e+10
  +3.69000000000e+10
  +3.70000000000e+10
  +3.71000000000e+10
  +3.72000000000e+10
  +3.73000000000e+10
  +3.74000000000e+10
  +3.75000000000e+10
  +3.76000000000e+10
  +3.77000000000e+10
  +3.78000000000e+10
  +3.79000000000e+10
  +3.80000000000e+10
  +3.81000000000e+10
  +3.82000000000e+10
  +3.83000000000e+10
  +3.84000000000e+10
  +3.85000000000e+10
  +3.86000000000e+10
  +3.87000000000e+10
  +3.88000000000e+10
  +3.89000000000e+10
  +3.90000000000e+10
  +3.91000000000e+10
  +3.92000000000e+10
  +3.93000000000e+10
  +3.94000000000e+10
  +3.95000000000e+10
  +3.96000000000e+10
  +3.97000000000e+10
  +3.98000000000e+10
  +3.99000000000e+10
  +4.00000000000e+10
  +4.01000000000e+10
  +4.02000000000e+10
  +4.03000000000e+10
  +4.04000000000e+10
  +4.05000000000e+10
  +4.06000000000e+10
  +4.07000000000e+10
  +4.08000000000e+10
  +4.09000000000e+10
  +4.10000000000e+10
  +4.11000000000e+10
  +4.12000000000e+10
  +4.13000000000e+10
  +4.14000000000e+10
  +4.15000000000e+10
  +4.16000000000e+10
  +4.17000000000e+10
  +4.18000000000e+10
  +4.19000000000e+10
  +4.20000000000e+10
  +4.21000000000e+10
  +4.22000000000e+10
  +4.23000000000e+10
  +4.24000000000e+10
  +4.25000000000e+10
  +4.26000000000e+10
  +4.27000000000e+10
  +4.28000000000e+10
  +4.29000000000e+10
  +4.30000000000e+10
  +4.31000000000e+10
  +4.32000000000e+10
  +4.33000000000e+10
  +4.34000000000e+10
  +4.35000000000e+10
  +4.36000000000e+10
  +4.37000000000e+10
  +4.38000000000e+10
  +4.39000000000e+10
  +4.40000000000e+10
  +4.41000000000e+10
  +4.42000000000e+10
  +4.43000000000e+10
  +4.44000000000e+10
  +4.45000000000e+10
  +4.46000000000e+10
  +4.47000000000e+10
  +4.48000000000e+10
  +4.49000000000e+10
  +4.50000000000e+10
  +4.51000000000e+10
  +4.52000000000e+10
  +4.53000000000e+10
  +4.54000000000e+10
  +4.55000000000e+10
  +4.56000000000e+10
  +4.57000000000e+10
  +4.58000000000e+10
  +4.59000000000e+10
  +4.60000000000e+10
  +4.61000000000e+10
  +4.62000000000e+10
  +4.63000000000e+10
  +4.64000000000e+10
  +4.65000000000e+10
  +4.66000000000e+10
  +4.67000000000e+10
  +4.68000000000e+10
  +4.69000000000e+10
  +4.70000000000e+10
  +4.71000000000e+10
  +4.72000000000e+10
  +4.73000000000e+10
  +4.74000000000e+10
  +4.75000000000e+10
  +4.76000000000e+10
  +4.77000000000e+10
  +4.78000000000e+10
  +4.79000000000e+10
  +4.80000000000e+10
  +4.81000000000e+10
  +4.82000000000e+10
  +4.83000000000e+10
  +4.84000000000e+10
  +4.85000000000e+10
  +4.86000000000e+10
  +4.87000000000e+10
  +4.88000000000e+10
  +4.89000000000e+10
  +4.90000000000e+10
  +4.91000000000e+10
  +4.92000000000e+10
  +4.93000000000e+10
  +4.94000000000e+10
  +4.95000000000e+10
  +4.96000000000e+10
  +4.97000000000e+10
  +4.98000000000e+10
  +4.99000000000e+10
  +5.00000000000e+10
</indep>
<dep outvolts_log acfrequency>
  -6.34903522022e+01
  -6.34762868273e+01
  -6.34628772078e+01
  -6.34504432631e+01
  -6.34393659207e+01
  -6.33798890373e+01
  -6.33329252533e+01
  -6.32804630939e+01
  -6.31406666241e+01
  -6.30725921497e+01
  -6.29969856865e+01
  -6.29131833690e+01
  -6.28204979417e+01
  -6.27182254432e+01
  -6.26056534133e+01
  -6.24820706008e+01
  -6.23467780581e+01
  -6.08620900797e+01
  -5.84764122755e+01
  -5.53201114437e+01
  -5.16926706723e+01
  -4.78353300465e+01
  -4.38992765121e+01
  -4.29153709646e+01
  -3.59098027078e+01
  -3.65972287816e+01
  -3.56121151205e+01
  -3.46262520213e+01
  -3.36399084479e+01
  -3.26532962571e+01
  -3.16814260991e+01
  -3.17072338324e+01
  -3.17335260504e+01
  -3.17602965038e+01
  -3.17875393185e+01
  -3.18152489827e+01
  -3.18434203345e+01
  -3.18720485511e+01
  -3.19011291377e+01
  -3.19306579182e+01
  -3.19606310252e+01
  -3.31376233721e+01
  -3.31700460643e+01
  -1.32028091986e+01
  -1.32359113001e+01
  -1.32693510704e+01
  -1.33031273999e+01
  -1.33372393604e+01
  -1.33716862026e+01
  -1.34064673526e+01
  -1.34415824102e+01
  -1.34770311462e+01
  -1.35128135008e+01
  -1.35489295812e+01
  -1.35853796610e+01
  -1.36221641782e+01
  -1.36592837344e+01
  -1.36967390940e+01
  -1.37345311832e+01
  -1.37345311832e+01
  -1.37345311832e+01
  -1.37345311832e+01
  -1.37345311832e+01
  -1.37345311832e+01
  -1.37345311832e+01
  -1.37345311832e+01
  -1.37345311832e+01
  -1.17963309247e+01
  -1.17963309247e+01
  -1.17963309247e+01
  -1.17963309247e+01
  -1.17963309247e+01
  -1.17963309247e+01
  -1.17963309247e+01
  -1.17963309247e+01
  -1.17963309247e+01
  -1.20313250325e+01
  -1.07354544406e+01
  -1.09583852105e+01
  -1.11757371765e+01
  -1.13877827151e+01
  -1.13877827151e+01
  -1.13877827151e+01
  -1.13877827151e+01
  -1.13877827151e+01
  -1.13877827151e+01
  -1.13877827151e+01
  -1.13877827151e+01
  -1.12495888067e+01
  -1.13698482306e+01
  -1.13288318631e+01
  -1.13288318631e+01
  -1.13288318631e+01
  -1.13288318631e+01
  -1.13288318631e+01
  -1.13288318631e+01
  -1.13288318631e+01
  -1.13288318631e+01
  -1.13288318631e+01
  -1.13288318631e+01
  -1.13288318631e+01
  -1.13288318631e+01
  -1.13288318631e+01
  -1.13288318631e+01
  -1.13288318631e+01
  -1.13288318631e+01
  -1.13288318631e+01
  -1.13288318631e+01
  -1.13288318631e+01
  -1.13288318631e+01
  -1.13288318631e+01
  -1.13288318631e+01
  -1.13288318631e+01
  -1.13288318631e+01
  -1.13288318631e+01
  -1.13288318631e+01
  -1.13288318631e+01
  -1.13288318631e+01
  -1.13288318631e+01
  -1.13288318631e+01
  -1.13288318631e+01
  -1.13288318631e+01
  -1.13288318631e+01
  -1.13288318631e+01
  -1.13288318631e+01
  -1.13288318631e+01
  -1.43114105929e+01
  -1.72768580298e+01
  -2.02087273380e+01
  -2.30759015197e+01
  -2.58224335417e+01
  -2.58224335417e+01
  -2.58224335417e+01
  -2.58224335417e+01
  -2.58224335417e+01
  -2.58224335417e+01
  -2.58224335417e+01
  -2.58224335417e+01
  -2.58224335417e+01
  -2.58224335417e+01
  -2.58224335417e+01
  -2.58224335417e+01
  -2.93442587203e+01
  -3.53648586328e+01
  -3.53648586328e+01
  -3.53648586328e+01
  -3.53648586328e+01
  -3.53648586328e+01
  -3.53648586328e+01
  -3.53648586328e+01
  -3.53648586328e+01
</dep>
<dep Freq_GHz acfrequency>
  +3.50000000000e+01
  +3.51000000000e+01
  +3.52000000000e+01
  +3.53000000000e+01
  +3.54000000000e+01
  +3.55000000000e+01
  +3.56000000000e+01
  +3.57000000000e+01
  +3.58000000000e+01
  +3.59000000000e+01
  +3.60000000000e+01
  +3.61000000000e+01
  +3.62000000000e+01
  +3.63000000000e+01
  +3.64000000000e+01
  +3.65000000000e+01
  +3.66000000000e+01
  +3.67000000000e+01
  +3.68000000000e+01
  +3.69000000000e+01
  +3.70000000000e+01
  +3.71000000000e+01
  +3.72000000000e+01
  +3.73000000000e+01
  +3.74000000000e+01
  +3.75000000000e+01
  +3.76000000000e+01
  +3.77000000000e+01
  +3.78000000000e+01
  +3.79000000000e+01
  +3.80000000000e+01
  +3.81000000000e+01
  +3.82000000000e+01
  +3.83000000000e+01
  +3.84000000000e+01
  +3.85000000000e+01
  +3.86000000000e+01
  +3.87000000000e+01
  +3.88000000000e+01
  +3.89000000000e+01
  +3.90000000000e+01
  +3.91000000000e+01
  +3.92000000000e+01
  +3.93000000000e+01
  +3.94000000000e+01
  +3.95000000000e+01
  +3.96000000000e+01
  +3.97000000000e+01
  +3.98000000000e+01
  +3.99000000000e+01
  +4.00000000000e+01
  +4.01000000000e+01
  +4.02000000000e+01
  +4.03000000000e+01
  +4.04000000000e+01
  +4.05000000000e+01
  +4.06000000000e+01
  +4.07000000000e+01
  +4.08000000000e+01
  +4.09000000000e+01
  +4.10000000000e+01
  +4.11000000000e+01
  +4.12000000000e+01
  +4.13000000000e+01
  +4.14000000000e+01
  +4.15000000000e+01
  +4.16000000000e+01
  +4.17000000000e+01
  +4.18000000000e+01
  +4.19000000000e+01
  +4.20000000000e+01
  +4.21000000000e+01
  +4.22000000000e+01
  +4.23000000000e+01
  +4.24000000000e+01
  +4.25000000000e+01
  +4.26000000000e+01
  +4.27000000000e+01
  +4.28000000000e+01
  +4.29000000000e+01
  +4.30000000000e+01
  +4.31000000000e+01
  +4.32000000000e+01
  +4.33000000000e+01
  +4.34000000000e+01
  +4.35000000000e+01
  +4.36000000000e+01
  +4.37000000000e+01
  +4.38000000000e+01
  +4.39000000000e+01
  +4.40000000000e+01
  +4.41000000000e+01
  +4.42000000000e+01
  +4.43000000000e+01
  +4.44000000000e+01
  +4.45000000000e+01
  +4.46000000000e+01
  +4.47000000000e+01
  +4.48000000000e+01
  +4.49000000000e+01
  +4.50000000000e+01
  +4.51000000000e+01
  +4.52000000000e+01
  +4.53000000000e+01
  +4.54000000000e+01
  +4.55000000000e+01
  +4.56000000000e+01
  +4.57000000000e+01
  +4.58000000000e+01
  +4.59000000000e+01
  +4.60000000000e+01
  +4.61000000000e+01
  +4.62000000000e+01
  +4.63000000000e+01
  +4.64000000000e+01
  +4.65000000000e+01
  +4.66000000000e+01
  +4.67000000000e+01
  +4.68000000000e+01
  +4.69000000000e+01
  +4.70000000000e+01
  +4.71000000000e+01
  +4.72000000000e+01
  +4.73000000000e+01
  +4.74000000000e+01
  +4.75000000000e+01
  +4.76000000000e+01
  +4.77000000000e+01
  +4.78000000000e+01
  +4.79000000000e+01
  +4.80000000000e+01
  +4.81000000000e+01
  +4.82000000000e+01
  +4.83000000000e+01
  +4.84000000000e+01
  +4.85000000000e+01
  +4.86000000000e+01
  +4.87000000000e+01
  +4.88000000000e+01
  +4.89000000000e+01
  +4.90000000000e+01
  +4.91000000000e+01
  +4.92000000000e+01
  +4.93000000000e+01
  +4.94000000000e+01
  +4.95000000000e+01
  +4.96000000000e+01
  +4.97000000000e+01
  +4.98000000000e+01
  +4.99000000000e+01
  +5.00000000000e+01
</dep>
<dep outvolts_V acfrequency>
  +4.47676997200e-07
  +4.49129226647e-07
  +4.50518136672e-07
  +4.51809828005e-07
  +4.52963708749e-07
  +4.59209745549e-07
  +4.64202499585e-07
  +4.69844005853e-07
  +4.85214016096e-07
  +4.92879533840e-07
  +5.01535214064e-07
  +5.11306911305e-07
  +5.22336296932e-07
  +5.34782830664e-07
  +5.48825976342e-07
  +5.64667692059e-07
  +5.82535228466e-07
  +8.19956838044e-07
  +1.42023029528e-06
  +2.93757427029e-06
  +6.77224923441e-06
  +1.64614086141e-05
  +4.07448148628e-05
  +5.11049424481e-05
  +2.56460053910e-04
  +2.18915807275e-04
  +2.74655618720e-04
  +3.44647234397e-04
  +4.32522948801e-04
  +5.42838165679e-04
  +6.78980638151e-04
  +6.74957794130e-04
  +6.70883938990e-04
  +6.66761246186e-04
  +6.62591817151e-04
  +6.58377683819e-04
  +6.54120811034e-04
  +6.49823098878e-04
  +6.45486384907e-04
  +6.41112446299e-04
  +6.36703001930e-04
  +4.85554141539e-04
  +4.81942685778e-04
  +4.78320594443e-02
  +4.74688674383e-02
  +4.71047705825e-02
  +4.67398441578e-02
  +4.63741608404e-02
  +4.60077907904e-02
  +4.56408017378e-02
  +4.52732590654e-02
  +4.49052258881e-02
  +4.45367631298e-02
  +4.41679295974e-02
  +4.37987820522e-02
  +4.34293752780e-02
  +4.30597621483e-02
  +4.26899936891e-02
  +4.23201191416e-02
  +4.23201191416e-02
  +4.23201191416e-02
  +4.23201191416e-02
  +4.23201191416e-02
  +4.23201191416e-02
  +4.23201191416e-02
  +4.23201191416e-02
  +4.23201191416e-02
  +6.61251861348e-02
  +6.61251861348e-02
  +6.61251861348e-02
  +6.61251861348e-02
  +6.61251861348e-02
  +6.61251861348e-02
  +6.61251861348e-02
  +6.61251861348e-02
  +6.61251861348e-02
  +6.26422713945e-02
  +8.44217899331e-02
  +8.01976197958e-02
  +7.62827396961e-02
  +7.26476764542e-02
  +7.26476764542e-02
  +7.26476764542e-02
  +7.26476764542e-02
  +7.26476764542e-02
  +7.26476764542e-02
  +7.26476764542e-02
  +7.26476764542e-02
  +7.49965213238e-02
  +7.29483002467e-02
  +7.36405144303e-02
  +7.36405144303e-02
  +7.36405144303e-02
  +7.36405144303e-02
  +7.36405144303e-02
  +7.36405144303e-02
  +7.36405144303e-02
  +7.36405144303e-02
  +7.36405144303e-02
  +7.36405144303e-02
  +7.36405144303e-02
  +7.36405144303e-02
  +7.36405144303e-02
  +7.36405144303e-02
  +7.36405144303e-02
  +7.36405144303e-02
  +7.36405144303e-02
  +7.36405144303e-02
  +7.36405144303e-02
  +7.36405144303e-02
  +7.36405144303e-02
  +7.36405144303e-02
  +7.36405144303e-02
  +7.36405144303e-02
  +7.36405144303e-02
  +7.36405144303e-02
  +7.36405144303e-02
  +7.36405144303e-02
  +7.36405144303e-02
  +7.36405144303e-02
  +7.36405144303e-02
  +7.36405144303e-02
  +7.36405144303e-02
  +7.36405144303e-02
  +7.36405144303e-02
  +7.36405144303e-02
  +3.70560343855e-02
  +1.87203600381e-02
  +9.53075413525e-03
  +4.92504097468e-03
  +2.61671633685e-03
  +2.61671633685e-03
  +2.61671633685e-03
  +2.61671633685e-03
  +2.61671633685e-03
  +2.61671633685e-03
  +2.61671633685e-03
  +2.61671633685e-03
  +2.61671633685e-03
  +2.61671633685e-03
  +2.61671633685e-03
  +2.61671633685e-03
  +1.16298503929e-03
  +2.90746259875e-04
  +2.90746259875e-04
  +2.90746259875e-04
  +2.90746259875e-04
  +2.90746259875e-04
  +2.90746259875e-04
  +2.90746259875e-04
  +2.90746259875e-04
</dep>
<dep bem_in.vn acfrequency>
  +nan
  +nan
  +nan
  +nan
  +nan
  +nan
  +nan
  +nan
  +nan
  +nan
  +nan
  +1.70731552264e-10
  +2.54724306591e-10
  +3.24362824099e-10
  +3.88215189878e-10
  +4.49486587754e-10
  +5.09832335701e-10
  +1.01448263934e-09
  +1.72454661487e-09
  +2.80895986188e-09
  +4.50717232739e-09
  +7.19079124836e-09
  +1.14186564455e-08
  +1.28043948859e-08
  +1.43563629981e-08
  +1.32549733594e-08
  +1.48608063721e-08
  +1.66594350062e-08
  +1.86739418279e-08
  +2.09301559732e-08
  +2.34168066090e-08
  +2.33471267634e-08
  +2.32763507759e-08
  +2.32045065509e-08
  +2.31316209279e-08
  +2.30577197215e-08
  +2.29828277589e-08
  +2.29069689167e-08
  +2.28301661543e-08
  +2.27524415473e-08
  +2.26738163180e-08
  +1.97906889599e-08
  +1.97166450073e-08
  +1.96421026655e-08
  +1.95670728998e-08
  +1.94915663129e-08
  +1.94155930449e-08
  +1.93391628156e-08
  +1.92622849371e-08
  +1.91849683259e-08
  +1.91072215147e-08
  +1.90290526635e-08
  +1.89504695700e-08
  +1.88714796798e-08
  +1.87920900962e-08
  +1.87123075890e-08
  +1.86321386037e-08
  +1.85515892695e-08
  +1.84706654072e-08
  +1.84706654072e-08
  +1.84706654072e-08
  +1.84706654072e-08
  +1.84706654072e-08
  +1.84706654072e-08
  +1.84706654072e-08
  +1.84706654072e-08
  +1.84706654072e-08
  +1.84706653473e-08
  +1.84706653473e-08
  +1.84706653473e-08
  +1.84706653473e-08
  +1.84706653473e-08
  +1.84706653473e-08
  +1.84706653473e-08
  +1.84706653473e-08
  +1.84706653473e-08
  +1.69753297840e-08
  +1.55577450044e-08
  +1.42120004881e-08
  +1.29327697005e-08
  +1.17152400954e-08
  +1.17152400954e-08
  +1.17152400954e-08
  +1.17152400954e-08
  +1.17152400954e-08
  +1.17152400954e-08
  +1.17152400954e-08
  +1.17152400954e-08
  +1.17152401776e-08
  +1.17152401815e-08
  +1.17152401832e-08
  +1.17152401832e-08
  +1.17152401832e-08
  +1.17152401832e-08
  +1.17152401832e-08
  +1.17152401832e-08
  +1.17152401832e-08
  +1.17152401832e-08
  +1.17152401832e-08
  +1.17152401832e-08
  +1.17152401832e-08
  +1.17152401832e-08
  +1.17152401832e-08
  +1.17152401832e-08
  +1.17152401832e-08
  +1.17152401832e-08
  +1.17152401832e-08
  +1.17152401832e-08
  +1.17152401832e-08
  +1.17152401832e-08
  +1.17152401832e-08
  +1.17152401832e-08
  +1.17152401832e-08
  +1.17152401832e-08
  +1.17152401832e-08
  +1.17152401832e-08
  +1.17152401832e-08
  +1.17152401832e-08
  +1.17152401832e-08
  +1.17152401832e-08
  +1.17152401832e-08
  +1.17152401832e-08
  +1.17152401832e-08
  +1.17152401832e-08
  +1.17152401832e-08
  +1.17152401832e-08
  +8.27945220391e-09
  +5.84114773913e-09
  +4.10645456947e-09
  +2.86608850059e-09
  +1.96975698433e-09
  +1.96975698433e-09
  +1.96975698433e-09
  +1.96975698433e-09
  +1.96975698433e-09
  +1.96975698433e-09
  +1.96975698433e-09
  +1.96975698433e-09
  +1.96975698433e-09
  +1.96975698433e-09
  +1.96975698433e-09
  +1.96975698433e-09
  +1.96975698377e-09
  +1.96975698359e-09
  +1.96975698359e-09
  +1.96975698359e-09
  +1.96975698359e-09
  +1.96975698359e-09
  +1.96975698359e-09
  +1.96975698359e-09
  +1.96975698359e-09
</dep>
<dep out_sqrtV.vn acfrequency>
  +6.69086688853e-04
  +6.70171042829e-04
  +6.71206478419e-04
  +6.72168005788e-04
  +6.73025786095e-04
  +6.77650164575e-04
  +6.81324078237e-04
  +6.85451680174e-04
  +6.96573051514e-04
  +7.02053796970e-04
  +7.08191509455e-04
  +7.15057278339e-04
  +7.22728370090e-04
  +7.31288472946e-04
  +7.40827899274e-04
  +7.51443738452e-04
  +7.63239954710e-04
  +9.05514681297e-04
  +1.19173415462e-03
  +1.71393531683e-03
  +2.60235455586e-03
  +4.05726615027e-03
  +6.38316652319e-03
  +7.14877209373e-03
  +1.60143702314e-02
  +1.47958037049e-02
  +1.65727372127e-02
  +1.85646770615e-02
  +2.07971860789e-02
  +2.32988876490e-02
  +2.60572569192e-02
  +2.59799498485e-02
  +2.59014273543e-02
  +2.58217204343e-02
  +2.57408589047e-02
  +2.56588714448e-02
  +2.55757856386e-02
  +2.54916280154e-02
  +2.54064240874e-02
  +2.53201983859e-02
  +2.52329744963e-02
  +2.20352930895e-02
  +2.19531930657e-02
  +2.18705417044e-01
  +2.17873512475e-01
  +2.17036334706e-01
  +2.16193996581e-01
  +2.15346606289e-01
  +2.14494267500e-01
  +2.13637079501e-01
  +2.12775137329e-01
  +2.11908531891e-01
  +2.11037350082e-01
  +2.10161674902e-01
  +2.09281585554e-01
  +2.08397157557e-01
  +2.07508462835e-01
  +2.06615569813e-01
  +2.05718543504e-01
  +2.05718543504e-01
  +2.05718543504e-01
  +2.05718543504e-01
  +2.05718543504e-01
  +2.05718543504e-01
  +2.05718543504e-01
  +2.05718543504e-01
  +2.05718543504e-01
  +2.57148179334e-01
  +2.57148179334e-01
  +2.57148179334e-01
  +2.57148179334e-01
  +2.57148179334e-01
  +2.57148179334e-01
  +2.57148179334e-01
  +2.57148179334e-01
  +2.57148179334e-01
  +2.50284381044e-01
  +2.90554280528e-01
  +2.83191842742e-01
  +2.76193301324e-01
  +2.69532329145e-01
  +2.69532329145e-01
  +2.69532329145e-01
  +2.69532329145e-01
  +2.69532329145e-01
  +2.69532329145e-01
  +2.69532329145e-01
  +2.69532329145e-01
  +2.73854927514e-01
  +2.70089430091e-01
  +2.71367858138e-01
  +2.71367858138e-01
  +2.71367858138e-01
  +2.71367858138e-01
  +2.71367858138e-01
  +2.71367858138e-01
  +2.71367858138e-01
  +2.71367858138e-01
  +2.71367858138e-01
  +2.71367858138e-01
  +2.71367858138e-01
  +2.71367858138e-01
  +2.71367858138e-01
  +2.71367858138e-01
  +2.71367858138e-01
  +2.71367858138e-01
  +2.71367858138e-01
  +2.71367858138e-01
  +2.71367858138e-01
  +2.71367858138e-01
  +2.71367858138e-01
  +2.71367858138e-01
  +2.71367858138e-01
  +2.71367858138e-01
  +2.71367858138e-01
  +2.71367858138e-01
  +2.71367858138e-01
  +2.71367858138e-01
  +2.71367858138e-01
  +2.71367858138e-01
  +2.71367858138e-01
  +2.71367858138e-01
  +2.71367858138e-01
  +2.71367858138e-01
  +2.71367858138e-01
  +2.71367858138e-01
  +1.92499439961e-01
  +1.36822366732e-01
  +9.76255813568e-02
  +7.01786361700e-02
  +5.11538496777e-02
  +5.11538496777e-02
  +5.11538496777e-02
  +5.11538496777e-02
  +5.11538496777e-02
  +5.11538496777e-02
  +5.11538496777e-02
  +5.11538496777e-02
  +5.11538496777e-02
  +5.11538496777e-02
  +5.11538496777e-02
  +5.11538496777e-02
  +3.41025664619e-02
  +1.70512832325e-02
  +1.70512832325e-02
  +1.70512832325e-02
  +1.70512832325e-02
  +1.70512832325e-02
  +1.70512832325e-02
  +1.70512832325e-02
  +1.70512832325e-02
</dep>
<dep wg_in.vn acfrequency>
  +nan
  +nan
  +nan
  +nan
  +6.71588696168e-11
  +1.51508269440e-10
  +2.11377788292e-10
  +2.63114819390e-10
  +3.12253793630e-10
  +3.60689080957e-10
  +4.08535209186e-10
  +4.56564106967e-10
  +5.05320004595e-10
  +5.55222133940e-10
  +6.06616688120e-10
  +6.59805735243e-10
  +7.15064546393e-10
  +1.23322600512e-09
  +2.01822705516e-09
  +3.24423584425e-09
  +5.17979770645e-09
  +8.24797645534e-09
  +1.30875294173e-08
  +1.46743050739e-08
  +1.64515874730e-08
  +1.51902832883e-08
  +1.70292939715e-08
  +1.90892339760e-08
  +2.13965390821e-08
  +2.39807923031e-08
  +2.68290816827e-08
  +2.67492670602e-08
  +2.66681969224e-08
  +2.65859032356e-08
  +2.65024167463e-08
  +2.64177670268e-08
