<Qucs Dataset 0.0.18>
<indep frequency 39>
  +1.00000000000e+09
  +1.10526315789e+09
  +1.21052631579e+09
  +1.31578947368e+09
  +1.42105263158e+09
  +1.52631578947e+09
  +1.63157894737e+09
  +1.73684210526e+09
  +1.84210526316e+09
  +1.94736842105e+09
  +2.05263157895e+09
  +2.15789473684e+09
  +2.26315789474e+09
  +2.36842105263e+09
  +2.47368421053e+09
  +2.57894736842e+09
  +2.68421052632e+09
  +2.78947368421e+09
  +2.89473684211e+09
  +3.00000000000e+09
  +3.10526315789e+09
  +3.21052631579e+09
  +3.31578947368e+09
  +3.42105263158e+09
  +3.52631578947e+09
  +3.63157894737e+09
  +3.73684210526e+09
  +3.84210526316e+09
  +3.94736842105e+09
  +4.05263157895e+09
  +4.15789473684e+09
  +4.26315789474e+09
  +4.36842105263e+09
  +4.47368421053e+09
  +4.57894736842e+09
  +4.68421052632e+09
  +4.78947368421e+09
  +4.89473684211e+09
  +5.00000000000e+09
</indep>
<dep S[3,3] frequency>
  -9.51579790831e-01-j2.21841904344e-01
  -9.62768219850e-01-j2.00729818010e-01
  -9.70723388356e-01-j1.82848672139e-01
  -9.76507321859e-01-j1.67644355460e-01
  -9.80803284159e-01-j1.54631846768e-01
  -9.84058147432e-01-j1.43411180467e-01
  -9.86569714519e-01-j1.33660569816e-01
  -9.88540327482e-01-j1.25123374335e-01
  -9.90110113336e-01-j1.17595050961e-01
  -9.91377904628e-01-j1.10911999493e-01
  -9.92414624565e-01-j1.04942609564e-01
  -9.93272000172e-01-j9.95802733470e-02
  -9.93988332709e-01-j9.47379967734e-02
  -9.94592383775e-01-j9.03442578766e-02
  -9.95106034798e-01-j8.63398197648e-02
  -9.95546135104e-01-j8.26752686439e-02
  -9.95925804808e-01-j7.93091016287e-02
  -9.96255365926e-01-j7.62062322589e-02
  -9.96543016338e-01-j7.33368146610e-02
  -9.96795323469e-01-j7.06753120862e-02
  -9.97017589942e-01-j6.81997539991e-02
  -9.97214127202e-01-j6.58911395895e-02
  -9.97388462169e-01-j6.37329557480e-02
  -9.97543494637e-01-j6.17107851343e-02
  -9.97681617987e-01-j5.98119856410e-02
  -9.97804812287e-01-j5.80254268404e-02
  -9.97914716337e-01-j5.63412722463e-02
  -9.98012683440e-01-j5.47507987179e-02
  -9.98099824409e-01-j5.32462462627e-02
  -9.98177040363e-01-j5.18206930255e-02
  -9.98245047217e-01-j5.04679514907e-02
  -9.98304393229e-01-j4.91824829761e-02
  -9.98355470683e-01-j4.79593284387e-02
  -9.98398522557e-01-j4.67940545289e-02
  -9.98433645094e-01-j4.56827147894e-02
  -9.98460787508e-01-j4.46218269914e-02
  -9.98479750881e-01-j4.36083688749e-02
  -9.98490190090e-01-j4.26397960315e-02
  -9.98491625805e-01-j4.17140871336e-02
</dep>
<dep S[3,2] frequency>
  -1.43905766866e-01-j4.12909650293e-02
  -1.26238019744e-01-j1.67956472934e-02
  -1.09522302539e-01+j2.44042562707e-04
  -9.44041933687e-02+j1.20131850471e-02
  -8.10400293851e-02+j2.00614600258e-02
  -6.93625178847e-02+j2.54767016920e-02
  -5.92132784514e-02+j2.90219374617e-02
  -5.04071306291e-02+j3.12344181107e-02
  -4.27618779889e-02+j3.24946451618e-02
  -3.61108766506e-02+j3.30738372982e-02
  -3.03071847468e-02+j3.31664893141e-02
  -2.52237485185e-02+j3.29127792315e-02
  -2.07518648448e-02+j3.24140869888e-02
  -1.67990280706e-02+j3.17438269209e-02
  -1.32866912677e-02+j3.09550729206e-02
  -1.01481788686e-02+j3.00859709150e-02
  -7.32684096363e-03+j2.91636110187e-02
  -4.77446843156e-03+j2.82068171017e-02
  -2.44995566983e-03+j2.72281679381e-02
  -3.18184904058e-04+j2.62354674124e-02
  +1.65089707426e-03+j2.52328156005e-02
  +3.48303748955e-03+j2.42213875453e-02
  +5.20029590743e-03+j2.31999953840e-02
  +6.82154275396e-03+j2.21654876550e-02
  +8.36285441837e-03+j2.11130241113e-02
  +9.83781735807e-03+j2.00362531886e-02
  +1.12577497008e-02+j1.89274110564e-02
  +1.26318447716e-02+j1.77773550270e-02
  +1.39672364471e-02+j1.65755394309e-02
  +1.52689808109e-02+j1.53099386047e-02
  +1.65399416291e-02+j1.39669193697e-02
  +1.77805578541e-02+j1.25310646920e-02
  +1.89884585831e-02+j1.09849520455e-02
  +2.01578732393e-02+j9.30889626078e-03
  +2.12787605723e-02+j7.48068081924e-03
  +2.23355479318e-02+j5.47532988838e-03
  +2.33053320036e-02+j3.26502668169e-03
  +2.41553479190e-02+j8.19380090931e-04
  +2.48394805664e-02-j1.89359006811e-03
</dep>
<dep S[3,1] frequency>
  -1.43905766866e-01-j4.12909650293e-02
  -1.26238019744e-01-j1.67956472934e-02
  -1.09522302539e-01+j2.44042562707e-04
  -9.44041933687e-02+j1.20131850471e-02
  -8.10400293851e-02+j2.00614600258e-02
  -6.93625178847e-02+j2.54767016920e-02
  -5.92132784514e-02+j2.90219374617e-02
  -5.04071306291e-02+j3.12344181107e-02
  -4.27618779889e-02+j3.24946451618e-02
  -3.61108766506e-02+j3.30738372982e-02
  -3.03071847468e-02+j3.31664893141e-02
  -2.52237485185e-02+j3.29127792315e-02
  -2.07518648448e-02+j3.24140869888e-02
  -1.67990280706e-02+j3.17438269209e-02
  -1.32866912677e-02+j3.09550729206e-02
  -1.01481788686e-02+j3.00859709150e-02
  -7.32684096363e-03+j2.91636110187e-02
  -4.77446843156e-03+j2.82068171017e-02
  -2.44995566983e-03+j2.72281679381e-02
  -3.18184904058e-04+j2.62354674124e-02
  +1.65089707426e-03+j2.52328156005e-02
  +3.48303748955e-03+j2.42213875453e-02
  +5.20029590743e-03+j2.31999953840e-02
  +6.82154275396e-03+j2.21654876550e-02
  +8.36285441837e-03+j2.11130241113e-02
  +9.83781735807e-03+j2.00362531886e-02
  +1.12577497008e-02+j1.89274110564e-02
  +1.26318447716e-02+j1.77773550270e-02
  +1.39672364471e-02+j1.65755394309e-02
  +1.52689808109e-02+j1.53099386047e-02
  +1.65399416291e-02+j1.39669193697e-02
  +1.77805578541e-02+j1.25310646920e-02
  +1.89884585831e-02+j1.09849520455e-02
  +2.01578732393e-02+j9.30889626078e-03
  +2.12787605723e-02+j7.48068081924e-03
  +2.23355479318e-02+j5.47532988838e-03
  +2.33053320036e-02+j3.26502668169e-03
  +2.41553479190e-02+j8.19380090931e-04
  +2.48394805664e-02-j1.89359006811e-03
</dep>
<dep S[2,3] frequency>
  -1.43905766866e-01-j4.12909650293e-02
  -1.26238019744e-01-j1.67956472934e-02
  -1.09522302539e-01+j2.44042562707e-04
  -9.44041933687e-02+j1.20131850471e-02
  -8.10400293851e-02+j2.00614600258e-02
  -6.93625178847e-02+j2.54767016920e-02
  -5.92132784514e-02+j2.90219374617e-02
  -5.04071306291e-02+j3.12344181107e-02
  -4.27618779889e-02+j3.24946451618e-02
  -3.61108766506e-02+j3.30738372982e-02
  -3.03071847468e-02+j3.31664893141e-02
  -2.52237485185e-02+j3.29127792315e-02
  -2.07518648448e-02+j3.24140869888e-02
  -1.67990280706e-02+j3.17438269209e-02
  -1.32866912677e-02+j3.09550729206e-02
  -1.01481788686e-02+j3.00859709150e-02
  -7.32684096363e-03+j2.91636110187e-02
  -4.77446843156e-03+j2.82068171017e-02
  -2.44995566983e-03+j2.72281679381e-02
  -3.18184904058e-04+j2.62354674124e-02
  +1.65089707426e-03+j2.52328156005e-02
  +3.48303748955e-03+j2.42213875453e-02
  +5.20029590743e-03+j2.31999953840e-02
  +6.82154275396e-03+j2.21654876550e-02
  +8.36285441837e-03+j2.11130241113e-02
  +9.83781735807e-03+j2.00362531886e-02
  +1.12577497008e-02+j1.89274110564e-02
  +1.26318447716e-02+j1.77773550270e-02
  +1.39672364471e-02+j1.65755394309e-02
  +1.52689808109e-02+j1.53099386047e-02
  +1.65399416291e-02+j1.39669193697e-02
  +1.77805578541e-02+j1.25310646920e-02
  +1.89884585831e-02+j1.09849520455e-02
  +2.01578732393e-02+j9.30889626078e-03
  +2.12787605723e-02+j7.48068081924e-03
  +2.23355479318e-02+j5.47532988838e-03
  +2.33053320036e-02+j3.26502668169e-03
  +2.41553479190e-02+j8.19380090931e-04
  +2.48394805664e-02-j1.89359006811e-03
</dep>
<dep S[2,2] frequency>
  +2.12499264977e-01+j5.87706431528e-01
  +2.90711797379e-01+j4.84339928570e-01
  +3.37341701310e-01+j3.81972702764e-01
  +3.58999876526e-01+j2.86286474494e-01
  +3.61539882005e-01+j2.00355440276e-01
  +3.49899384776e-01+j1.25605491615e-01
  +3.28142182745e-01+j6.24303258316e-02
  +2.99564607861e-01+j1.05842586461e-02
  +2.66812209001e-01-j3.05654907741e-02
  +2.31987676448e-01-j6.18745954163e-02
  +1.96745072616e-01-j8.43134153355e-02
  +1.62370555941e-01-j9.88953933122e-02
  +1.29851228501e-01-j1.06630280218e-01
  +9.99337898244e-02-j1.08494920121e-01
  +7.31742961341e-02-j1.05416944125e-01
  +4.99798869328e-02-j9.82682216254e-02
  +3.06429851010e-02-j8.78657565747e-02
  +1.53682382911e-02-j7.49781689120e-02
  +4.29234510915e-03-j6.03361328524e-02
  -2.50311699407e-03-j4.46452550076e-02
  -4.98569362330e-03-j2.85999285784e-02
  -3.17260607084e-03-j1.28967339029e-02
  +2.86257628201e-03+j1.75400565255e-03
  +1.29777521556e-02+j1.46198460744e-02
  +2.69453903452e-02+j2.49422737839e-02
  +4.44319025664e-02+j3.19383249684e-02
  +6.49744484585e-02+j3.48087765569e-02
  +8.79564893324e-02+j3.27537575436e-02
  +1.12583534450e-01+j2.49964680122e-02
  +1.37860618910e-01+j1.08155441341e-02
  +1.62573118628e-01-j1.04135006194e-02
  +1.85272562195e-01-j3.91673527777e-02
  +2.04269184629e-01-j7.57139733807e-02
  +2.17633175262e-01-j1.20040817937e-01
  +2.23207075053e-01-j1.71770725620e-01
  +2.18632889513e-01-j2.30063026991e-01
  +2.01399733532e-01-j2.93496136972e-01
  +1.68922072376e-01-j3.59926618691e-01
  +1.18666161071e-01-j4.26319363309e-01
</dep>
<dep S[2,1] frequency>
  +7.04737335249e-01-j2.78851449453e-01
  +6.82260278758e-01-j4.31894129018e-01
  +6.22817594444e-01-j5.72428949004e-01
  +5.34299290946e-01-j6.94142655900e-01
  +4.23923372607e-01-j7.93464848561e-01
  +2.98064464034e-01-j8.68622498206e-01
  +1.62280429955e-01-j9.19036758831e-01
  +2.14007173758e-02-j9.44941717367e-01
  -1.20377637596e-01-j9.47141714683e-01
  -2.59405190215e-01-j9.26854163053e-01
  -3.92511046227e-01-j8.85605157524e-01
  -5.16948905432e-01-j8.25157909066e-01
  -6.30355894291e-01-j7.47461747532e-01
  -7.30721701972e-01-j6.54614080944e-01
  -8.16365811530e-01-j5.48830494686e-01
  -8.85920994846e-01-j4.32419883922e-01
  -9.38321590333e-01-j3.07762580565e-01
  -9.72795376831e-01-j1.77290120625e-01
  -9.88858099261e-01-j4.34657459760e-02
  -9.86309902786e-01+j9.12349710044e-02
  -9.65233100940e-01+j2.24343804519e-01
  -9.25990842930e-01+j3.53420172755e-01
  -8.69226354407e-01+j4.76072331687e-01
  -7.95862500290e-01+j5.89979748567e-01
  -7.07101452368e-01+j6.92916981948e-01
  -6.04424234806e-01+j7.82779461345e-01
  -4.89589866912e-01+j8.57611635100e-01
  -3.64633728110e-01+j9.15638028407e-01
  -2.31864642658e-01+j9.55297818498e-01
  -9.38600305210e-02+j9.75283593315e-01
  +4.65416971955e-02+j9.74585029149e-01
  +1.86252509191e-01+j9.52538334842e-01
  +3.21951142421e-01+j9.08882518459e-01
  +4.50106127979e-01+j8.43823909807e-01
  +5.67007733935e-01+j7.58111001457e-01
  +6.68812357463e-01+j6.53122613601e-01
  +7.51605268862e-01+j5.30973609467e-01
  +8.11491952271e-01+j3.94643586499e-01
  +8.44735891664e-01+j2.48134212864e-01
</dep>
<dep S[1,3] frequency>
  -1.43905766866e-01-j4.12909650293e-02
  -1.26238019744e-01-j1.67956472934e-02
  -1.09522302539e-01+j2.44042562707e-04
  -9.44041933687e-02+j1.20131850471e-02
  -8.10400293851e-02+j2.00614600258e-02
  -6.93625178847e-02+j2.54767016920e-02
  -5.92132784514e-02+j2.90219374617e-02
  -5.04071306291e-02+j3.12344181107e-02
  -4.27618779889e-02+j3.24946451618e-02
  -3.61108766506e-02+j3.30738372982e-02
  -3.03071847468e-02+j3.31664893141e-02
  -2.52237485185e-02+j3.29127792315e-02
  -2.07518648448e-02+j3.24140869888e-02
  -1.67990280706e-02+j3.17438269209e-02
  -1.32866912677e-02+j3.09550729206e-02
  -1.01481788686e-02+j3.00859709150e-02
  -7.32684096363e-03+j2.91636110187e-02
  -4.77446843156e-03+j2.82068171017e-02
  -2.44995566983e-03+j2.72281679381e-02
  -3.18184904058e-04+j2.62354674124e-02
  +1.65089707426e-03+j2.52328156005e-02
  +3.48303748955e-03+j2.42213875453e-02
  +5.20029590743e-03+j2.31999953840e-02
  +6.82154275396e-03+j2.21654876550e-02
  +8.36285441837e-03+j2.11130241113e-02
  +9.83781735807e-03+j2.00362531886e-02
  +1.12577497008e-02+j1.89274110564e-02
  +1.26318447716e-02+j1.77773550270e-02
  +1.39672364471e-02+j1.65755394309e-02
  +1.52689808109e-02+j1.53099386047e-02
  +1.65399416291e-02+j1.39669193697e-02
  +1.77805578541e-02+j1.25310646920e-02
  +1.89884585831e-02+j1.09849520455e-02
  +2.01578732393e-02+j9.30889626078e-03
  +2.12787605723e-02+j7.48068081924e-03
  +2.23355479318e-02+j5.47532988838e-03
  +2.33053320036e-02+j3.26502668169e-03
  +2.41553479190e-02+j8.19380090931e-04
  +2.48394805664e-02-j1.89359006811e-03
</dep>
<dep S[1,2] frequency>
  +7.04737335249e-01-j2.78851449453e-01
  +6.82260278758e-01-j4.31894129018e-01
  +6.22817594444e-01-j5.72428949004e-01
  +5.34299290946e-01-j6.94142655900e-01
  +4.23923372607e-01-j7.93464848561e-01
  +2.98064464034e-01-j8.68622498206e-01
  +1.62280429955e-01-j9.19036758831e-01
  +2.14007173758e-02-j9.44941717367e-01
  -1.20377637596e-01-j9.47141714683e-01
  -2.59405190215e-01-j9.26854163053e-01
  -3.92511046227e-01-j8.85605157524e-01
  -5.16948905432e-01-j8.25157909066e-01
  -6.30355894291e-01-j7.47461747532e-01
  -7.30721701972e-01-j6.54614080944e-01
  -8.16365811530e-01-j5.48830494686e-01
  -8.85920994846e-01-j4.32419883922e-01
  -9.38321590333e-01-j3.07762580565e-01
  -9.72795376831e-01-j1.77290120625e-01
  -9.88858099261e-01-j4.34657459760e-02
  -9.86309902786e-01+j9.12349710044e-02
  -9.65233100940e-01+j2.24343804519e-01
  -9.25990842930e-01+j3.53420172755e-01
  -8.69226354407e-01+j4.76072331687e-01
  -7.95862500290e-01+j5.89979748567e-01
  -7.07101452368e-01+j6.92916981948e-01
  -6.04424234806e-01+j7.82779461345e-01
  -4.89589866912e-01+j8.57611635100e-01
  -3.64633728110e-01+j9.15638028407e-01
  -2.31864642658e-01+j9.55297818498e-01
  -9.38600305210e-02+j9.75283593315e-01
  +4.65416971955e-02+j9.74585029149e-01
  +1.86252509191e-01+j9.52538334842e-01
  +3.21951142421e-01+j9.08882518459e-01
  +4.50106127979e-01+j8.43823909807e-01
  +5.67007733935e-01+j7.58111001457e-01
  +6.68812357463e-01+j6.53122613601e-01
  +7.51605268862e-01+j5.30973609467e-01
  +8.11491952271e-01+j3.94643586499e-01
  +8.44735891664e-01+j2.48134212864e-01
</dep>
<dep S[1,1] frequency>
  +2.12499264977e-01+j5.87706431528e-01
  +2.90711797379e-01+j4.84339928570e-01
  +3.37341701310e-01+j3.81972702764e-01
  +3.58999876526e-01+j2.86286474494e-01
  +3.61539882005e-01+j2.00355440276e-01
  +3.49899384776e-01+j1.25605491615e-01
  +3.28142182745e-01+j6.24303258316e-02
  +2.99564607861e-01+j1.05842586461e-02
  +2.66812209001e-01-j3.05654907741e-02
  +2.31987676448e-01-j6.18745954163e-02
  +1.96745072616e-01-j8.43134153355e-02
  +1.62370555941e-01-j9.88953933122e-02
  +1.29851228501e-01-j1.06630280218e-01
  +9.99337898244e-02-j1.08494920121e-01
  +7.31742961341e-02-j1.05416944125e-01
  +4.99798869328e-02-j9.82682216254e-02
  +3.06429851010e-02-j8.78657565747e-02
  +1.53682382911e-02-j7.49781689120e-02
  +4.29234510915e-03-j6.03361328524e-02
  -2.50311699407e-03-j4.46452550076e-02
  -4.98569362330e-03-j2.85999285784e-02
  -3.17260607084e-03-j1.28967339029e-02
  +2.86257628201e-03+j1.75400565255e-03
  +1.29777521556e-02+j1.46198460744e-02
  +2.69453903452e-02+j2.49422737839e-02
  +4.44319025664e-02+j3.19383249684e-02
  +6.49744484585e-02+j3.48087765569e-02
  +8.79564893324e-02+j3.27537575436e-02
  +1.12583534450e-01+j2.49964680122e-02
  +1.37860618910e-01+j1.08155441341e-02
  +1.62573118628e-01-j1.04135006194e-02
  +1.85272562195e-01-j3.91673527777e-02
  +2.04269184629e-01-j7.57139733807e-02
  +2.17633175262e-01-j1.20040817937e-01
  +2.23207075053e-01-j1.71770725620e-01
  +2.18632889513e-01-j2.30063026991e-01
  +2.01399733532e-01-j2.93496136972e-01
  +1.68922072376e-01-j3.59926618691e-01
  +1.18666161071e-01-j4.26319363309e-01
</dep>
