<Qucs Dataset 0.0.17>
<indep Rmeasure 100>
  +1.00000000000e+01
  +2.00000000000e+01
  +3.00000000000e+01
  +4.00000000000e+01
  +5.00000000000e+01
  +6.00000000000e+01
  +7.00000000000e+01
  +8.00000000000e+01
  +9.00000000000e+01
  +1.00000000000e+02
  +1.10000000000e+02
  +1.20000000000e+02
  +1.30000000000e+02
  +1.40000000000e+02
  +1.50000000000e+02
  +1.60000000000e+02
  +1.70000000000e+02
  +1.80000000000e+02
  +1.90000000000e+02
  +2.00000000000e+02
  +2.10000000000e+02
  +2.20000000000e+02
  +2.30000000000e+02
  +2.40000000000e+02
  +2.50000000000e+02
  +2.60000000000e+02
  +2.70000000000e+02
  +2.80000000000e+02
  +2.90000000000e+02
  +3.00000000000e+02
  +3.10000000000e+02
  +3.20000000000e+02
  +3.30000000000e+02
  +3.40000000000e+02
  +3.50000000000e+02
  +3.60000000000e+02
  +3.70000000000e+02
  +3.80000000000e+02
  +3.90000000000e+02
  +4.00000000000e+02
  +4.10000000000e+02
  +4.20000000000e+02
  +4.30000000000e+02
  +4.40000000000e+02
  +4.50000000000e+02
  +4.60000000000e+02
  +4.70000000000e+02
  +4.80000000000e+02
  +4.90000000000e+02
  +5.00000000000e+02
  +5.10000000000e+02
  +5.20000000000e+02
  +5.30000000000e+02
  +5.40000000000e+02
  +5.50000000000e+02
  +5.60000000000e+02
  +5.70000000000e+02
  +5.80000000000e+02
  +5.90000000000e+02
  +6.00000000000e+02
  +6.10000000000e+02
  +6.20000000000e+02
  +6.30000000000e+02
  +6.40000000000e+02
  +6.50000000000e+02
  +6.60000000000e+02
  +6.70000000000e+02
  +6.80000000000e+02
  +6.90000000000e+02
  +7.00000000000e+02
  +7.10000000000e+02
  +7.20000000000e+02
  +7.30000000000e+02
  +7.40000000000e+02
  +7.50000000000e+02
  +7.60000000000e+02
  +7.70000000000e+02
  +7.80000000000e+02
  +7.90000000000e+02
  +8.00000000000e+02
  +8.10000000000e+02
  +8.20000000000e+02
  +8.30000000000e+02
  +8.40000000000e+02
  +8.50000000000e+02
  +8.60000000000e+02
  +8.70000000000e+02
  +8.80000000000e+02
  +8.90000000000e+02
  +9.00000000000e+02
  +9.10000000000e+02
  +9.20000000000e+02
  +9.30000000000e+02
  +9.40000000000e+02
  +9.50000000000e+02
  +9.60000000000e+02
  +9.70000000000e+02
  +9.80000000000e+02
  +9.90000000000e+02
  +1.00000000000e+03
</indep>
<indep Rbranch 4>
  +2.00000000000e+02
  +4.66666666667e+02
  +7.33333333333e+02
  +1.00000000000e+03
</indep>
<dep Umeasure Rmeasure Rbranch>
  +3.93890675241e-01
  +3.72670807453e-01
  +3.52852852853e-01
  +3.34302325581e-01
  +3.16901408451e-01
  +3.00546448087e-01
  +2.85145888594e-01
  +2.70618556701e-01
  +2.56892230576e-01
  +2.43902439024e-01
  +2.31591448931e-01
  +2.19907407407e-01
  +2.08803611738e-01
  +1.98237885463e-01
  +1.88172043011e-01
  +1.78571428571e-01
  +1.69404517454e-01
  +1.60642570281e-01
  +1.52259332024e-01
  +1.44230769231e-01
  +1.36534839925e-01
  +1.29151291513e-01
  +1.22061482821e-01
  +1.15248226950e-01
  +1.08695652174e-01
  +1.02389078498e-01
  +9.63149078727e-02
  +9.04605263158e-02
  +8.48142164782e-02
  +7.93650793651e-02
  +7.41029641186e-02
  +6.90184049080e-02
  +6.41025641026e-02
  +5.93471810089e-02
  +5.47445255474e-02
  +5.02873563218e-02
  +4.59688826025e-02
  +4.17827298050e-02
  +3.77229080933e-02
  +3.37837837838e-02
  +2.99600532623e-02
  +2.62467191601e-02
  +2.26390685640e-02
  +1.91326530612e-02
  +1.57232704403e-02
  +1.24069478908e-02
  +9.17992656059e-03
  +6.03864734300e-03
  +2.97973778308e-03
  +4.78324487861e-17
  +2.90360046458e-03
  +5.73394495413e-03
  +8.49377123443e-03
  +1.11856823266e-02
  +1.38121546961e-02
  +1.63755458515e-02
  +1.88781014024e-02
  +2.13219616205e-02
  +2.37091675448e-02
  +2.60416666667e-02
  +2.83213182286e-02
  +3.05498981670e-02
  +3.27291037261e-02
  +3.48605577689e-02
  +3.69458128079e-02
  +3.89863547758e-02
  +4.09836065574e-02
  +4.29389312977e-02
  +4.48536355052e-02
  +4.67289719626e-02
  +4.85661424607e-02
  +5.03663003663e-02
  +5.21305530372e-02
  +5.38599640934e-02
  +5.55555555556e-02
  +5.72183098592e-02
  +5.88491717524e-02
  +6.04490500864e-02
  +6.20188195038e-02
  +6.35593220339e-02
  +6.50713685978e-02
  +6.65557404326e-02
  +6.80131904369e-02
  +6.94444444444e-02
  +7.08502024291e-02
  +7.22311396469e-02
  +7.35879077168e-02
  +7.49211356467e-02
  +7.62314308053e-02
  +7.75193798450e-02
  +7.87855495772e-02
  +8.00304878049e-02
  +8.12547241119e-02
  +8.24587706147e-02
  +8.36431226766e-02
  +8.48082595870e-02
  +8.59546452085e-02
  +8.70827285922e-02
  +8.81929445644e-02
  +8.92857142857e-02
  +3.23218997361e-01
  +3.06643952300e-01
  +2.91081750619e-01
  +2.76442307692e-01
  +2.62645914397e-01
  +2.49621785174e-01
  +2.37306843267e-01
  +2.25644699140e-01
  +2.14584787160e-01
  +2.04081632653e-01
  +1.94094226941e-01
  +1.84585492228e-01
  +1.75521821632e-01
  +1.66872682324e-01
  +1.58610271903e-01
  +1.50709219858e-01
  +1.43146327357e-01
  +1.35900339751e-01
  +1.28951747088e-01
  +1.22282608696e-01
  +1.15876398508e-01
  +1.09717868339e-01
  +1.03792926704e-01
  +9.80885311871e-02
  +9.25925925926e-02
  +8.72938894277e-02
  +8.21819914245e-02
  +7.72471910112e-02
  +7.24804417855e-02
  +6.78733031674e-02
  +6.34178905207e-02
  +5.91068301226e-02
  +5.49332184403e-02
  +5.08905852417e-02
  +4.69728601253e-02
  +4.31743421053e-02
  +3.94896719320e-02
  +3.59138068635e-02
  +3.24419976406e-02
  +2.90697674419e-02
  +2.57928926251e-02
  +2.26073850791e-02
  +1.95094760312e-02
  +1.64956011730e-02
  +1.35623869801e-02
  +1.07066381156e-02
  +7.92532581895e-03
  +5.21557719054e-03
  +2.57466529351e-03
  +4.13466930185e-17
  +2.51088048209e-03
  +4.96031746032e-03
  +7.35053903953e-03
  +9.68366688186e-03
  +1.19617224880e-02
  +1.41866330391e-02
  +1.63602368339e-02
  +1.84842883549e-02
  +2.05604629912e-02
  +2.25903614458e-02
  +2.45755138517e-02
  +2.65173836181e-02
  +2.84173710289e-02
  +3.02768166090e-02
  +3.20970042796e-02
  +3.38791643139e-02
  +3.56244761106e-02
  +3.73340707965e-02
  +3.90090336710e-02
  +4.06504065041e-02
  +4.22591896968e-02
  +4.38363443146e-02
  +4.53827940016e-02
  +4.68994267848e-02
  +4.83870967742e-02
  +4.98466257669e-02
  +5.12788047607e-02
  +5.26843953838e-02
  +5.40641312453e-02
  +5.54187192118e-02
  +5.67488406151e-02
  +5.80551523948e-02
  +5.93382881803e-02
  +6.05988593156e-02
  +6.18374558304e-02
  +6.30546473610e-02
  +6.42509840241e-02
  +6.54269972452e-02
  +6.65832005463e-02
  +6.77200902935e-02
  +6.88381464070e-02
  +6.99378330373e-02
  +7.10195992072e-02
  +7.20838794233e-02
  +7.31310942579e-02
  +7.41616509028e-02
  +7.51759436980e-02
  +7.61743546339e-02
  +7.71572538316e-02
  +7.81250000000e-02
  +2.74049217002e-01
  +2.60492040521e-01
  +2.47716092762e-01
  +2.35655737705e-01
  +2.24252491694e-01
  +2.13454075032e-01
  +2.03213610586e-01
  +1.93488943489e-01
  +1.84242061114e-01
  +1.75438596491e-01
  +1.67047401485e-01
  +1.59040178571e-01
  +1.51391162029e-01
  +1.44076840982e-01
  +1.37075718016e-01
  +1.30368098160e-01
  +1.23935903856e-01
  +1.17762512267e-01
  +1.11832611833e-01
  +1.06132075472e-01
  +1.00647848218e-01
  +9.53678474114e-02
  +9.02808738297e-02
  +8.53765323993e-02
  +8.06451612903e-02
  +7.60777683855e-02
  +7.16659742418e-02
  +6.74019607843e-02
  +6.32784250703e-02
  +5.92885375494e-02
  +5.54259043174e-02
  +5.16845329250e-02
  +4.80588013570e-02
  +4.45434298441e-02
  +4.11334552102e-02
  +3.78242074928e-02
  +3.46112886049e-02
  +3.14905528341e-02
  +2.84580889962e-02
  +2.55102040816e-02
  +2.26434082523e-02
  +1.98544010589e-02
  +1.71400587659e-02
  +1.44974226804e-02
  +1.19236883943e-02
  +9.41619585687e-03
  +6.97242020452e-03
  +4.58996328029e-03
  +2.26654578422e-03
  +3.64097744491e-17
  +2.21173695075e-03
  +4.37062937063e-03
  +6.47854880507e-03
  +8.53727945361e-03
  +1.05485232068e-02
  +1.25139043382e-02
  +1.44349738796e-02
  +1.63132137031e-02
  +1.81500403334e-02
  +1.99468085106e-02
  +2.17048145225e-02
  +2.34252993233e-02
  +2.51094514551e-02
  +2.67584097859e-02
  +2.83732660782e-02
  +2.99550673989e-02
  +3.15048183840e-02
  +3.30234833659e-02
  +3.45119883749e-02
  +3.59712230216e-02
  +3.74020422702e-02
  +3.88052681091e-02
  +4.01816911251e-02
  +4.15320719889e-02
  +4.28571428571e-02
  +4.41576086957e-02
  +4.54341485304e-02
  +4.66874166296e-02
  +4.79180436219e-02
  +4.91266375546e-02
  +5.03137848950e-02
  +5.14800514801e-02
  +5.26259834148e-02
  +5.37521079258e-02
  +5.48589341693e-02
  +5.59469539992e-02
  +5.70166426957e-02
  +5.80684596577e-02
  +5.91028490604e-02
  +6.01202404810e-02
  +6.11210494931e-02
  +6.21056782334e-02
  +6.30745159398e-02
  +6.40279394645e-02
  +6.49663137632e-02
  +6.58899923606e-02
  +6.67993177942e-02
  +6.76946220384e-02
  +6.85762269080e-02
  +6.94444444444e-02
  +2.37864077670e-01
  +2.26415094340e-01
  +2.15596330275e-01
  +2.05357142857e-01
  +1.95652173913e-01
  +1.86440677966e-01
  +1.77685950413e-01
  +1.69354838710e-01
  +1.61417322835e-01
  +1.53846153846e-01
  +1.46616541353e-01
  +1.39705882353e-01
  +1.33093525180e-01
  +1.26760563380e-01
  +1.20689655172e-01
  +1.14864864865e-01
  +1.09271523179e-01
  +1.03896103896e-01
  +9.87261146497e-02
  +9.37500000000e-02
  +8.89570552147e-02
  +8.43373493976e-02
  +7.98816568047e-02
  +7.55813953488e-02
  +7.14285714286e-02
  +6.74157303371e-02
  +6.35359116022e-02
  +5.97826086957e-02
  +5.61497326203e-02
  +5.26315789474e-02
  +4.92227979275e-02
  +4.59183673469e-02
  +4.27135678392e-02
  +3.96039603960e-02
  +3.65853658537e-02
  +3.36538461538e-02
  +3.08056872038e-02
  +2.80373831776e-02
  +2.53456221198e-02
  +2.27272727273e-02
  +2.01793721973e-02
  +1.76991150442e-02
  +1.52838427948e-02
  +1.29310344828e-02
  +1.06382978723e-02
  +8.40336134454e-03
  +6.22406639004e-03
  +4.09836065574e-03
  +2.02429149798e-03
  +3.25260651746e-17
  +1.97628458498e-03
  +3.90625000000e-03
  +5.79150579151e-03
  +7.63358778626e-03
  +9.43396226415e-03
  +1.11940298507e-02
  +1.29151291513e-02
  +1.45985401460e-02
  +1.62454873646e-02
  +1.78571428571e-02
  +1.94346289753e-02
  +2.09790209790e-02
  +2.24913494810e-02
  +2.39726027397e-02
  +2.54237288136e-02
  +2.68456375839e-02
  +2.82392026578e-02
  +2.96052631579e-02
  +3.09446254072e-02
  +3.22580645161e-02
  +3.35463258786e-02
  +3.48101265823e-02
  +3.60501567398e-02
  +3.72670807453e-02
  +3.84615384615e-02
  +3.96341463415e-02
  +4.07854984894e-02
  +4.19161676647e-02
  +4.30267062315e-02
  +4.41176470588e-02
  +4.51895043732e-02
  +4.62427745665e-02
  +4.72779369628e-02
  +4.82954545455e-02
  +4.92957746479e-02
  +5.02793296089e-02
  +5.12465373961e-02
  +5.21978021978e-02
  +5.31335149864e-02
  +5.40540540541e-02
  +5.49597855228e-02
  +5.58510638298e-02
  +5.67282321900e-02
  +5.75916230366e-02
  +5.84415584416e-02
  +5.92783505155e-02
  +6.01023017903e-02
  +6.09137055838e-02
  +6.17128463476e-02
  +6.25000000000e-02
</dep>
<dep Pr1.I Rmeasure Rbranch>
  +7.87781350482e-04
  +7.45341614907e-04
  +7.05705705706e-04
  +6.68604651163e-04
  +6.33802816901e-04
  +6.01092896175e-04
  +5.70291777188e-04
  +5.41237113402e-04
  +5.13784461153e-04
  +4.87804878049e-04
  +4.63182897862e-04
  +4.39814814815e-04
  +4.17607223476e-04
  +3.96475770925e-04
  +3.76344086022e-04
  +3.57142857143e-04
  +3.38809034908e-04
  +3.21285140562e-04
  +3.04518664047e-04
  +2.88461538462e-04
  +2.73069679849e-04
  +2.58302583026e-04
  +2.44122965642e-04
  +2.30496453901e-04
  +2.17391304348e-04
  +2.04778156997e-04
  +1.92629815745e-04
  +1.80921052632e-04
  +1.69628432956e-04
  +1.58730158730e-04
  +1.48205928237e-04
  +1.38036809816e-04
  +1.28205128205e-04
  +1.18694362018e-04
  +1.09489051095e-04
  +1.00574712644e-04
  +9.19377652051e-05
  +8.35654596100e-05
  +7.54458161866e-05
  +6.75675675676e-05
  +5.99201065246e-05
  +5.24934383202e-05
  +4.52781371281e-05
  +3.82653061224e-05
  +3.14465408805e-05
  +2.48138957816e-05
  +1.83598531212e-05
  +1.20772946860e-05
  +5.95947556615e-06
  +9.56648975723e-20
  -5.80720092915e-06
  -1.14678899083e-05
  -1.69875424689e-05
  -2.23713646532e-05
  -2.76243093923e-05
  -3.27510917031e-05
  -3.77562028047e-05
  -4.26439232409e-05
  -4.74183350896e-05
  -5.20833333333e-05
  -5.66426364573e-05
  -6.10997963340e-05
  -6.54582074522e-05
  -6.97211155378e-05
  -7.38916256158e-05
  -7.79727095517e-05
  -8.19672131148e-05
  -8.58778625954e-05
  -8.97072710104e-05
  -9.34579439252e-05
  -9.71322849214e-05
  -1.00732600733e-04
  -1.04261106074e-04
  -1.07719928187e-04
  -1.11111111111e-04
  -1.14436619718e-04
  -1.17698343505e-04
  -1.20898100173e-04
  -1.24037639008e-04
  -1.27118644068e-04
  -1.30142737196e-04
  -1.33111480865e-04
  -1.36026380874e-04
  -1.38888888889e-04
  -1.41700404858e-04
  -1.44462279294e-04
  -1.47175815434e-04
  -1.49842271293e-04
  -1.52462861611e-04
  -1.55038759690e-04
  -1.57571099154e-04
  -1.60060975610e-04
  -1.62509448224e-04
  -1.64917541229e-04
  -1.67286245353e-04
  -1.69616519174e-04
  -1.71909290417e-04
  -1.74165457184e-04
  -1.76385889129e-04
  -1.78571428571e-04
  +6.46437994723e-04
  +6.13287904600e-04
  +5.82163501239e-04
  +5.52884615385e-04
  +5.25291828794e-04
  +4.99243570348e-04
  +4.74613686534e-04
  +4.51289398281e-04
  +4.29169574320e-04
  +4.08163265306e-04
  +3.88188453882e-04
  +3.69170984456e-04
  +3.51043643264e-04
  +3.33745364648e-04
  +3.17220543807e-04
  +3.01418439716e-04
  +2.86292654714e-04
  +2.71800679502e-04
  +2.57903494176e-04
  +2.44565217391e-04
  +2.31752797017e-04
  +2.19435736677e-04
  +2.07585853409e-04
  +1.96177062374e-04
  +1.85185185185e-04
  +1.74587778855e-04
  +1.64363982849e-04
  +1.54494382022e-04
  +1.44960883571e-04
  +1.35746606335e-04
  +1.26835781041e-04
  +1.18213660245e-04
  +1.09866436881e-04
  +1.01781170483e-04
  +9.39457202505e-05
  +8.63486842105e-05
  +7.89793438639e-05
  +7.18276137271e-05
  +6.48839952812e-05
  +5.81395348837e-05
  +5.15857852503e-05
  +4.52147701583e-05
  +3.90189520624e-05
  +3.29912023460e-05
  +2.71247739602e-05
  +2.14132762313e-05
  +1.58506516379e-05
  +1.04311543811e-05
  +5.14933058702e-06
  +8.26933860370e-20
  -5.02176096418e-06
  -9.92063492063e-06
  -1.47010780791e-05
  -1.93673337637e-05
  -2.39234449761e-05
  -2.83732660782e-05
  -3.27204736678e-05
  -3.69685767098e-05
  -4.11209259823e-05
  -4.51807228916e-05
  -4.91510277033e-05
  -5.30347672363e-05
  -5.68347420577e-05
  -6.05536332180e-05
  -6.41940085592e-05
  -6.77583286279e-05
  -7.12489522213e-05
  -7.46681415929e-05
  -7.80180673419e-05
  -8.13008130081e-05
  -8.45183793936e-05
  -8.76726886291e-05
  -9.07655880032e-05
  -9.37988535696e-05
  -9.67741935484e-05
  -9.96932515337e-05
  -1.02557609521e-04
  -1.05368790768e-04
  -1.08128262491e-04
  -1.10837438424e-04
  -1.13497681230e-04
  -1.16110304790e-04
  -1.18676576361e-04
  -1.21197718631e-04
  -1.23674911661e-04
  -1.26109294722e-04
  -1.28501968048e-04
  -1.30853994490e-04
  -1.33166401093e-04
  -1.35440180587e-04
  -1.37676292814e-04
  -1.39875666075e-04
  -1.42039198414e-04
  -1.44167758847e-04
  -1.46262188516e-04
  -1.48323301806e-04
  -1.50351887396e-04
  -1.52348709268e-04
  -1.54314507663e-04
  -1.56250000000e-04
  +5.48098434004e-04
  +5.20984081042e-04
  +4.95432185524e-04
  +4.71311475410e-04
  +4.48504983389e-04
  +4.26908150065e-04
  +4.06427221172e-04
  +3.86977886978e-04
  +3.68484122229e-04
  +3.50877192982e-04
  +3.34094802970e-04
  +3.18080357143e-04
  +3.02782324059e-04
  +2.88153681964e-04
  +2.74151436031e-04
  +2.60736196319e-04
  +2.47871807712e-04
  +2.35525024534e-04
  +2.23665223665e-04
  +2.12264150943e-04
  +2.01295696437e-04
  +1.90735694823e-04
  +1.80561747659e-04
  +1.70753064799e-04
  +1.61290322581e-04
  +1.52155536771e-04
  +1.43331948484e-04
  +1.34803921569e-04
  +1.26556850141e-04
  +1.18577075099e-04
  +1.10851808635e-04
  +1.03369065850e-04
  +9.61176027139e-05
  +8.90868596882e-05
  +8.22669104205e-05
  +7.56484149856e-05
  +6.92225772098e-05
  +6.29811056683e-05
  +5.69161779924e-05
  +5.10204081633e-05
  +4.52868165045e-05
  +3.97088021178e-05
  +3.42801175318e-05
  +2.89948453608e-05
  +2.38473767886e-05
  +1.88323917137e-05
  +1.39448404090e-05
  +9.17992656059e-06
  +4.53309156845e-06
  +7.28195488983e-20
  -4.42347390150e-06
  -8.74125874126e-06
  -1.29570976101e-05
  -1.70745589072e-05
  -2.10970464135e-05
  -2.50278086763e-05
  -2.88699477591e-05
  -3.26264274062e-05
  -3.63000806668e-05
  -3.98936170213e-05
  -4.34096290450e-05
  -4.68505986465e-05
  -5.02189029101e-05
  -5.35168195719e-05
  -5.67465321564e-05
  -5.99101347978e-05
  -6.30096367680e-05
  -6.60469667319e-05
  -6.90239767498e-05
  -7.19424460432e-05
  -7.48040845405e-05
  -7.76105362183e-05
  -8.03633822502e-05
  -8.30641439778e-05
  -8.57142857143e-05
  -8.83152173913e-05
  -9.08682970608e-05
  -9.33748332592e-05
  -9.58360872439e-05
  -9.82532751092e-05
  -1.00627569790e-04
  -1.02960102960e-04
  -1.05251966830e-04
  -1.07504215852e-04
  -1.09717868339e-04
  -1.11893907998e-04
  -1.14033285391e-04
  -1.16136919315e-04
  -1.18205698121e-04
  -1.20240480962e-04
  -1.22242098986e-04
  -1.24211356467e-04
  -1.26149031880e-04
  -1.28055878929e-04
  -1.29932627526e-04
  -1.31779984721e-04
  -1.33598635588e-04
  -1.35389244077e-04
  -1.37152453816e-04
  -1.38888888889e-04
  +4.75728155340e-04
  +4.52830188679e-04
  +4.31192660550e-04
  +4.10714285714e-04
  +3.91304347826e-04
  +3.72881355932e-04
  +3.55371900826e-04
  +3.38709677419e-04
  +3.22834645669e-04
  +3.07692307692e-04
  +2.93233082707e-04
  +2.79411764706e-04
  +2.66187050360e-04
  +2.53521126761e-04
  +2.41379310345e-04
  +2.29729729730e-04
  +2.18543046358e-04
  +2.07792207792e-04
  +1.97452229299e-04
  +1.87500000000e-04
  +1.77914110429e-04
  +1.68674698795e-04
  +1.59763313609e-04
  +1.51162790698e-04
  +1.42857142857e-04
  +1.34831460674e-04
  +1.27071823204e-04
  +1.19565217391e-04
  +1.12299465241e-04
  +1.05263157895e-04
  +9.84455958549e-05
  +9.18367346939e-05
  +8.54271356784e-05
  +7.92079207921e-05
  +7.31707317073e-05
  +6.73076923077e-05
  +6.16113744076e-05
  +5.60747663551e-05
  +5.06912442396e-05
  +4.54545454545e-05
  +4.03587443946e-05
  +3.53982300885e-05
  +3.05676855895e-05
  +2.58620689655e-05
  +2.12765957447e-05
  +1.68067226891e-05
  +1.24481327801e-05
  +8.19672131148e-06
  +4.04858299595e-06
  +6.50521303491e-20
  -3.95256916996e-06
  -7.81250000000e-06
  -1.15830115830e-05
  -1.52671755725e-05
  -1.88679245283e-05
  -2.23880597015e-05
  -2.58302583026e-05
  -2.91970802920e-05
  -3.24909747292e-05
  -3.57142857143e-05
  -3.88692579505e-05
  -4.19580419580e-05
  -4.49826989619e-05
  -4.79452054795e-05
  -5.08474576271e-05
  -5.36912751678e-05
  -5.64784053156e-05
  -5.92105263158e-05
  -6.18892508143e-05
  -6.45161290323e-05
  -6.70926517572e-05
  -6.96202531646e-05
  -7.21003134796e-05
  -7.45341614907e-05
  -7.69230769231e-05
  -7.92682926829e-05
  -8.15709969789e-05
  -8.38323353293e-05
  -8.60534124629e-05
  -8.82352941176e-05
  -9.03790087464e-05
  -9.24855491329e-05
  -9.45558739255e-05
  -9.65909090909e-05
  -9.85915492958e-05
  -1.00558659218e-04
  -1.02493074792e-04
  -1.04395604396e-04
  -1.06267029973e-04
  -1.08108108108e-04
  -1.09919571046e-04
  -1.11702127660e-04
  -1.13456464380e-04
  -1.15183246073e-04
  -1.16883116883e-04
  -1.18556701031e-04
  -1.20204603581e-04
  -1.21827411168e-04
  -1.23425692695e-04
  -1.25000000000e-04
</dep>
<dep V1.I Rmeasure Rbranch>
  -4.83922829582e-03
  -4.76708074534e-03
  -4.69969969970e-03
  -4.63662790698e-03
  -4.57746478873e-03
  -4.52185792350e-03
  -4.46949602122e-03
  -4.42010309278e-03
  -4.37343358396e-03
  -4.32926829268e-03
  -4.28741092637e-03
  -4.24768518519e-03
  -4.20993227991e-03
  -4.17400881057e-03
  -4.13978494624e-03
  -4.10714285714e-03
  -4.07597535934e-03
  -4.04618473896e-03
  -4.01768172888e-03
  -3.99038461538e-03
  -3.96421845574e-03
  -3.93911439114e-03
  -3.91500904159e-03
  -3.89184397163e-03
  -3.86956521739e-03
  -3.84812286689e-03
  -3.82747068677e-03
  -3.80756578947e-03
  -3.78836833603e-03
  -3.76984126984e-03
  -3.75195007800e-03
  -3.73466257669e-03
  -3.71794871795e-03
  -3.70178041543e-03
  -3.68613138686e-03
  -3.67097701149e-03
  -3.65629420085e-03
  -3.64206128134e-03
  -3.62825788752e-03
