<Qucs Dataset 0.0.17>
<indep frequency 101>
  +2.00000000000e+08
  +2.40000000000e+08
  +2.80000000000e+08
  +3.20000000000e+08
  +3.60000000000e+08
  +4.00000000000e+08
  +4.40000000000e+08
  +4.80000000000e+08
  +5.20000000000e+08
  +5.60000000000e+08
  +6.00000000000e+08
  +6.40000000000e+08
  +6.80000000000e+08
  +7.20000000000e+08
  +7.60000000000e+08
  +8.00000000000e+08
  +8.40000000000e+08
  +8.80000000000e+08
  +9.20000000000e+08
  +9.60000000000e+08
  +1.00000000000e+09
  +1.04000000000e+09
  +1.08000000000e+09
  +1.12000000000e+09
  +1.16000000000e+09
  +1.20000000000e+09
  +1.24000000000e+09
  +1.28000000000e+09
  +1.32000000000e+09
  +1.36000000000e+09
  +1.40000000000e+09
  +1.44000000000e+09
  +1.48000000000e+09
  +1.52000000000e+09
  +1.56000000000e+09
  +1.60000000000e+09
  +1.64000000000e+09
  +1.68000000000e+09
  +1.72000000000e+09
  +1.76000000000e+09
  +1.80000000000e+09
  +1.84000000000e+09
  +1.88000000000e+09
  +1.92000000000e+09
  +1.96000000000e+09
  +2.00000000000e+09
  +2.04000000000e+09
  +2.08000000000e+09
  +2.12000000000e+09
  +2.16000000000e+09
  +2.20000000000e+09
  +2.24000000000e+09
  +2.28000000000e+09
  +2.32000000000e+09
  +2.36000000000e+09
  +2.40000000000e+09
  +2.44000000000e+09
  +2.48000000000e+09
  +2.52000000000e+09
  +2.56000000000e+09
  +2.60000000000e+09
  +2.64000000000e+09
  +2.68000000000e+09
  +2.72000000000e+09
  +2.76000000000e+09
  +2.80000000000e+09
  +2.84000000000e+09
  +2.88000000000e+09
  +2.92000000000e+09
  +2.96000000000e+09
  +3.00000000000e+09
  +3.04000000000e+09
  +3.08000000000e+09
  +3.12000000000e+09
  +3.16000000000e+09
  +3.20000000000e+09
  +3.24000000000e+09
  +3.28000000000e+09
  +3.32000000000e+09
  +3.36000000000e+09
  +3.40000000000e+09
  +3.44000000000e+09
  +3.48000000000e+09
  +3.52000000000e+09
  +3.56000000000e+09
  +3.60000000000e+09
  +3.64000000000e+09
  +3.68000000000e+09
  +3.72000000000e+09
  +3.76000000000e+09
  +3.80000000000e+09
  +3.84000000000e+09
  +3.88000000000e+09
  +3.92000000000e+09
  +3.96000000000e+09
  +4.00000000000e+09
  +4.04000000000e+09
  +4.08000000000e+09
  +4.12000000000e+09
  +4.16000000000e+09
  +4.20000000000e+09
</indep>
<dep coupled frequency>
  -2.56573673056e+01
  -2.40960421727e+01
  -2.27830464604e+01
  -2.16528060305e+01
  -2.06630141739e+01
  -1.97847743783e+01
  -1.89974664200e+01
  -1.82858559025e+01
  -1.76383648704e+01
  -1.70459852701e+01
  -1.65015682966e+01
  -1.59993436744e+01
  -1.55345850378e+01
  -1.51033712003e+01
  -1.47024121496e+01
  -1.43289198147e+01
  -1.39805104767e+01
  -1.36551299778e+01
  -1.33509956385e+01
  -1.30665506105e+01
  -1.28004276126e+01
  -1.25514198392e+01
  -1.23184574129e+01
  -1.21005881707e+01
  -1.18969618667e+01
  -1.17068170983e+01
  -1.15294704162e+01
  -1.13643072036e+01
  -1.12107739972e+01
  -1.10683719925e+01
  -1.09366515272e+01
  -1.08152073801e+01
  -1.07036747515e+01
  -1.06017258196e+01
  -1.05090667837e+01
  -1.04254353255e+01
  -1.03505984273e+01
  -1.02843505010e+01
  -1.02265117882e+01
  -1.01769269981e+01
  -1.01354641562e+01
  -1.01020136442e+01
  -1.00764874097e+01
  -1.00588183354e+01
  -1.00489597530e+01
  -1.00468850967e+01
  -1.00525876872e+01
  -1.00660806456e+01
  -1.00873969332e+01
  -1.01165895194e+01
  -1.01537316802e+01
  -1.01989174323e+01
  -1.02522621109e+01
  -1.03139031004e+01
  -1.03840007331e+01
  -1.04627393708e+01
  -1.05503286911e+01
  -1.06470052038e+01
  -1.07530340278e+01
  -1.08687109673e+01
  -1.09943649316e+01
  -1.11303607565e+01
  -1.12771024924e+01
  -1.14350372451e+01
  -1.16046596689e+01
  -1.17865172378e+01
  -1.19812164511e+01
  -1.21894301644e+01
  -1.24119062897e+01
  -1.26494781672e+01
  -1.29030769965e+01
  -1.31737468220e+01
  -1.34626627102e+01
  -1.37711529516e+01
  -1.41007263811e+01
  -1.44531062732e+01
  -1.48302727716e+01
  -1.52345165261e+01
  -1.56685072281e+01
  -1.61353822299e+01
  -1.66388626404e+01
  -1.71834076395e+01
  -1.77744229191e+01
  -1.84185473333e+01
  -1.91240550629e+01
  -1.99014325770e+01
  -2.07642271505e+01
  -2.17303292226e+01
  -2.28239675153e+01
  -2.40789024363e+01
  -2.55436398167e+01
  -2.72898019279e+01
  -2.94232021581e+01
  -3.20777809256e+01
  -3.52080732941e+01
  -3.72624422061e+01
  -3.55494357143e+01
  -3.24216391835e+01
  -2.97172215411e+01
  -2.75463394013e+01
  -2.57763062173e+01
</dep>
<dep through frequency>
  -3.03540048348e-02
  -3.73883592271e-02
  -4.51876662249e-02
  -5.37524917394e-02
  -6.30708291319e-02
  -7.31216632190e-02
  -8.38770651596e-02
  -9.53035502200e-02
  -1.07363036914e-01
  -1.20013577319e-01
  -1.33209949163e-01
  -1.46904160342e-01
  -1.61045895176e-01
  -1.75582919777e-01
  -1.90461456964e-01
  -2.05626537046e-01
  -2.21022328245e-01
  -2.36592449030e-01
  -2.52280263674e-01
  -2.68029161780e-01
  -2.83782822218e-01
  -2.99485461727e-01
  -3.15082068396e-01
  -3.30518620207e-01
  -3.45742288878e-01
  -3.60701629277e-01
  -3.75346754773e-01
  -3.89629498906e-01
  -4.03503563878e-01
  -4.16924656357e-01
  -4.29850611194e-01
  -4.42241503613e-01
  -4.54059750533e-01
  -4.65270201617e-01
  -4.75840220702e-01
  -4.85739758201e-01
  -4.94941415096e-01
  -5.03420499061e-01
  -5.11155073259e-01
  -5.18125998283e-01
  -5.24316967676e-01
  -5.29714537397e-01
  -5.34308149549e-01
  -5.38090150623e-01
  -5.41055804426e-01
  -5.43203299828e-01
  -5.44533753354e-01
  -5.45051206606e-01
  -5.44762618429e-01
  -5.43677851642e-01
  -5.41809654130e-01
  -5.39173633996e-01
  -5.35788228437e-01
  -5.31674665936e-01
  -5.26856921338e-01
  -5.21361663320e-01
  -5.15218193739e-01
  -5.08458378333e-01
  -5.01116568218e-01
  -4.93229511646e-01
  -4.84836255501e-01
  -4.75978036027e-01
  -4.66698158346e-01
  -4.57041864378e-01
  -4.47056188855e-01
  -4.36789803227e-01
  -4.26292847355e-01
  -4.15616749044e-01
  -4.04814031594e-01
  -3.93938109741e-01
  -3.83043074492e-01
  -3.72183467597e-01
  -3.61414046569e-01
  -3.50789541352e-01
  -3.40364403965e-01
  -3.30192552627e-01
  -3.20327112038e-01
  -3.10820151698e-01
  -3.01722424236e-01
  -2.93083105909e-01
  -2.84949541456e-01
  -2.77366995592e-01
  -2.70378413432e-01
  -2.64024192094e-01
  -2.58341965692e-01
  -2.53366405800e-01
  -2.49129039326e-01
  -2.45658085549e-01
  -2.42978313845e-01
  -2.41110923377e-01
  -2.40073445755e-01
  -2.39879671369e-01
  -2.40539599802e-01
  -2.42059414439e-01
  -2.44441481062e-01
  -2.47684369984e-01
  -2.51782900955e-01
  -2.56728209899e-01
  -2.62507836267e-01
  -2.69105829674e-01
  -2.76502874309e-01
</dep>
<dep isolated frequency>
  -4.09100667265e+01
  -3.93475029478e+01
  -3.80308301787e+01
  -3.68948241978e+01
  -3.58973416442e+01
  -3.50095520508e+01
  -3.42108448152e+01
  -3.34859594045e+01
  -3.28232672840e+01
  -3.22136920109e+01
  -3.16500027150e+01
  -3.11263361072e+01
  -3.06378637618e+01
  -3.01805547832e+01
  -2.97510028804e+01
  -2.93462980067e+01
  -2.89639295044e+01
  -2.86017119536e+01
  -2.82577276611e+01
  -2.79302815354e+01
  -2.76178653073e+01
  -2.73191288933e+01
  -2.70328572784e+01
  -2.67579517084e+01
  -2.64934142816e+01
  -2.62383352416e+01
  -2.59918824356e+01
  -2.57532925210e+01
  -2.55218635928e+01
  -2.52969489712e+01
  -2.50779519445e+01
  -2.48643212983e+01
  -2.46555474984e+01
  -2.44511594170e+01
  -2.42507215110e+01
  -2.40538313803e+01
  -2.38601176424e+01
  -2.36692380725e+01
  -2.34808779669e+01
  -2.32947486924e+01
  -2.31105863910e+01
  -2.29281508156e+01
  -2.27472242721e+01
  -2.25676106521e+01
  -2.23891345377e+01
  -2.22116403674e+01
  -2.20349916495e+01
  -2.18590702148e+01
  -2.16837754999e+01
  -2.15090238547e+01
  -2.13347478674e+01
  -2.11608957036e+01
  -2.09874304545e+01
  -2.08143294921e+01
  -2.06415838273e+01
  -2.04691974707e+01
  -2.02971867922e+01
  -2.01255798807e+01
  -1.99544158999e+01
  -1.97837444419e+01
  -1.96136248759e+01
  -1.94441256930e+01
  -1.92753238454e+01
  -1.91073040806e+01
  -1.89401582695e+01
  -1.87739847285e+01
  -1.86088875363e+01
  -1.84449758431e+01
  -1.82823631758e+01
  -1.81211667356e+01
  -1.79615066921e+01
  -1.78035054711e+01
  -1.76472870405e+01
  -1.74929761918e+01
  -1.73406978218e+01
  -1.71905762144e+01
  -1.70427343245e+01
  -1.68972930673e+01
  -1.67543706145e+01
  -1.66140817016e+01
  -1.64765369472e+01
  -1.63418421908e+01
  -1.62100978490e+01
  -1.60813982976e+01
  -1.59558312796e+01
  -1.58334773457e+01
  -1.57144093297e+01
  -1.55986918621e+01
  -1.54863809268e+01
  -1.53775234617e+01
  -1.52721570081e+01
  -1.51703094107e+01
  -1.50719985693e+01
  -1.49772322452e+01
  -1.48860079222e+01
  -1.47983127239e+01
  -1.47141233864e+01
  -1.46334062861e+01
  -1.45561175223e+01
  -1.44822030532e+01
  -1.44115988822e+01
</dep>
<dep reflect frequency>
  -5.11271296713e+01
  -4.95744090713e+01
  -4.82662124206e+01
  -4.71373017298e+01
  -4.61455084646e+01
  -4.52619733495e+01
  -4.44660573098e+01
  -4.37424739552e+01
  -4.30795729511e+01
  -4.24682611010e+01
  -4.19012965469e+01
  -4.13728113234e+01
  -4.08779790600e+01
  -4.04127779701e+01
  -3.99738181649e+01
  -3.95582134550e+01
  -3.91634845870e+01
  -3.87874851133e+01
  -3.84283438338e+01
  -3.80844195553e+01
  -3.77542651311e+01
  -3.74365985768e+01
  -3.71302796432e+01
  -3.68342906387e+01
  -3.65477205937e+01
  -3.62697520731e+01
  -3.59996501084e+01
  -3.57367528340e+01
  -3.54804635088e+01
  -3.52302436686e+01
  -3.49856072101e+01
  -3.47461152456e+01
  -3.45113716025e+01
  -3.42810188637e+01
  -3.40547348657e+01
  -3.38322295875e+01
  -3.36132423745e+01
  -3.33975394513e+01
  -3.31849116875e+01
  -3.29751725830e+01
  -3.27681564475e+01
  -3.25637167521e+01
  -3.23617246336e+01
  -3.21620675347e+01
  -3.19646479664e+01
  -3.17693823802e+01
  -3.15762001378e+01
  -3.13850425696e+01
  -3.11958621123e+01
  -3.10086215173e+01
  -3.08232931223e+01
  -3.06398581794e+01
  -3.04583062325e+01
  -3.02786345384e+01
  -3.01008475256e+01
  -2.99249562851e+01
  -2.97509780890e+01
  -2.95789359302e+01
  -2.94088580813e+01
  -2.92407776657e+01
  -2.90747322391e+01
  -2.89107633767e+01
  -2.87489162622e+01
  -2.85892392776e+01
  -2.84317835882e+01
  -2.82766027229e+01
  -2.81237521466e+01
  -2.79732888229e+01
  -2.78252707672e+01
  -2.76797565874e+01
  -2.75368050135e+01
  -2.73964744163e+01
  -2.72588223141e+01
  -2.71239048706e+01
  -2.69917763841e+01
  -2.68624887712e+01
  -2.67360910465e+01
  -2.66126288023e+01
  -2.64921436913e+01
  -2.63746729160e+01
  -2.62602487295e+01
  -2.61488979520e+01
  -2.60406415075e+01
  -2.59354939857e+01
  -2.58334632348e+01
  -2.57345499883e+01
  -2.56387475331e+01
  -2.55460414217e+01
  -2.54564092326e+01
  -2.53698203854e+01
  -2.52862360107e+01
  -2.52056088802e+01
  -2.51278833984e+01
  -2.50529956578e+01
  -2.49808735580e+01
  -2.49114369893e+01
  -2.48445980807e+01
  -2.47802615098e+01
  -2.47183248725e+01
  -2.46586791109e+01
  -2.46012089942e+01
</dep>
<dep S[1,1] frequency>
  +7.13052212284e-04+j2.68434125141e-03
  +1.08641497772e-03+j3.13835713196e-03
  +1.52293863392e-03+j3.54785335257e-03
  +2.01751426534e-03+j3.90657476595e-03
  +2.56457454710e-03+j4.20882022336e-03
  +3.15812014851e-03+j4.44948431821e-03
  +3.79176715628e-03+j4.62409287962e-03
  +4.45880579489e-03+j4.72883092114e-03
  +5.15226526348e-03+j4.76056244219e-03
  +5.86498148745e-03+j4.71684191022e-03
  +6.58966556080e-03+j4.59591755307e-03
  +7.31897120780e-03+j4.39672681768e-03
  +8.04555995346e-03+j4.11888452701e-03
  +8.76216296155e-03+j3.76266440064e-03
  +9.46163872223e-03+j3.32897470306e-03
  +1.01370259678e-02+j2.81932884955e-03
  +1.07815913745e-02+j2.23581183614e-03
  +1.13888717721e-02+j1.58104336999e-03
  +1.19527107322e-02+j8.58138563015e-04
  +1.24672895432e-02+j7.06670176150e-05
  +1.29271526940e-02-j7.77388917753e-04
  +1.33272280968e-02-j1.68167600956e-03
  +1.36628423593e-02-j2.63751147796e-03
  +1.39297314878e-02-j3.63992325600e-03
  +1.41240474550e-02-j4.68368869729e-03
  +1.42423611014e-02-j5.76337134723e-03
  +1.42816618632e-02-j6.87335547848e-03
  +1.42393548264e-02-j8.00787817448e-03
  +1.41132556087e-02-j9.16105882336e-03
  +1.39015835538e-02-j1.03269259577e-02
  +1.36029537068e-02-j1.14994414424e-02
  +1.32163680096e-02-j1.26725220725e-02
  +1.27412061228e-02-j1.38400586963e-02
  +1.21772162471e-02-j1.49959330249e-02
  +1.15245062731e-02-j1.61340323280e-02
  +1.07835355517e-02-j1.72482622486e-02
  +9.95510753257e-03-j1.83325579970e-02
  +9.04036347534e-03-j1.93808942041e-02
  +8.04077739735e-03-j2.03872937306e-02
  +6.95815237716e-03-j2.13458357411e-02
  +5.79461829323e-03-j2.22506633584e-02
  +4.55263103511e-03-j2.30959912177e-02
  +3.23497318470e-03-j2.38761132418e-02
  +1.84475612531e-03-j2.45854109532e-02
  +3.85423497383e-04-j2.52183626371e-02
  -1.13924411901e-03-j2.57695536580e-02
  -2.72512345307e-03-j2.62336882237e-02
  -4.36774191967e-03-j2.66056028738e-02
  -6.06227035760e-03-j2.68802819561e-02
  -7.80351540137e-03-j2.70528753288e-02
  -9.58591179621e-03-j2.71187185072e-02
  -1.14035150027e-02-j2.70733554388e-02
  -1.32499944741e-02-j2.69125640617e-02
  -1.51186280239e-02-j2.66323847603e-02
  -1.70022977361e-02-j2.62291517864e-02
  -1.88934878984e-02-j2.56995276673e-02
  -2.07842854701e-02-j2.50405405590e-02
  -2.26663836151e-02-j2.42496244465e-02
  -2.45310888489e-02-j2.33246620145e-02
  -2.63693323598e-02-j2.22640299428e-02
  -2.81716860617e-02-j2.10666462895e-02
  -2.99283839295e-02-j1.97320195426e-02
  -3.16293491450e-02-j1.82602988223e-02
  -3.32642275461e-02-j1.66523246222e-02
  -3.48224278207e-02-j1.49096793773e-02
  -3.62931688218e-02-j1.30347370506e-02
  -3.76655342917e-02-j1.10307108339e-02
  -3.89285351823e-02-j8.90169797132e-03
  -4.00711796335e-02-j6.65272063497e-03
  -4.10825505331e-02-j4.28976171737e-03
  -4.19518904190e-02-j1.81979435635e-03
  -4.26686933117e-02+j7.49196017506e-04
  -4.32228028772e-02+j3.40819832317e-03
  -4.36045161187e-02+j6.14717234562e-03
  -4.38046915960e-02+j8.95505625153e-03
  -4.38148609628e-02+j1.18197861345e-02
  -4.36273424173e-02+j1.47283284893e-02
  -4.32353544741e-02+j1.76667263457e-02
  -4.26331282983e-02+j2.06201595868e-02
  -4.18160167063e-02+j2.35730197383e-02
  -4.07805978309e-02+j2.65089992409e-02
  -3.95247713860e-02+j2.94111949226e-02
  -3.80478454514e-02+j3.22622250696e-02
  -3.63506117338e-02+j3.50443591671e-02
  -3.44354073530e-02+j3.77396590487e-02
  -3.23061613548e-02+j4.03301298737e-02
  -2.99684243565e-02+j4.27978790472e-02
  -2.74293799969e-02+j4.51252809257e-02
  -2.46978371730e-02+j4.72951449186e-02
  -2.17842024013e-02+j4.92908844171e-02
  -1.87004320315e-02+j5.10966838567e-02
  -1.54599644503e-02+j5.26976611664e-02
  -1.20776328366e-02+j5.40800228689e-02
  -8.56955944831e-03+j5.52312091836e-02
  -4.95303282534e-03+j5.61400266396e-02
  -1.24636966667e-03+j5.67967659304e-02
  +2.53123652646e-03+j5.71933030278e-02
  +6.35987766832e-03+j5.73231819122e-02
  +1.02191015749e-02+j5.71816776543e-02
  +1.40880879732e-02+j5.67658389984e-02
  +1.79458272081e-02+j5.60745100241e-02
</dep>
<dep S[1,4] frequency>
  +9.24035866272e-03+j5.13098649978e-02
  +1.30141135159e-02+j6.10297581093e-02
  +1.74093165303e-02+j7.04664262730e-02
  +2.24042175556e-02+j7.95785781338e-02
  +2.79738592701e-02+j8.83268848688e-02
  +3.40904051111e-02+j9.66742195285e-02
  +4.07234312956e-02+j1.04585862823e-01
  +4.78402059151e-02+j1.12029677727e-01
  +5.54059638514e-02+j1.18976254010e-01
  +6.33841802204e-02+j1.25399023411e-01
  +7.17368422950e-02+j1.31274346220e-01
  +8.04247185820e-02+j1.36581570206e-01
  +8.94076231689e-02+j1.41303063067e-01
  +9.86446732755e-02+j1.45424219871e-01
  +1.08094537984e-01+j1.48933447165e-01
  +1.17715676278e-01+j1.51822125647e-01
  +1.27466562761e-01+j1.54084553460e-01
  +1.37305899697e-01+j1.55717872266e-01
  +1.47192814303e-01+j1.56721978330e-01
  +1.57087040546e-01+j1.57099420877e-01
  +1.66949084966e-01+j1.56855289927e-01
  +1.76740376334e-01+j1.55997095776e-01
  +1.86423399213e-01+j1.54534642199e-01
  +1.95961811720e-01+j1.52479895307e-01
  +2.05320547985e-01+j1.49846849857e-01
  +2.14465905989e-01+j1.46651394660e-01
  +2.23365621584e-01+j1.42911178542e-01
  +2.31988929656e-01+j1.38645478147e-01
  +2.40306613420e-01+j1.33875068690e-01
  +2.48291042954e-01+j1.28622098573e-01
  +2.55916204084e-01+j1.22909968614e-01
  +2.63157718749e-01+j1.16763216472e-01
  +2.69992857983e-01+j1.10207406673e-01
  +2.76400548623e-01+j1.03269026515e-01
  +2.82361374811e-01+j9.59753879643e-02
  +2.87857575327e-01+j8.83545355580e-02
  +2.92873037702e-01+j8.04351601786e-02
  +2.97393290039e-01+j7.22465184929e-02
  +3.01405491341e-01+j6.38183577370e-02
  +3.04898421124e-01+j5.51808454545e-02
  +3.07862468966e-01+j4.63645037256e-02
  +3.10289624578e-01+j3.74001473652e-02
  +3.12173468908e-01+j2.83188255168e-02
  +3.13509166671e-01+j1.91517660308e-02
  +3.14293460632e-01+j9.93032198262e-03
  +3.14524667877e-01+j6.85919663341e-04
  +3.14202678196e-01-j8.54999264059e-03
  +3.13328954650e-01-j1.77459957684e-02
  +3.11906536257e-01-j2.68707513974e-02
  +3.09940042683e-01-j3.58930550286e-02
  +3.07435680700e-01-j4.47818909124e-02
  +3.04401252109e-01-j5.35064895543e-02
  +3.00846162716e-01-j6.20363884122e-02
  +2.96781431882e-01-j7.03414963488e-02
  +2.92219702050e-01-j7.83921623557e-02
  +2.87175247605e-01-j8.61592490017e-02
  +2.81663982312e-01-j9.36142109839e-02
  +2.75703464527e-01-j1.00729179078e-01
  +2.69312899274e-01-j1.07477049691e-01
  +2.62513136255e-01-j1.13831580099e-01
  +2.55326662788e-01-j1.19767489360e-01
  +2.47777590621e-01-j1.25260564727e-01
  +2.39891635572e-01-j1.30287773278e-01
  +2.31696088899e-01-j1.34827378299e-01
  +2.23219779346e-01-j1.38859059828e-01
  +2.14493024814e-01-j1.42364038565e-01
  +2.05547572681e-01-j1.45325202219e-01
  +1.96416527856e-01-j1.47727233176e-01
  +1.87134267767e-01-j1.49556736198e-01
  +1.77736343611e-01-j1.50802364716e-01
  +1.68259367350e-01-j1.51454944129e-01
  +1.58740884141e-01-j1.51507590387e-01
  +1.49219230081e-01-j1.50955822018e-01
  +1.39733375394e-01-j1.49797663689e-01
  +1.30322753467e-01-j1.48033739332e-01
  +1.21027076371e-01-j1.45667352851e-01
  +1.11886137852e-01-j1.42704554442e-01
  +1.02939605006e-01-j1.39154190655e-01
  +9.42268001983e-02-j1.35027936399e-01
  +8.57864750238e-02-j1.30340307301e-01
  +7.76565783975e-02-j1.25108650990e-01
  +6.98740210837e-02-j1.19353116171e-01
  +6.24744391780e-02-j1.13096598632e-01
  +5.54919592170e-02-j1.06364663638e-01
  +4.89589676966e-02-j9.91854445669e-02
  +4.29058878377e-02-j9.15895179752e-02
  +3.73609664338e-02-j8.36097557087e-02
  +3.23500735499e-02-j7.52811550425e-02
  +2.78965177206e-02-j6.66406482273e-02
  +2.40208791066e-02-j5.77268931784e-02
  +2.07408628325e-02-j4.85800473769e-02
  +1.80711744403e-02-j3.92415273476e-02
  +1.60234190577e-02-j2.97537563223e-02
  +1.46060255198e-02-j2.01599028905e-02
  +1.38241962913e-02-j1.05036135734e-02
  +1.36798836352e-02-j8.28742331304e-04
  +1.41717920697e-02+j8.82091997807e-03
  +1.52954067573e-02+j1.84019132182e-02
  +1.70430470918e-02+j2.78713698079e-02
  +1.94039443950e-02+j3.71872680660e-02
  +2.23643423161e-02+j4.63086745715e-02
</dep>
<dep S[1,3] frequency>
  -9.70887251178e-04-j8.95277821411e-03
  -1.61419848618e-03-j1.06586126375e-02
  -2.38204171868e-03-j1.23164150219e-02
  -3.26903436346e-03-j1.39187169871e-02
  -4.26960109925e-03-j1.54585726748e-02
  -5.37791464157e-03-j1.69295906666e-02
  -6.58789446447e-03-j1.83259611505e-02
  -7.89323540629e-03-j1.96424763461e-02
  -9.28745244573e-03-j2.08745432237e-02
  -1.07639341175e-02-j2.20181881406e-02
  -1.23159999887e-02-j2.30700534030e-02
  -1.39369591657e-02-j2.40273860337e-02
  -1.56201676944e-02-j2.48880192327e-02
  -1.73590832849e-02-j2.56503471635e-02
  -1.91473161906e-02-j2.63132938149e-02
  -2.09786753716e-02-j2.68762767572e-02
  -2.28472093186e-02-j2.73391666612e-02
  -2.47472411177e-02-j2.77022434585e-02
  -2.66733975139e-02-j2.79661500195e-02
  -2.86206318809e-02-j2.81318441934e-02
  -3.05842411377e-02-j2.82005500105e-02
  -3.25598767588e-02-j2.81737087904e-02
  -3.45435501189e-02-j2.80529308279e-02
  -3.65316324802e-02-j2.78399482578e-02
  -3.85208499882e-02-j2.75365696195e-02
  -4.05082740793e-02-j2.71446365636e-02
