<Qucs Dataset 0.0.17>
<indep Vds 50>
  +0.00000000000e+00
  +6.12244897959e-02
  +1.22448979592e-01
  +1.83673469388e-01
  +2.44897959184e-01
  +3.06122448980e-01
  +3.67346938776e-01
  +4.28571428571e-01
  +4.89795918367e-01
  +5.51020408163e-01
  +6.12244897959e-01
  +6.73469387755e-01
  +7.34693877551e-01
  +7.95918367347e-01
  +8.57142857143e-01
  +9.18367346939e-01
  +9.79591836735e-01
  +1.04081632653e+00
  +1.10204081633e+00
  +1.16326530612e+00
  +1.22448979592e+00
  +1.28571428571e+00
  +1.34693877551e+00
  +1.40816326531e+00
  +1.46938775510e+00
  +1.53061224490e+00
  +1.59183673469e+00
  +1.65306122449e+00
  +1.71428571429e+00
  +1.77551020408e+00
  +1.83673469388e+00
  +1.89795918367e+00
  +1.95918367347e+00
  +2.02040816327e+00
  +2.08163265306e+00
  +2.14285714286e+00
  +2.20408163265e+00
  +2.26530612245e+00
  +2.32653061224e+00
  +2.38775510204e+00
  +2.44897959184e+00
  +2.51020408163e+00
  +2.57142857143e+00
  +2.63265306122e+00
  +2.69387755102e+00
  +2.75510204082e+00
  +2.81632653061e+00
  +2.87755102041e+00
  +2.93877551020e+00
  +3.00000000000e+00
</indep>
<indep Vgs 10>
  +1.00000000000e+00
  +1.22222222222e+00
  +1.44444444444e+00
  +1.66666666667e+00
  +1.88888888889e+00
  +2.11111111111e+00
  +2.33333333333e+00
  +2.55555555556e+00
  +2.77777777778e+00
  +3.00000000000e+00
</indep>
<dep V2.I Vds Vgs>
  +0.00000000000e+00
  -1.82103848228e-05
  -3.30832845177e-05
  -4.46819981861e-05
  -5.30975853563e-05
  -5.85174863955e-05
  -6.14274261534e-05
  -6.27776705949e-05
  -6.34770422873e-05
  -6.39460207424e-05
  -6.43211043547e-05
  -6.46486262491e-05
  -6.49475642374e-05
  -6.52272253277e-05
  -6.54928556482e-05
  -6.57477291614e-05
  -6.59940464452e-05
  -6.62333696716e-05
  -6.64668550479e-05
  -6.66953862783e-05
  -6.69196566302e-05
  -6.71402236538e-05
  -6.73575454188e-05
  -6.75720102641e-05
  -6.77839598308e-05
  -6.79937107531e-05
  -6.82015745551e-05
  -6.84078784555e-05
  -6.86129847960e-05
  -6.88173102045e-05
  -6.90213441799e-05
  -6.92256649605e-05
  -6.94309555924e-05
  -6.96380148113e-05
  -6.98477660524e-05
  -7.00612667166e-05
  -7.02797085648e-05
  -7.05044206837e-05
  -7.07368685637e-05
  -7.09786479825e-05
  -7.12314822396e-05
  -7.14972131984e-05
  -7.17777924746e-05
  -7.20752732004e-05
  -7.23917983934e-05
  -7.27295908275e-05
  -7.30909412305e-05
  -7.34781983069e-05
  -7.38937573881e-05
  -7.43400501128e-05
  +0.00000000000e+00
  -2.88518250925e-05
  -5.42803382764e-05
  -7.63348741273e-05
  -9.50665839500e-05
  -1.10531596486e-04
  -1.22799149292e-04
  -1.31974298143e-04
  -1.38261804807e-04
  -1.42105873351e-04
  -1.44277128880e-04
  -1.45575903457e-04
  -1.46481754095e-04
  -1.47201125774e-04
  -1.47818635010e-04
  -1.48372694145e-04
  -1.48883196874e-04
  -1.49361695464e-04
  -1.49815523788e-04
  -1.50249661074e-04
  -1.50667664934e-04
  -1.51072179158e-04
  -1.51465229675e-04
  -1.51848410160e-04
  -1.52223001460e-04
  -1.52590058046e-04
  -1.52950471811e-04
  -1.53305025840e-04
  -1.53654442026e-04
  -1.53999426546e-04
  -1.54340715456e-04
  -1.54679117973e-04
  -1.55015560183e-04
  -1.55351125015e-04
  -1.55687090143e-04
  -1.56024959747e-04
  -1.56366491457e-04
  -1.56713717531e-04
  -1.57068959113e-04
  -1.57434833608e-04
  -1.57814257271e-04
  -1.58210441751e-04
  -1.58626884877e-04
  -1.59067356400e-04
  -1.59535883291e-04
  -1.60036727695e-04
  -1.60574367427e-04
  -1.61153469367e-04
  -1.61778868084e-04
  -1.62455538278e-04
  +0.00000000000e+00
  -3.85700262496e-05
  -7.37184522439e-05
  -1.05490781816e-04
  -1.33932346901e-04
  -1.59088762481e-04
  -1.81006803442e-04
  -1.99736220369e-04
  -2.15333783074e-04
  -2.27872928423e-04
  -2.37467803046e-04
  -2.44330540566e-04
  -2.48872179378e-04
  -2.51744480879e-04
  -2.53635787025e-04
  -2.55014982749e-04
  -2.56121593938e-04
  -2.57068655277e-04
  -2.57912444549e-04
  -2.58683797525e-04
  -2.59401246997e-04
  -2.60076813365e-04
  -2.60718773427e-04
  -2.61333097027e-04
  -2.61924249212e-04
  -2.62495668661e-04
  -2.63050069439e-04
  -2.63589639087e-04
  -2.64116182675e-04
  -2.64631229509e-04
  -2.65136123000e-04
  -2.65632103816e-04
  -2.66120384423e-04
  -2.66602228475e-04
  -2.67079024915e-04
  -2.67552361783e-04
  -2.68024094039e-04
  -2.68496409039e-04
  -2.68971880910e-04
  -2.69453515088e-04
  -2.69944784519e-04
  -2.70449653880e-04
  -2.70972591601e-04
  -2.71518573772e-04
  -2.72093076175e-04
  -2.72702057987e-04
  -2.73351940848e-04
  -2.74049575310e-04
  -2.74802210097e-04
  -2.75617450636e-04
  +0.00000000000e+00
  -4.74491265929e-05
  -9.15119268029e-05
  -1.32231199825e-04
  -1.69649244224e-04
  -2.03807979050e-04
  -2.34749136978e-04
  -2.62514590867e-04
  -2.87146939126e-04
  -3.08690617451e-04
  -3.27194140980e-04
  -3.42714897841e-04
  -3.55329904921e-04
  -3.65160246709e-04
  -3.72421940225e-04
  -3.77499959084e-04
  -3.80961502186e-04
  -3.83400437791e-04
  -3.85249971577e-04
  -3.86757289283e-04
  -3.88052008138e-04
  -3.89203942742e-04
  -3.90253433003e-04
  -3.91225589893e-04
  -3.92137086315e-04
  -3.92999588234e-04
  -3.93821605483e-04
  -3.94609555738e-04
  -3.95368413139e-04
  -3.96102120519e-04
  -3.96813871778e-04
  -3.97506309526e-04
  -3.98181681557e-04
  -3.98841971813e-04
  -3.99489017132e-04
  -4.00124625020e-04
  -4.00750683961e-04
  -4.01369276964e-04
  -4.01982790604e-04
  -4.02594016724e-04
  -4.03206245880e-04
  -4.03823349352e-04
  -4.04449846263e-04
  -4.05090953460e-04
  -4.05752621611e-04
  -4.06441552741e-04
  -4.07165201931e-04
  -4.07931767233e-04
  -4.08750162885e-04
  -4.09629984019e-04
  +0.00000000000e+00
  -5.55704147680e-05
  -1.07806241821e-04
  -1.56747846756e-04
  -2.02435040944e-04
  -2.44907129628e-04
  -2.84202978154e-04
  -3.20361108678e-04
  -3.53419847432e-04
  -3.83417562966e-04
  -4.10393069185e-04
  -4.34386342738e-04
  -4.55439867626e-04
  -4.73601284389e-04
  -4.88928855867e-04
  -5.01503089503e-04
  -5.11451076187e-04
  -5.18991317258e-04
  -5.24487448815e-04
  -5.28442232017e-04
  -5.31371819178e-04
  -5.33667113103e-04
  -5.35568528847e-04
  -5.37212641481e-04
  -5.38678011076e-04
  -5.40012263488e-04
  -5.41246061896e-04
  -5.42400253209e-04
  -5.43489670339e-04
  -5.44525268649e-04
  -5.45515386642e-04
  -5.46466532706e-04
  -5.47383897776e-04
  -5.48271705447e-04
  -5.49133468861e-04
  -5.49972192868e-04
  -5.50790543862e-04
  -5.51591012193e-04
  -5.52376065717e-04
  -5.53148303764e-04
  -5.53910609653e-04
  -5.54666298407e-04
  -5.55419256992e-04
  -5.56174069479e-04
  -5.56936126508e-04
  -5.57711716002e-04
  -5.58508089887e-04
  -5.59333508725e-04
  -5.60197265010e-04
  -5.61109682672e-04
  +0.00000000000e+00
  -6.30090355729e-05
  -1.22744264992e-04
  -1.79243758980e-04
  -2.32545048105e-04
  -2.82685148084e-04
  -3.29700591380e-04
  -3.73627467295e-04
  -4.14501476488e-04
  -4.52358007617e-04
  -4.87232251503e-04
  -5.19159377153e-04
  -5.48174817809e-04
  -5.74314753813e-04
  -5.97616967695e-04
  -6.18122424563e-04
  -6.35878320846e-04
  -6.50944175301e-04
  -6.63404142118e-04
  -6.73390885760e-04
  -6.81124570072e-04
  -6.86950295354e-04
  -6.91318802007e-04
  -6.94681810399e-04
  -6.97388567151e-04
  -6.99665581985e-04
  -7.01649774634e-04
  -7.03424335368e-04
  -7.05041885564e-04
  -7.06537380930e-04
  -7.07935135948e-04
  -7.09252745004e-04
  -7.10503367720e-04
  -7.11697118930e-04
  -7.12841954140e-04
  -7.13944258970e-04
  -7.15009260144e-04
  -7.16041330674e-04
  -7.17044235169e-04
  -7.18021344698e-04
  -7.18975838257e-04
  -7.19910901132e-04
  -7.20829921589e-04
  -7.21736686875e-04
  -7.22635573200e-04
  -7.23531722974e-04
  -7.24431207428e-04
  -7.25341160875e-04
  -7.26269896118e-04
  -7.27226987100e-04
  +0.00000000000e+00
  -6.98322001966e-05
  -1.36456545008e-04
  -1.99908927957e-04
  -2.60224735857e-04
  -3.17438865302e-04
  -3.71585741084e-04
  -4.22699338311e-04
  -4.70813208725e-04
  -5.15960514502e-04
  -5.58174072711e-04
  -5.97486417176e-04
  -6.33929886705e-04
  -6.67536758772e-04
  -6.98339456464e-04
  -7.26370885643e-04
  -7.51665003544e-04
  -7.74257817351e-04
  -7.94189208972e-04
  -8.11506382646e-04
  -8.26270541153e-04
  -8.38569733814e-04
  -8.48541910020e-04
  -8.56408112642e-04
  -8.62496381199e-04
  -8.67213532637e-04
  -8.70957118465e-04
  -8.74038038327e-04
  -8.76666010032e-04
  -8.78974205329e-04
  -8.81047328596e-04
  -8.82940988238e-04
  -8.84693191249e-04
  -8.86330949035e-04
  -8.87874129372e-04
  -8.89337777796e-04
  -8.90733574058e-04
  -8.92070779548e-04
  -8.93356876905e-04
  -8.94598030558e-04
  -8.95799434212e-04
  -8.96965595173e-04
  -8.98100592891e-04
  -8.99208322612e-04
  -9.00292738739e-04
  -9.01358096308e-04
  -9.02409195078e-04
  -9.03451610330e-04
  -9.04491910486e-04
  -9.05537852193e-04
  +0.00000000000e+00
  -7.60994796905e-05
  -1.49059946730e-04
  -2.18915233540e-04
  -2.85698704288e-04
  -3.49443266910e-04
  -4.10181385957e-04
  -4.67945096840e-04
  -5.22766021796e-04
  -5.74675388223e-04
  -6.23704051777e-04
  -6.69882523942e-04
  -7.13241008987e-04
  -7.53809453831e-04
  -7.91617617658e-04
  -8.26695173695e-04
  -8.59071863862e-04
  -8.88777739673e-04
  -9.15843554587e-04
  -9.40301424723e-04
  -9.62185979568e-04
  -9.81536439518e-04
  -9.98400465603e-04
  -1.01284137708e-03
  -1.02495136216e-03
  -1.03487332970e-03
  -1.04282826746e-03
  -1.04912778459e-03
  -1.05414039845e-03
  -1.05821754320e-03
  -1.06163585102e-03
  -1.06458767203e-03
  -1.06720013177e-03
  -1.06955727043e-03
  -1.07171607699e-03
  -1.07371651482e-03
  -1.07558755590e-03
  -1.07735084103e-03
  -1.07902296058e-03
  -1.08061691853e-03
  -1.08214310793e-03
  -1.08360998764e-03
  -1.08502457434e-03
  -1.08639282489e-03
  -1.08771996160e-03
  -1.08901076877e-03
  -1.09026988237e-03
  -1.09150207817e-03
  -1.09271256420e-03
  -1.09390726688e-03
  +0.00000000000e+00
  -8.18635851182e-05
  -1.60658443966e-04
  -2.36416464223e-04
  -3.09169103617e-04
  -3.78947399481e-04
  -4.45781978512e-04
  -5.09703067171e-04
  -5.70740502528e-04
  -6.28923744840e-04
  -6.84281890901e-04
  -7.36843690282e-04
  -7.86637564125e-04
  -8.33691629016e-04
  -8.78033727128e-04
  -9.19691466753e-04
  -9.58692277747e-04
  -9.95063491106e-04
  -1.02883245483e-03
  -1.06002671195e-03
  -1.08867427855e-03
  -1.11480409604e-03
  -1.13844679033e-03
  -1.15963598551e-03
  -1.17841064383e-03
  -1.19481931485e-03
  -1.20892784127e-03
  -1.22083272474e-03
  -1.23068137484e-03
  -1.23869360746e-03
  -1.24516474766e-03
  -1.25042920890e-03
  -1.25479879194e-03
  -1.25851994112e-03
  -1.26176825063e-03
  -1.26466367901e-03
  -1.26728817125e-03
  -1.26969888917e-03
  -1.27193684812e-03
  -1.27403232996e-03
  -1.27600828407e-03
  -1.27788250771e-03
  -1.27966908369e-03
  -1.28137935851e-03
  -1.28302263446e-03
  -1.28460668433e-03
  -1.28613816673e-03
  -1.28762298514e-03
  -1.28906662653e-03
  -1.29047449415e-03
  +0.00000000000e+00
  -8.71712012319e-05
  -1.71344436155e-04
  -2.52549762673e-04
  -3.30816845183e-04
  -4.06174962386e-04
  -4.78653015029e-04
  -5.48279534187e-04
  -6.15082689704e-04
  -6.79090298834e-04
  -7.40329836192e-04
  -7.98828444033e-04
  -8.54612943968e-04
  -9.07709850872e-04
  -9.58145388861e-04
  -1.00594551134e-03
  -1.05113592613e-03
  -1.09374212862e-03
  -1.13378944638e-03
  -1.17130310146e-03
  -1.20630829972e-03
  -1.23883036442e-03
  -1.26889493788e-03
  -1.29652830108e-03
  -1.32175789130e-03
  -1.34461316734e-03
  -1.36512709453e-03
  -1.38333875860e-03
  -1.39929800443e-03
  -1.41307355284e-03
  -1.42476628379e-03
  -1.43452747037e-03
  -1.44257449336e-03
  -1.44918632769e-03
  -1.45466665237e-03
  -1.45929298732e-03
  -1.46328537059e-03
  -1.46680380780e-03
  -1.46996070254e-03
  -1.47283502588e-03
  -1.47548324520e-03
  -1.47794671582e-03
  -1.48025648274e-03
  -1.48243639152e-03
  -1.48450513850e-03
  -1.48647765264e-03
  -1.48836605820e-03
  -1.49018036866e-03
  -1.49192901914e-03
  -1.49361930914e-03
</dep>
<dep Ids.I Vds Vgs>
  +0.00000000000e+00
  +1.82103848228e-05
  +3.30832845177e-05
  +4.46819981861e-05
  +5.30975853563e-05
  +5.85174863955e-05
  +6.14274261534e-05
  +6.27776705949e-05
  +6.34770422873e-05
  +6.39460207424e-05
  +6.43211043547e-05
  +6.46486262491e-05
  +6.49475642374e-05
  +6.52272253277e-05
  +6.54928556482e-05
  +6.57477291614e-05
  +6.59940464452e-05
  +6.62333696716e-05
  +6.64668550479e-05
  +6.66953862783e-05
  +6.69196566302e-05
  +6.71402236538e-05
  +6.73575454188e-05
  +6.75720102641e-05
  +6.77839598308e-05
  +6.79937107531e-05
  +6.82015745551e-05
  +6.84078784555e-05
  +6.86129847960e-05
  +6.88173102045e-05
  +6.90213441799e-05
  +6.92256649605e-05
  +6.94309555924e-05
  +6.96380148113e-05
  +6.98477660524e-05
  +7.00612667166e-05
  +7.02797085648e-05
  +7.05044206837e-05
  +7.07368685637e-05
  +7.09786479825e-05
  +7.12314822396e-05
  +7.14972131984e-05
  +7.17777924746e-05
  +7.20752732004e-05
  +7.23917983934e-05
  +7.27295908275e-05
  +7.30909412305e-05
  +7.34781983069e-05
  +7.38937573881e-05
  +7.43400501128e-05
  +0.00000000000e+00
  +2.88518250925e-05
  +5.42803382764e-05
  +7.63348741273e-05
  +9.50665839500e-05
  +1.10531596486e-04
  +1.22799149292e-04
  +1.31974298143e-04
  +1.38261804807e-04
  +1.42105873351e-04
  +1.44277128880e-04
  +1.45575903457e-04
  +1.46481754095e-04
  +1.47201125774e-04
  +1.47818635010e-04
  +1.48372694145e-04
  +1.48883196874e-04
  +1.49361695464e-04
  +1.49815523788e-04
  +1.50249661074e-04
  +1.50667664934e-04
  +1.51072179158e-04
  +1.51465229675e-04
  +1.51848410160e-04
  +1.52223001460e-04
  +1.52590058046e-04
  +1.52950471811e-04
  +1.53305025840e-04
  +1.53654442026e-04
  +1.53999426546e-04
  +1.54340715456e-04
  +1.54679117973e-04
  +1.55015560183e-04
  +1.55351125015e-04
  +1.55687090143e-04
  +1.56024959747e-04
  +1.56366491457e-04
  +1.56713717531e-04
  +1.57068959113e-04
  +1.57434833608e-04
  +1.57814257271e-04
  +1.58210441751e-04
  +1.58626884877e-04
  +1.59067356400e-04
  +1.59535883291e-04
  +1.60036727695e-04
  +1.60574367427e-04
  +1.61153469367e-04
  +1.61778868084e-04
  +1.62455538278e-04
  +0.00000000000e+00
  +3.85700262496e-05
  +7.37184522439e-05
  +1.05490781816e-04
  +1.33932346901e-04
  +1.59088762481e-04
  +1.81006803442e-04
  +1.99736220369e-04
  +2.15333783074e-04
  +2.27872928423e-04
  +2.37467803046e-04
  +2.44330540566e-04
  +2.48872179378e-04
  +2.51744480879e-04
  +2.53635787025e-04
  +2.55014982749e-04
  +2.56121593938e-04
  +2.57068655277e-04
  +2.57912444549e-04
  +2.58683797525e-04
  +2.59401246997e-04
  +2.60076813365e-04
  +2.60718773427e-04
  +2.61333097027e-04
  +2.61924249212e-04
  +2.62495668661e-04
  +2.63050069439e-04
  +2.63589639087e-04
  +2.64116182675e-04
  +2.64631229509e-04
  +2.65136123000e-04
  +2.65632103816e-04
  +2.66120384423e-04
  +2.66602228475e-04
  +2.67079024915e-04
  +2.67552361783e-04
  +2.68024094039e-04
  +2.68496409039e-04
  +2.68971880910e-04
  +2.69453515088e-04
  +2.69944784519e-04
  +2.70449653880e-04
  +2.70972591601e-04
  +2.71518573772e-04
  +2.72093076175e-04
  +2.72702057987e-04
  +2.73351940848e-04
  +2.74049575310e-04
  +2.74802210097e-04
  +2.75617450636e-04
  +0.00000000000e+00
  +4.74491265929e-05
  +9.15119268029e-05
  +1.32231199825e-04
  +1.69649244224e-04
  +2.03807979050e-04
  +2.34749136978e-04
  +2.62514590867e-04
  +2.87146939126e-04
  +3.08690617451e-04
  +3.27194140980e-04
  +3.42714897841e-04
  +3.55329904921e-04
  +3.65160246709e-04
  +3.72421940225e-04
  +3.77499959084e-04
  +3.80961502186e-04
  +3.83400437791e-04
  +3.85249971577e-04
  +3.86757289283e-04
  +3.88052008138e-04
  +3.89203942742e-04
  +3.90253433003e-04
  +3.91225589893e-04
  +3.92137086315e-04
  +3.92999588234e-04
  +3.93821605483e-04
  +3.94609555738e-04
  +3.95368413139e-04
  +3.96102120519e-04
  +3.96813871778e-04
  +3.97506309526e-04
  +3.98181681557e-04
  +3.98841971813e-04
  +3.99489017132e-04
  +4.00124625020e-04
  +4.00750683961e-04
  +4.01369276964e-04
  +4.01982790604e-04
  +4.02594016724e-04
  +4.03206245880e-04
  +4.03823349352e-04
  +4.04449846263e-04
  +4.05090953460e-04
  +4.05752621611e-04
  +4.06441552741e-04
  +4.07165201931e-04
  +4.07931767233e-04
  +4.08750162885e-04
  +4.09629984019e-04
  +0.00000000000e+00
  +5.55704147680e-05
  +1.07806241821e-04
  +1.56747846756e-04
  +2.02435040944e-04
  +2.44907129628e-04
  +2.84202978154e-04
  +3.20361108678e-04
  +3.53419847432e-04
  +3.83417562966e-04
  +4.10393069185e-04
  +4.34386342738e-04
  +4.55439867626e-04
  +4.73601284389e-04
  +4.88928855867e-04
  +5.01503089503e-04
  +5.11451076187e-04
  +5.18991317258e-04
  +5.24487448815e-04
  +5.28442232017e-04
  +5.31371819178e-04
  +5.33667113103e-04
  +5.35568528847e-04
  +5.37212641481e-04
  +5.38678011076e-04
  +5.40012263488e-04
  +5.41246061896e-04
  +5.42400253209e-04
  +5.43489670339e-04
  +5.44525268649e-04
  +5.45515386642e-04
  +5.46466532706e-04
  +5.47383897776e-04
  +5.48271705447e-04
  +5.49133468861e-04
  +5.49972192868e-04
  +5.50790543862e-04
  +5.51591012193e-04
  +5.52376065717e-04
  +5.53148303764e-04
  +5.53910609653e-04
  +5.54666298407e-04
  +5.55419256992e-04
  +5.56174069479e-04
  +5.56936126508e-04
  +5.57711716002e-04
  +5.58508089887e-04
  +5.59333508725e-04
  +5.60197265010e-04
  +5.61109682672e-04
  +0.00000000000e+00
  +6.30090355729e-05
  +1.22744264992e-04
  +1.79243758980e-04
  +2.32545048105e-04
  +2.82685148084e-04
  +3.29700591380e-04
  +3.73627467295e-04
  +4.14501476488e-04
  +4.52358007617e-04
  +4.87232251503e-04
  +5.19159377153e-04
  +5.48174817809e-04
  +5.74314753813e-04
  +5.97616967695e-04
  +6.18122424563e-04
  +6.35878320846e-04
  +6.50944175301e-04
  +6.63404142118e-04
  +6.73390885760e-04
  +6.81124570072e-04
  +6.86950295354e-04
  +6.91318802007e-04
  +6.94681810399e-04
  +6.97388567151e-04
  +6.99665581985e-04
  +7.01649774634e-04
  +7.03424335368e-04
  +7.05041885564e-04
  +7.06537380930e-04
  +7.07935135948e-04
  +7.09252745004e-04
  +7.10503367720e-04
  +7.11697118930e-04
  +7.12841954140e-04
  +7.13944258970e-04
  +7.15009260144e-04
  +7.16041330674e-04
  +7.17044235169e-04
  +7.18021344698e-04
  +7.18975838257e-04
  +7.19910901132e-04
  +7.20829921589e-04
  +7.21736686875e-04
  +7.22635573200e-04
  +7.23531722974e-04
  +7.24431207428e-04
  +7.25341160875e-04
  +7.26269896118e-04
  +7.27226987100e-04
  +0.00000000000e+00
  +6.98322001966e-05
  +1.36456545008e-04
  +1.99908927957e-04
  +2.60224735857e-04
  +3.17438865302e-04
  +3.71585741084e-04
  +4.22699338311e-04
  +4.70813208725e-04
  +5.15960514502e-04
  +5.58174072711e-04
  +5.97486417176e-04
  +6.33929886705e-04
  +6.67536758772e-04
  +6.98339456464e-04
  +7.26370885643e-04
  +7.51665003544e-04
  +7.74257817351e-04
  +7.94189208972e-04
  +8.11506382646e-04
  +8.26270541153e-04
  +8.38569733814e-04
  +8.48541910020e-04
  +8.56408112642e-04
  +8.62496381199e-04
  +8.67213532637e-04
  +8.70957118465e-04
  +8.74038038327e-04
  +8.76666010032e-04
  +8.78974205329e-04
  +8.81047328596e-04
  +8.82940988238e-04
  +8.84693191249e-04
  +8.86330949035e-04
  +8.87874129372e-04
  +8.89337777796e-04
  +8.90733574058e-04
  +8.92070779548e-04
  +8.93356876905e-04
  +8.94598030558e-04
  +8.95799434212e-04
  +8.96965595173e-04
  +8.98100592891e-04
  +8.99208322612e-04
  +9.00292738739e-04
  +9.01358096308e-04
  +9.02409195078e-04
  +9.03451610330e-04
  +9.04491910486e-04
  +9.05537852193e-04
  +0.00000000000e+00
  +7.60994796905e-05
  +1.49059946730e-04
  +2.18915233540e-04
  +2.85698704288e-04
  +3.49443266910e-04
  +4.10181385957e-04
  +4.67945096840e-04
  +5.22766021796e-04
  +5.74675388223e-04
  +6.23704051777e-04
  +6.69882523942e-04
  +7.13241008987e-04
  +7.53809453831e-04
  +7.91617617658e-04
  +8.26695173695e-04
  +8.59071863862e-04
  +8.88777739673e-04
  +9.15843554587e-04
  +9.40301424723e-04
  +9.62185979568e-04
  +9.81536439518e-04
  +9.98400465603e-04
  +1.01284137708e-03
  +1.02495136216e-03
  +1.03487332970e-03
  +1.04282826746e-03
  +1.04912778459e-03
  +1.05414039845e-03
  +1.05821754320e-03
  +1.06163585102e-03
  +1.06458767203e-03
  +1.06720013177e-03
  +1.06955727043e-03
  +1.07171607699e-03
  +1.07371651482e-03
