! FILE NAME 
! DATE 05/07/2008  07:37
! CORRECTED   DATA
# GHz    S       MA      R    50.00
!   FREQ       S11M         S11A     S21M         S21A      S12M        S12A      S22M        S22A
 0.050000000 1.241584E-02  -15.284 9.802298E-01   -0.830 9.807546E-01   -0.717 1.296189E-02  -21.096
 0.100000000 1.113581E-02  -29.416 9.775881E-01   -1.215 9.779616E-01   -1.069 1.141082E-02  -25.769
 0.150000000 9.956905E-03  -32.957 9.767255E-01   -1.606 9.767759E-01   -1.522 1.056279E-02  -31.750
 0.200000000 9.634680E-03  -39.505 9.749185E-01   -2.002 9.758404E-01   -1.884 9.866381E-03  -39.577
 0.250000000 8.905341E-03  -45.761 9.741388E-01   -2.371 9.749284E-01   -2.255 8.930367E-03  -45.660
 0.300000000 8.506954E-03  -45.844 9.729956E-01   -2.787 9.741400E-01   -2.678 8.632177E-03  -47.548
 0.350000000 9.553944E-03  -59.865 9.727291E-01   -3.167 9.733835E-01   -3.064 9.120176E-03  -54.723
 0.400000000 7.989969E-03  -60.753 9.723490E-01   -3.533 9.727504E-01   -3.410 8.798921E-03  -60.540
 0.450000000 8.316503E-03  -61.184 9.717135E-01   -3.856 9.720625E-01   -3.721 8.503076E-03  -57.148
 0.500000000 7.620689E-03  -57.174 9.709241E-01   -4.214 9.714428E-01   -4.067 7.635827E-03  -57.948
 0.550000000 7.593897E-03  -63.014 9.709657E-01   -4.579 9.711491E-01   -4.448 6.698303E-03  -72.063
 0.600000000 8.241269E-03  -57.914 9.700636E-01   -4.923 9.710100E-01   -4.813 7.122146E-03  -70.848
 0.650000000 7.756407E-03  -69.500 9.699063E-01   -5.344 9.703149E-01   -5.229 7.139892E-03  -76.289
 0.700000000 8.242839E-03  -66.483 9.693467E-01   -5.734 9.701560E-01   -5.614 7.117278E-03  -78.586
 0.750000000 7.429565E-03  -70.778 9.690659E-01   -6.106 9.694664E-01   -5.972 7.589851E-03  -77.775
 0.800000000 8.440860E-03  -81.628 9.684541E-01   -6.458 9.692215E-01   -6.353 7.815870E-03  -79.583
 0.850000000 7.334357E-03  -74.885 9.684205E-01   -6.816 9.687252E-01   -6.714 7.452247E-03  -76.252
 0.900000000 8.382271E-03  -84.242 9.679425E-01   -7.177 9.688529E-01   -7.077 8.279633E-03  -82.959
 0.950000000 8.373368E-03  -84.204 9.679904E-01   -7.676 9.682313E-01   -7.569 8.317770E-03  -81.548
 1.000000000 7.132401E-03  -94.362 9.678273E-01   -8.058 9.681731E-01   -7.936 7.544187E-03  -77.288
 1.050000000 8.676477E-03  -86.540 9.673139E-01   -8.433 9.679071E-01   -8.303 8.543146E-03  -83.017
 1.100000000 7.743684E-03  -91.458 9.669260E-01   -8.776 9.680040E-01   -8.658 7.973083E-03  -82.744
 1.150000000 8.412159E-03  -90.293 9.667756E-01   -9.127 9.675804E-01   -8.903 7.532979E-03  -87.846
 1.200000000 8.624732E-03  -88.518 9.670196E-01   -9.504 9.673925E-01   -9.278 8.604483E-03  -90.236
 1.250000000 8.303094E-03 -100.630 9.666991E-01   -9.752 9.668016E-01   -9.632 8.062514E-03  -90.507
 1.300000000 8.437812E-03  -90.480 9.661876E-01  -10.125 9.668670E-01  -10.004 7.578060E-03  -93.004
 1.350000000 9.385044E-03  -88.653 9.660151E-01  -10.448 9.666924E-01  -10.361 9.445602E-03  -96.065
 1.400000000 9.384267E-03  -99.454 9.661039E-01  -10.832 9.663053E-01  -10.707 9.448903E-03 -104.059
 1.450000000 8.944565E-03  -88.921 9.660781E-01  -11.201 9.662201E-01  -11.057 8.527477E-03  -92.972
 1.500000000 9.590104E-03  -96.555 9.656807E-01  -11.582 9.665713E-01  -11.426 9.540232E-03  -97.938
 1.550000000 1.038214E-02 -100.714 9.658680E-01  -11.938 9.665054E-01  -11.821 1.031420E-02 -107.866
 1.600000000 9.441750E-03  -87.978 9.654764E-01  -12.299 9.657193E-01  -12.197 9.059267E-03  -98.014
 1.650000000 1.194433E-02 -100.678 9.655261E-01  -12.642 9.658599E-01  -12.547 1.167906E-02 -102.975
 1.700000000 1.029437E-02 -101.790 9.656367E-01  -13.034 9.654980E-01  -12.917 1.047914E-02 -102.186
 1.750000000 8.660044E-03 -102.070 9.649567E-01  -13.383 9.650719E-01  -13.273 8.681672E-03  -94.217
 1.800000000 1.230707E-02 -105.001 9.648021E-01  -13.770 9.651967E-01  -13.645 1.213930E-02 -102.012
 1.850000000 9.532925E-03 -109.853 9.646821E-01  -14.102 9.650955E-01  -13.986 1.005272E-02 -101.835
 1.900000000 1.034941E-02 -109.840 9.646323E-01  -14.475 9.655806E-01  -14.355 9.877168E-03  -94.943
 1.950000000 1.140708E-02 -105.776 9.644916E-01  -14.834 9.654855E-01  -14.728 1.136282E-02  -96.788
 2.000000000 9.245292E-03 -117.442 9.647556E-01  -15.213 9.650506E-01  -15.127 9.117649E-03 -105.251
 2.050000000 1.100779E-02 -103.113 9.640447E-01  -15.578 9.648236E-01  -15.467 1.044862E-02 -101.434
 2.100000000 1.086366E-02 -108.854 9.639973E-01  -15.930 9.645188E-01  -15.804 1.096902E-02 -102.286
 2.150000000 1.028501E-02 -116.013 9.641040E-01  -16.310 9.641260E-01  -16.195 9.957103E-03 -107.877
 2.200000000 1.034111E-02 -100.507 9.641948E-01  -16.665 9.640590E-01  -16.527 1.055891E-02 -102.089
 2.250000000 1.115717E-02 -111.825 9.641527E-01  -17.019 9.643177E-01  -16.881 1.054071E-02 -109.741
 2.300000000 1.054368E-02 -112.886 9.636890E-01  -17.404 9.645980E-01  -17.260 1.104943E-02 -107.333
 2.350000000 1.057251E-02 -107.738 9.632680E-01  -17.767 9.644834E-01  -17.666 1.117264E-02 -106.126
 2.400000000 1.181871E-02 -114.709 9.635407E-01  -18.131 9.640086E-01  -18.038 1.117969E-02 -111.905
 2.450000000 1.019415E-02 -110.644 9.635453E-01  -18.480 9.637119E-01  -18.400 1.168961E-02 -103.914
 2.500000000 1.215152E-02 -112.729 9.636624E-01  -18.848 9.636630E-01  -18.747 1.207439E-02 -111.604
 2.550000000 1.253333E-02 -116.094 9.632987E-01  -19.213 9.637986E-01  -19.099 1.255105E-02 -108.411
 2.600000000 1.052124E-02 -116.178 9.631507E-01  -19.571 9.636427E-01  -19.469 1.209448E-02  -99.479
 2.650000000 1.246070E-02 -117.826 9.630620E-01  -19.925 9.637712E-01  -19.813 1.255176E-02 -108.978
 2.700000000 1.053857E-02 -123.415 9.633812E-01  -20.305 9.640815E-01  -20.201 1.063925E-02 -103.830
 2.750000000 1.114638E-02 -121.314 9.631017E-01  -20.677 9.635763E-01  -20.566 1.186778E-02 -102.459
 2.800000000 1.290950E-02 -118.001 9.631337E-01  -21.069 9.638727E-01  -20.967 1.360640E-02 -109.327
 2.850000000 1.126329E-02 -129.992 9.623026E-01  -21.404 9.631094E-01  -21.327 1.037647E-02 -103.582
 2.900000000 1.112933E-02 -118.926 9.622701E-01  -21.771 9.630251E-01  -21.653 1.205301E-02 -100.786
 2.950000000 1.165552E-02 -122.584 9.622291E-01  -22.134 9.628978E-01  -22.035 1.193115E-02 -107.467
 3.000000000 1.184593E-02 -129.834 9.623834E-01  -22.496 9.629106E-01  -22.386 1.041235E-02 -114.561
 3.050000000 1.169227E-02 -117.085 9.623703E-01  -22.848 9.625778E-01  -22.729 1.326100E-02 -102.145
 3.100000000 1.213931E-02 -125.901 9.620772E-01  -23.223 9.626652E-01  -23.094 1.205646E-02 -112.137
 3.150000000 1.196437E-02 -123.712 9.618961E-01  -23.562 9.632028E-01  -23.477 1.141542E-02 -114.503
 3.200000000 1.087486E-02 -120.032 9.616775E-01  -23.928 9.634249E-01  -23.845 1.295606E-02 -103.141
 3.250000000 1.368564E-02 -126.992 9.618406E-01  -24.304 9.622679E-01  -24.214 1.387108E-02 -113.322
 3.300000000 1.227012E-02 -126.897 9.618261E-01  -24.730 9.622874E-01  -24.585 1.281998E-02 -108.693
 3.350000000 1.219975E-02 -126.749 9.616940E-01  -25.056 9.621359E-01  -24.956 1.251703E-02 -105.167
 3.400000000 1.336469E-02 -124.364 9.616567E-01  -25.386 9.623529E-01  -25.282 1.418230E-02 -116.104
 3.450000000 1.207984E-02 -127.081 9.617017E-01  -25.761 9.621265E-01  -25.667 1.277622E-02 -107.282
 3.500000000 1.407127E-02 -130.878 9.619552E-01  -26.135 9.620838E-01  -26.039 1.425528E-02 -108.231
 3.550000000 1.309123E-02 -128.055 9.616185E-01  -26.503 9.625856E-01  -26.410 1.480082E-02 -108.031
 3.600000000 1.203705E-02 -131.621 9.607774E-01  -26.904 9.618926E-01  -26.783 1.225880E-02 -104.948
 3.650000000 1.446487E-02 -128.776 9.610850E-01  -27.278 9.615623E-01  -27.159 1.436443E-02 -112.142
 3.700000000 1.165094E-02 -132.771 9.615028E-01  -27.602 9.618863E-01  -27.544 1.339490E-02 -105.603
 3.750000000 1.343655E-02 -130.151 9.608567E-01  -27.934 9.613101E-01  -27.871 1.345157E-02 -107.509
 3.800000000 1.368392E-02 -131.970 9.610263E-01  -28.366 9.612413E-01  -28.228 1.382196E-02 -108.798
 3.850000000 1.131609E-02 -142.080 9.611381E-01  -28.755 9.609928E-01  -28.607 1.126590E-02 -103.916
 3.900000000 1.337733E-02 -123.742 9.609416E-01  -29.060 9.609826E-01  -28.928 1.375959E-02 -109.776
 3.950000000 1.320352E-02 -136.559 9.607761E-01  -29.543 9.607539E-01  -29.315 1.242462E-02 -110.507
 4.000000000 1.259476E-02 -136.805 9.613686E-01  -29.916 9.608713E-01  -29.675 1.117577E-02 -108.517
 4.050000000 1.208060E-02 -118.395 9.614317E-01  -30.255 9.612043E-01  -30.017 1.413783E-02 -107.279
 4.100000000 1.395430E-02 -137.346 9.604225E-01  -30.670 9.607646E-01  -30.408 1.188390E-02 -114.735
 4.150000000 1.202702E-02 -129.048 9.597946E-01  -31.070 9.608712E-01  -30.773 1.250992E-02 -108.980
 4.200000000 1.177579E-02 -128.208 9.602299E-01  -31.414 9.606985E-01  -31.123 1.365500E-02 -106.215
 4.250000000 1.526291E-02 -133.358 9.608346E-01  -31.753 9.603294E-01  -31.503 1.206555E-02 -119.388
 4.300000000 1.100186E-02 -132.511 9.609125E-01  -32.144 9.606037E-01  -31.867 1.245153E-02 -103.892
 4.350000000 1.284049E-02 -131.915 9.614010E-01  -32.517 9.607831E-01  -32.243 1.334575E-02 -109.943
 4.400000000 1.469551E-02 -130.653 9.603941E-01  -32.874 9.602771E-01  -32.602 1.310178E-02 -114.203
 4.450000000 1.077185E-02 -148.470 9.600007E-01  -33.191 9.605311E-01  -33.020 1.200021E-02  -96.659
 4.500000000 1.396855E-02 -131.336 9.603318E-01  -33.595 9.606066E-01  -33.358 1.283481E-02 -111.274
 4.550000000 1.156947E-02 -132.679 9.605650E-01  -33.940 9.600758E-01  -33.677 1.138155E-02 -106.123
 4.600000000 1.184168E-02 -145.710 9.600958E-01  -34.158 9.598106E-01  -34.097 1.053629E-02 -101.620
 4.650000000 1.256522E-02 -131.302 9.599684E-01  -34.514 9.600767E-01  -34.473 1.276870E-02 -110.757
 4.700000000 1.036427E-02 -144.293 9.593872E-01  -35.024 9.604075E-01  -34.796 1.039285E-02  -97.689
 4.750000000 1.368037E-02 -142.850 9.597608E-01  -35.421 9.594968E-01  -35.155 1.082273E-02 -107.652
 4.800000000 1.082656E-02 -127.188 9.607526E-01  -35.832 9.604429E-01  -35.525 1.079158E-02 -109.544
 4.850000000 1.135842E-02 -146.110 9.614978E-01  -36.142 9.602043E-01  -35.918 9.098346E-03 -106.726
 4.900000000 1.363094E-02 -130.061 9.607277E-01  -36.539 9.598144E-01  -36.267 1.233685E-02 -112.295
 4.950000000 1.015236E-02 -144.540 9.598796E-01  -36.876 9.601749E-01  -36.640 9.692280E-03 -103.714
 5.000000000 1.269735E-02 -137.301 9.601183E-01  -37.216 9.601667E-01  -37.020 9.949144E-03 -112.106
 5.050000000 1.195222E-02 -122.848 9.597979E-01  -37.574 9.604438E-01  -37.347 1.274820E-02 -111.604
 5.100000000 1.246149E-02 -152.661 9.596041E-01  -38.012 9.600544E-01  -37.744 9.380669E-03 -114.422
 5.150000000 1.269309E-02 -133.257 9.600785E-01  -38.436 9.593493E-01  -38.116 1.180170E-02 -107.992
 5.200000000 1.095336E-02 -139.903 9.595434E-01  -38.751 9.596600E-01  -38.499 1.177133E-02 -103.271
 5.250000000 1.457108E-02 -149.314 9.593107E-01  -39.093 9.597122E-01  -38.881 9.902631E-03 -117.498
 5.300000000 1.071861E-02 -131.266 9.601515E-01  -39.493 9.596034E-01  -39.232 1.248240E-02 -100.811
 5.350000000 1.246127E-02 -148.996 9.609732E-01  -39.863 9.591801E-01  -39.623 1.054603E-02 -106.654
 5.400000000 1.388393E-02 -143.538 9.595952E-01  -40.031 9.592079E-01  -39.989 1.018569E-02 -111.865
 5.450000000 8.257396E-03 -147.744 9.600367E-01  -40.431 9.601650E-01  -40.352 1.054913E-02  -92.389
 5.500000000 1.456922E-02 -145.501 9.600884E-01  -40.778 9.594601E-01  -40.710 1.088340E-02 -116.000
 5.550000000 1.167268E-02 -140.457 9.597742E-01  -41.123 9.589326E-01  -41.101 1.070490E-02 -107.863
 5.600000000 1.050802E-02 -152.193 9.593352E-01  -41.520 9.599236E-01  -41.504 9.312589E-03 -101.736
 5.650000000 1.432705E-02 -139.408 9.586875E-01  -41.944 9.596822E-01  -41.825 1.136945E-02 -116.634
 5.700000000 9.736840E-03 -150.834 9.601142E-01  -42.329 9.593577E-01  -42.177 9.256399E-03 -101.253
 5.750000000 1.388703E-02 -145.864 9.608003E-01  -42.674 9.587032E-01  -42.627 1.033173E-02 -116.883
 5.800000000 1.285031E-02 -138.093 9.603527E-01  -42.975 9.591932E-01  -42.924 1.116009E-02 -111.623
 5.850000000 1.076639E-02 -158.655 9.598186E-01  -43.338 9.590540E-01  -43.286 9.083205E-03 -101.113
 5.900000000 1.473645E-02 -140.633 9.591131E-01  -43.773 9.576394E-01  -43.657 1.232424E-02 -114.472
 5.950000000 1.151051E-02 -154.395 9.589382E-01  -44.108 9.587066E-01  -44.033 9.439148E-03 -102.588
 6.000000000 1.308085E-02 -154.752 9.582748E-01  -44.501 9.588117E-01  -44.438 1.082768E-02 -110.660
 6.050000000 1.396114E-02 -134.318 9.579967E-01  -44.861 9.580438E-01  -44.706 1.281316E-02 -113.225
 6.100000000 1.339342E-02 -164.324 9.597203E-01  -45.219 9.590800E-01  -45.151 8.164541E-03 -105.021
 6.150000000 1.114576E-02 -148.736 9.588073E-01  -45.546 9.584540E-01  -45.596 1.287926E-02  -99.430
 6.200000000 1.157611E-02 -148.983 9.581654E-01  -45.974 9.587495E-01  -45.865 1.007948E-02 -106.567
 6.250000000 1.401445E-02 -162.279 9.596173E-01  -46.384 9.583378E-01  -46.246 7.347269E-03 -111.687
 6.300000000 8.890792E-03 -149.496 9.601589E-01  -46.741 9.579519E-01  -46.651 1.215490E-02  -95.376
 6.350000000 1.392883E-02 -149.377 9.589924E-01  -47.050 9.594124E-01  -46.954 9.076017E-03 -126.409
 6.400000000 1.369367E-02 -157.740 9.576584E-01  -47.354 9.587807E-01  -47.335 9.974609E-03 -104.260
 6.450000000 8.783569E-03 -162.627 9.595065E-01  -47.689 9.581631E-01  -47.695 1.112478E-02  -89.180
 6.500000000 1.367284E-02 -143.397 9.581517E-01  -48.147 9.588256E-01  -48.094 9.283438E-03 -134.172
 6.550000000 1.144302E-02 -161.827 9.562392E-01  -48.566 9.583397E-01  -48.527 9.274608E-03  -90.342
 6.600000000 9.485065E-03 -169.103 9.577458E-01  -48.915 9.582348E-01  -48.809 9.307366E-03 -100.210
 6.650000000 1.169375E-02 -142.617 9.596575E-01  -49.269 9.576979E-01  -49.195 9.674244E-03 -118.341
 6.700000000 1.111027E-02 -171.656 9.595602E-01  -49.663 9.566469E-01  -49.580 7.661585E-03  -81.737
 6.750000000 1.133212E-02 -153.784 9.586799E-01  -49.963 9.582609E-01  -49.933 1.073008E-02 -116.272
 6.800000000 9.569178E-03 -157.485 9.579895E-01  -50.332 9.581107E-01  -50.272 1.068836E-02  -97.661
 6.850000000 1.204941E-02 -166.681 9.580655E-01  -50.717 9.570817E-01  -50.574 7.884089E-03  -88.074
 6.900000000 9.186235E-03 -150.321 9.577739E-01  -51.074 9.580075E-01  -51.049 1.113958E-02 -104.972
 6.950000000 1.027718E-02 -173.125 9.579148E-01  -51.493 9.585131E-01  -51.365 7.834852E-03  -83.427
 7.000000000 1.033925E-02 -153.972 9.572140E-01  -51.818 9.575015E-01  -51.636 9.614898E-03 -101.223
 7.050000000 8.280419E-03 -167.771 9.581136E-01  -52.168 9.573223E-01  -52.166 1.079736E-02  -88.107
 7.100000000 1.024486E-02 -179.382 9.574805E-01  -52.604 9.592447E-01  -52.461 6.518333E-03  -76.969
 7.150000000 6.289365E-03 -150.706 9.582081E-01  -52.999 9.590742E-01  -52.740 1.166544E-02  -90.665
 7.200000000 1.069107E-02 -171.846 9.603825E-01  -53.351 9.572866E-01  -53.173 6.889993E-03  -77.826
 7.250000000 7.855637E-03 -167.699 9.591538E-01  -53.621 9.588429E-01  -53.569 6.147655E-03  -86.219
 7.300000000 3.288705E-03 -159.895 9.579044E-01  -53.908 9.599944E-01  -53.974 1.124281E-02  -82.629
 7.350000000 1.170005E-02 -156.094 9.579237E-01  -54.327 9.587030E-01  -54.211 4.800489E-03 -109.031
 7.400000000 5.369268E-03  160.178 9.575879E-01  -54.725 9.587481E-01  -54.754 9.897783E-03  -75.346
 7.450000000 4.574760E-03 -166.758 9.575055E-01  -55.184 9.584542E-01  -55.173 1.002774E-02  -78.932
 7.500000000 1.043014E-02 -145.484 9.570205E-01  -55.563 9.592845E-01  -55.368 5.762412E-03 -111.865
 7.550000000 8.067533E-03  138.803 9.594702E-01  -55.918 9.578819E-01  -55.883 1.165824E-02  -58.551
 7.600000000 5.930220E-03 -138.699 9.594002E-01  -56.284 9.576032E-01  -56.187 8.359140E-03  -94.883
 7.650000000 7.517877E-03 -155.134 9.581209E-01  -56.582 9.594657E-01  -56.508 7.683842E-03  -89.305
 7.700000000 1.025106E-02  151.724 9.589003E-01  -57.020 9.571741E-01  -56.967 1.146709E-02  -60.241
 7.750000000 4.612435E-03 -118.314 9.590836E-01  -57.338 9.586260E-01  -57.232 1.164252E-02  -96.906
 7.800000000 7.567770E-03  159.127 9.585782E-01  -57.629 9.591621E-01  -57.686 1.111837E-02  -53.637
 7.850000000 6.247657E-03  162.890 9.579316E-01  -58.087 9.568899E-01  -57.987 1.085855E-02  -56.826
 7.900000000 2.107530E-03   -4.990 9.585676E-01  -58.478 9.597527E-01  -58.369 1.161658E-02  -72.946
 7.950000000 9.412127E-03  162.150 9.580957E-01  -58.837 9.573385E-01  -58.770 1.002494E-02  -34.201
 8.000000000 1.030262E-03 -171.822 9.570437E-01  -59.287 9.572058E-01  -59.102 1.230246E-02  -69.585
 8.050000000 3.395653E-03  101.681 9.589801E-01  -59.681 9.595695E-01  -59.614 1.158674E-02  -54.445
 8.100000000 7.334402E-03  177.985 9.598192E-01  -60.035 9.574784E-01  -59.777 9.407299E-03  -32.108
 8.150000000 4.535494E-03   35.839 9.594927E-01  -60.316 9.583152E-01  -60.153 1.475592E-02  -63.488
 8.200000000 6.155142E-03  174.684 9.583571E-01  -60.627 9.572624E-01  -60.679 8.228474E-03  -38.781
 8.250000000 4.937950E-04 -121.706 9.583308E-01  -61.102 9.587041E-01  -60.984 1.039060E-02  -43.698
 8.300000000 4.884227E-03   43.196 9.582375E-01  -61.499 9.595757E-01  -61.421 1.520923E-02  -58.219
 8.350000000 9.346162E-03 -156.274 9.576746E-01  -61.831 9.573481E-01  -61.724 4.700139E-03  -44.352
 8.400000000 5.977958E-03   45.091 9.577404E-01  -62.310 9.587635E-01  -62.106 1.679043E-02  -46.744
 8.450000000 1.724618E-03  127.186 9.577728E-01  -62.651 9.577637E-01  -62.565 1.237853E-02  -58.499
 8.500000000 6.224009E-03 -120.384 9.583451E-01  -62.964 9.564253E-01  -62.787 5.942330E-03  -41.861
 8.550000000 1.078845E-02   66.121 9.587415E-01  -63.406 9.584710E-01  -63.362 2.038687E-02  -36.543
 8.600000000 5.959285E-03 -109.875 9.575155E-01  -63.786 9.557738E-01  -63.718 9.888629E-03  -72.898
 8.650000000 8.182814E-04    0.416 9.585685E-01  -64.098 9.577602E-01  -63.955 1.131091E-02  -37.705
 8.700000000 9.180525E-03   89.263 9.596078E-01  -64.433 9.559390E-01  -64.436 2.134212E-02  -35.372
 8.750000000 6.071510E-03  -67.525 9.575980E-01  -64.787 9.540249E-01  -64.692 1.332965E-02  -71.391
 8.800000000 3.693472E-03   99.797 9.564945E-01  -65.211 9.585200E-01  -65.065 1.654608E-02  -22.127
 8.850000000 3.011563E-03   49.863 9.560458E-01  -65.663 9.559372E-01  -65.495 1.759216E-02  -34.626
 8.900000000 9.747032E-03  -32.971 9.556935E-01  -66.053 9.552512E-01  -65.678 1.312854E-02  -55.425
 8.950000000 4.661608E-03  115.417 9.562210E-01  -66.442 9.583697E-01  -66.231 1.612723E-02  -14.142
 9.000000000 5.357728E-03   -3.140 9.571967E-01  -66.891 9.555651E-01  -66.528 1.818938E-02  -46.429
 9.050000000 5.902766E-03    1.118 9.577264E-01  -67.118 9.570760E-01  -66.869 1.615976E-02  -39.813
 9.100000000 2.766143E-03  149.475 9.567519E-01  -67.347 9.554652E-01  -67.379 1.639689E-02  -20.930
 9.150000000 1.084288E-02   -8.629 9.566631E-01  -67.864 9.547875E-01  -67.617 2.151124E-02  -42.356
 9.200000000 4.035758E-03   18.178 9.561907E-01  -68.242 9.577204E-01  -68.068 1.637435E-02  -18.528
 9.250000000 4.129795E-03    7.587 9.560863E-01  -68.502 9.545751E-01  -68.418 1.923466E-02  -27.443
 9.300000000 9.823929E-03   -4.428 9.546961E-01  -69.012 9.559578E-01  -68.755 2.119301E-02  -37.136
 9.350000000 2.219260E-03 -113.969 9.546356E-01  -69.291 9.577305E-01  -69.211 1.311229E-02  -18.526
 9.400000000 1.045502E-02   13.182 9.564601E-01  -69.730 9.549788E-01  -69.494 2.558261E-02  -33.587
 9.450000000 7.998513E-03  -17.406 9.556370E-01  -70.187 9.571903E-01  -69.879 1.838614E-02  -27.910
 9.500000000 3.583272E-03  -61.859 9.553017E-01  -70.447 9.551454E-01  -70.352 1.843950E-02  -19.137
 9.550000000 1.474035E-02   30.163 9.556214E-01  -70.940 9.552636E-01  -70.698 2.893102E-02  -27.010
 9.600000000 1.195641E-02  -52.862 9.555410E-01  -71.048 9.554862E-01  -70.900 1.440625E-02  -29.189
 9.650000000 4.755820E-03   19.314 9.568326E-01  -71.408 9.528746E-01  -71.384 2.446500E-02  -14.900
 9.700000000 1.306274E-02   11.806 9.535838E-01  -71.945 9.558385E-01  -71.721 2.814425E-02  -24.466
