! FILE NAME 
! DATE 05/07/2008  07:55
! CORRECTED   DATA
# GHz    S       MA      R    50.00
!   FREQ       S11M         S11A     S21M         S21A      S12M        S12A      S22M        S22A
 0.050000000 9.916474E-01   -1.037 1.182218E-03   50.542 1.595500E-03   60.774 2.329587E-02   -6.689
 0.100000000 9.862669E-01   -1.549 1.538667E-03   48.755 1.641880E-03   45.716 2.169161E-02   -7.239
 0.150000000 9.833002E-01   -2.002 2.072328E-03   47.158 2.104515E-03   50.067 2.152882E-02   -7.697
 0.200000000 9.812601E-01   -2.463 2.447196E-03   47.996 2.423796E-03   48.913 2.093510E-02  -10.615
 0.250000000 9.791409E-01   -2.862 2.685685E-03   51.405 2.680377E-03   48.521 2.023613E-02  -12.199
 0.300000000 9.780188E-01   -3.306 3.240007E-03   46.573 2.698184E-03   51.875 1.958377E-02  -12.551
 0.350000000 9.769204E-01   -3.803 3.118892E-03   44.177 3.067195E-03   54.702 1.999383E-02  -15.959
 0.400000000 9.745610E-01   -4.199 3.133810E-03   51.353 3.282830E-03   51.334 1.944583E-02  -16.299
 0.450000000 9.741933E-01   -4.570 3.474448E-03   52.417 3.808628E-03   53.017 1.942053E-02  -15.791
 0.500000000 9.729096E-01   -4.953 3.937442E-03   52.170 4.000584E-03   53.411 1.922915E-02  -14.483
 0.550000000 9.707785E-01   -5.360 4.218261E-03   52.673 4.115871E-03   53.812 1.738221E-02  -16.687
 0.600000000 9.716519E-01   -5.709 4.457449E-03   54.141 4.263355E-03   54.453 1.753473E-02  -18.590
 0.650000000 9.696947E-01   -6.236 4.550009E-03   55.955 4.420988E-03   55.650 1.690964E-02  -20.031
 0.700000000 9.691901E-01   -6.603 4.736683E-03   56.476 4.664144E-03   56.642 1.648514E-02  -21.573
 0.750000000 9.688829E-01   -6.969 5.100284E-03   57.845 4.993713E-03   58.211 1.650312E-02  -22.129
 0.800000000 9.683017E-01   -7.488 5.226948E-03   57.530 5.316808E-03   59.059 1.610235E-02  -23.644
 0.850000000 9.677284E-01   -7.839 5.445566E-03   57.260 5.665350E-03   58.935 1.580136E-02  -20.521
 0.900000000 9.671367E-01   -8.317 5.571608E-03   59.046 5.770736E-03   59.687 1.532094E-02  -24.055
 0.950000000 9.670588E-01   -8.703 5.790584E-03   60.122 5.987686E-03   58.675 1.528874E-02  -23.166
 1.000000000 9.654379E-01   -9.093 6.142010E-03   60.769 6.109508E-03   58.889 1.510979E-02  -18.286
 1.050000000 9.655958E-01   -9.567 6.492635E-03   59.463 6.247954E-03   59.763 1.480242E-02  -20.167
 1.100000000 9.640794E-01   -9.953 6.737018E-03   59.697 6.597721E-03   61.291 1.396649E-02  -16.762
 1.150000000 9.638458E-01  -10.499 6.874889E-03   60.117 6.779923E-03   61.696 1.348863E-02  -14.571
 1.200000000 9.640472E-01  -10.890 7.072622E-03   60.137 7.081470E-03   61.728 1.409036E-02  -17.918
 1.250000000 9.627888E-01  -11.174 7.331477E-03   61.297 7.340319E-03   60.791 1.313479E-02  -12.248
 1.300000000 9.641476E-01  -11.586 7.567083E-03   61.082 7.603021E-03   61.311 1.312691E-02   -8.137
 1.350000000 9.642470E-01  -12.057 7.768550E-03   60.480 7.735023E-03   61.086 1.317607E-02  -13.319
 1.400000000 9.622535E-01  -12.476 8.077065E-03   61.082 8.028634E-03   61.483 1.191532E-02  -11.025
 1.450000000 9.636029E-01  -12.812 8.082492E-03   61.932 8.246576E-03   61.271 1.415466E-02   -6.070
 1.500000000 9.621043E-01  -13.297 8.493892E-03   62.652 8.458789E-03   62.191 1.374248E-02   -8.160
 1.550000000 9.609019E-01  -13.706 8.814668E-03   61.577 8.710777E-03   61.897 1.230220E-02   -7.165
 1.600000000 9.619907E-01  -14.029 9.102095E-03   61.590 9.022854E-03   62.617 1.499757E-02   -2.279
 1.650000000 9.606813E-01  -14.675 9.127278E-03   61.162 9.315181E-03   61.986 1.452499E-02  -10.568
 1.700000000 9.607433E-01  -14.867 9.379886E-03   61.309 9.503866E-03   62.021 1.533566E-02   -5.768
 1.750000000 9.607500E-01  -15.214 9.576874E-03   61.512 9.691384E-03   61.846 1.719590E-02    0.824
 1.800000000 9.608258E-01  -15.813 9.959751E-03   61.426 9.961620E-03   61.398 1.648946E-02   -7.458
 1.850000000 9.597505E-01  -16.080 1.015629E-02   61.439 1.007314E-02   61.871 1.743978E-02   -1.452
 1.900000000 9.600182E-01  -16.496 1.031149E-02   61.066 1.034131E-02   62.123 1.906433E-02   -0.852
 1.950000000 9.605982E-01  -17.007 1.053508E-02   61.853 1.061310E-02   62.194 1.980425E-02   -4.226
 2.000000000 9.579092E-01  -17.343 1.085510E-02   62.454 1.085628E-02   62.483 1.934074E-02    2.344
 2.050000000 9.597553E-01  -17.816 1.119463E-02   61.825 1.121277E-02   62.086 2.041873E-02   -1.400
 2.100000000 9.584861E-01  -18.185 1.136759E-02   61.140 1.149347E-02   61.621 2.123142E-02   -3.237
 2.150000000 9.573898E-01  -18.596 1.166111E-02   60.858 1.164528E-02   62.047 2.110278E-02   -1.237
 2.200000000 9.594901E-01  -18.912 1.174729E-02   61.140 1.187073E-02   61.367 2.279288E-02   -3.474
 2.250000000 9.574973E-01  -19.416 1.197410E-02   61.280 1.211123E-02   61.404 2.192247E-02   -4.130
 2.300000000 9.573883E-01  -19.761 1.236676E-02   61.213 1.237706E-02   61.494 2.287166E-02   -6.898
 2.350000000 9.584183E-01  -20.146 1.259661E-02   60.593 1.256182E-02   61.238 2.434387E-02   -7.257
 2.400000000 9.572069E-01  -20.661 1.276502E-02   60.360 1.283091E-02   61.051 2.386469E-02   -8.319
 2.450000000 9.579109E-01  -20.917 1.295764E-02   60.427 1.312033E-02   60.866 2.574326E-02  -10.843
 2.500000000 9.570492E-01  -21.434 1.318540E-02   60.567 1.333115E-02   61.040 2.490525E-02  -12.491
 2.550000000 9.560459E-01  -21.875 1.348767E-02   60.603 1.357064E-02   60.399 2.606055E-02  -14.638
 2.600000000 9.566605E-01  -22.179 1.381164E-02   60.441 1.388633E-02   60.581 2.859751E-02  -14.685
 2.650000000 9.560107E-01  -22.657 1.403531E-02   59.892 1.401989E-02   59.844 2.739431E-02  -17.634
 2.700000000 9.553151E-01  -22.972 1.413551E-02   59.598 1.425658E-02   59.687 2.857104E-02  -15.372
 2.750000000 9.554833E-01  -23.396 1.436124E-02   59.910 1.446659E-02   60.102 2.922534E-02  -18.192
 2.800000000 9.562212E-01  -23.921 1.466637E-02   59.605 1.476898E-02   60.144 2.851581E-02  -23.278
 2.850000000 9.542770E-01  -24.345 1.502010E-02   59.232 1.510401E-02   59.502 2.956640E-02  -18.414
 2.900000000 9.560664E-01  -24.629 1.513088E-02   58.350 1.527353E-02   59.177 3.091731E-02  -22.886
 2.950000000 9.550115E-01  -25.083 1.525975E-02   58.557 1.552151E-02   59.147 2.909717E-02  -24.522
 3.000000000 9.531855E-01  -25.503 1.541873E-02   58.566 1.563470E-02   58.389 2.803631E-02  -21.563
 3.050000000 9.560054E-01  -25.901 1.577036E-02   58.649 1.590960E-02   58.504 3.129162E-02  -28.196
 3.100000000 9.531330E-01  -26.363 1.614502E-02   58.323 1.615651E-02   58.749 2.881181E-02  -27.897
 3.150000000 9.524698E-01  -26.883 1.633970E-02   57.083 1.638302E-02   58.464 2.826906E-02  -27.816
 3.200000000 9.543495E-01  -27.198 1.645925E-02   57.412 1.669662E-02   58.443 3.089714E-02  -31.188
 3.250000000 9.518936E-01  -27.723 1.676545E-02   57.320 1.703874E-02   58.096 2.782172E-02  -34.638
 3.300000000 9.528575E-01  -28.004 1.701193E-02   57.404 1.724913E-02   58.163 2.941661E-02  -33.014
 3.350000000 9.534294E-01  -28.313 1.740824E-02   57.143 1.746031E-02   57.539 2.972613E-02  -32.942
 3.400000000 9.526662E-01  -28.769 1.748374E-02   56.550 1.777844E-02   56.918 2.737864E-02  -38.285
 3.450000000 9.525354E-01  -29.059 1.766772E-02   55.877 1.774436E-02   56.704 2.889809E-02  -36.184
 3.500000000 9.524066E-01  -29.623 1.777777E-02   56.150 1.775871E-02   56.964 2.814284E-02  -38.333
 3.550000000 9.520856E-01  -30.008 1.803052E-02   56.467 1.800673E-02   56.675 2.840666E-02  -39.468
 3.600000000 9.516829E-01  -30.346 1.841960E-02   56.275 1.833996E-02   56.871 2.779770E-02  -35.779
 3.650000000 9.513279E-01  -30.882 1.860405E-02   55.535 1.868853E-02   56.792 2.638877E-02  -39.597
 3.700000000 9.502549E-01  -31.285 1.889011E-02   55.177 1.899948E-02   56.580 2.727070E-02  -36.478
 3.750000000 9.514339E-01  -31.613 1.892788E-02   55.131 1.922957E-02   56.195 2.605034E-02  -36.883
 3.800000000 9.508597E-01  -32.031 1.919758E-02   55.168 1.938745E-02   55.802 2.556844E-02  -37.730
 3.850000000 9.492061E-01  -32.276 1.946658E-02   55.048 1.954770E-02   55.352 2.514001E-02  -30.689
 3.900000000 9.527377E-01  -32.676 1.971538E-02   54.288 1.980766E-02   55.149 2.444724E-02  -36.197
 3.950000000 9.490432E-01  -33.181 1.976589E-02   54.098 1.992486E-02   55.565 2.349393E-02  -31.572
 4.000000000 9.489682E-01  -33.575 2.008914E-02   53.787 2.017397E-02   55.007 2.350202E-02  -26.123
 4.050000000 9.516268E-01  -33.917 2.031435E-02   53.851 2.042066E-02   54.879 2.403066E-02  -31.238
 4.100000000 9.487269E-01  -34.495 2.049242E-02   53.731 2.072412E-02   54.653 2.138614E-02  -23.295
 4.150000000 9.500122E-01  -34.762 2.081409E-02   53.287 2.086227E-02   54.438 2.289828E-02  -22.676
 4.200000000 9.488873E-01  -35.274 2.092142E-02   52.963 2.105270E-02   54.082 2.410228E-02  -23.069
 4.250000000 9.489267E-01  -35.707 2.101153E-02   52.977 2.129022E-02   54.045 2.145296E-02  -16.215
 4.300000000 9.491683E-01  -35.858 2.128211E-02   53.152 2.147215E-02   53.612 2.501426E-02  -15.267
 4.350000000 9.490121E-01  -36.332 2.156608E-02   52.948 2.181100E-02   53.555 2.443334E-02  -13.581
 4.400000000 9.491031E-01  -36.836 2.195306E-02   52.865 2.194861E-02   53.710 2.433595E-02  -10.928
 4.450000000 9.468526E-01  -36.986 2.209956E-02   52.417 2.225329E-02   53.636 2.909395E-02   -6.891
 4.500000000 9.489344E-01  -37.633 2.235065E-02   52.448 2.249207E-02   53.485 2.781113E-02   -5.077
 4.550000000 9.488129E-01  -37.865 2.255501E-02   52.120 2.295490E-02   52.911 3.008141E-02   -3.234
 4.600000000 9.463948E-01  -38.253 2.307831E-02   52.266 2.308018E-02   52.945 3.243859E-02    0.701
 4.650000000 9.481875E-01  -38.744 2.332272E-02   51.843 2.335009E-02   52.782 3.253700E-02   -1.092
 4.700000000 9.470057E-01  -38.981 2.346590E-02   51.278 2.362018E-02   52.409 3.687759E-02    1.828
 4.750000000 9.462923E-01  -39.617 2.360350E-02   51.095 2.375255E-02   52.529 3.730085E-02    2.953
 4.800000000 9.472676E-01  -39.797 2.380979E-02   50.998 2.407999E-02   52.071 3.944238E-02    2.364
 4.850000000 9.453753E-01  -40.190 2.422847E-02   51.205 2.439620E-02   51.894 4.239238E-02    4.772
 4.900000000 9.482180E-01  -40.774 2.451632E-02   50.701 2.476764E-02   51.819 4.267365E-02    0.786
 4.950000000 9.449049E-01  -41.132 2.480477E-02   50.402 2.506711E-02   51.647 4.722763E-02    2.800
 5.000000000 9.456931E-01  -41.570 2.505628E-02   49.968 2.534426E-02   51.358 4.863862E-02    2.669
 5.050000000 9.488722E-01  -41.873 2.523394E-02   50.080 2.550759E-02   50.818 5.021086E-02   -2.104
 5.100000000 9.433605E-01  -42.257 2.558515E-02   49.960 2.584509E-02   50.454 5.307922E-02    1.167
 5.150000000 9.473299E-01  -42.686 2.592386E-02   49.467 2.600397E-02   50.601 5.601946E-02   -3.358
 5.200000000 9.463084E-01  -42.967 2.637889E-02   49.031 2.633681E-02   50.155 5.914449E-02   -4.690
 5.250000000 9.432725E-01  -43.605 2.649190E-02   48.683 2.664543E-02   49.799 5.950996E-02   -2.597
 5.300000000 9.477917E-01  -43.774 2.680487E-02   48.573 2.697191E-02   49.759 6.502186E-02   -7.657
 5.350000000 9.438069E-01  -44.234 2.707878E-02   48.426 2.730961E-02   49.370 6.627932E-02   -7.062
 5.400000000 9.447367E-01  -44.721 2.750255E-02   48.026 2.771981E-02   48.684 6.785875E-02   -7.766
 5.450000000 9.451065E-01  -44.811 2.773202E-02   47.717 2.800039E-02   48.559 7.389265E-02   -9.742
 5.500000000 9.437604E-01  -45.617 2.807737E-02   47.230 2.826070E-02   47.717 7.190662E-02  -10.905
 5.550000000 9.450500E-01  -45.847 2.824631E-02   46.654 2.837910E-02   47.668 7.637937E-02  -12.705
 5.600000000 9.431517E-01  -46.179 2.849947E-02   46.839 2.869198E-02   47.097 7.989746E-02  -13.594
 5.650000000 9.453582E-01  -46.803 2.890446E-02   46.162 2.894395E-02   46.788 7.950321E-02  -16.455
 5.700000000 9.437723E-01  -46.897 2.925562E-02   45.648 2.940995E-02   46.627 8.459729E-02  -16.751
 5.750000000 9.434208E-01  -47.540 2.959664E-02   45.004 2.964277E-02   46.349 8.443799E-02  -19.044
 5.800000000 9.449097E-01  -47.878 2.960661E-02   44.741 2.994252E-02   45.890 8.774247E-02  -21.734
 5.850000000 9.416572E-01  -48.094 2.977664E-02   44.619 3.019073E-02   45.297 9.107072E-02  -21.970
 5.900000000 9.446924E-01  -48.756 3.020668E-02   44.553 3.044075E-02   45.079 9.131476E-02  -25.940
 5.950000000 9.419194E-01  -48.918 3.055631E-02   43.663 3.068351E-02   44.347 9.559017E-02  -25.746
 6.000000000 9.420188E-01  -49.437 3.066584E-02   43.281 3.091247E-02   44.085 9.628707E-02  -28.519
 6.050000000 9.454410E-01  -49.862 3.084685E-02   43.021 3.129688E-02   43.983 9.863777E-02  -31.508
 6.100000000 9.395367E-01  -50.136 3.117813E-02   42.904 3.134025E-02   43.441 1.009383E-01  -30.998
 6.150000000 9.443386E-01  -50.547 3.148888E-02   42.427 3.161342E-02   43.234 1.050067E-01  -35.132
 6.200000000 9.431284E-01  -50.960 3.177582E-02   41.801 3.212689E-02   42.922 1.047767E-01  -35.636
 6.250000000 9.400457E-01  -51.449 3.201940E-02   41.491 3.242767E-02   42.412 1.048095E-01  -36.406
 6.300000000 9.435336E-01  -51.667 3.224138E-02   40.765 3.247758E-02   41.996 1.107115E-01  -39.990
 6.350000000 9.413107E-01  -52.264 3.236756E-02   40.830 3.289467E-02   41.568 1.060820E-01  -41.222
 6.400000000 9.409398E-01  -52.587 3.277056E-02   40.897 3.295878E-02   41.175 1.108506E-01  -43.096
 6.450000000 9.409984E-01  -52.804 3.319085E-02   40.003 3.336556E-02   40.690 1.151167E-01  -44.486
 6.500000000 9.423758E-01  -53.446 3.341809E-02   39.479 3.359076E-02   40.521 1.090314E-01  -47.440
 6.550000000 9.421627E-01  -53.721 3.369499E-02   39.034 3.387530E-02   39.952 1.160633E-01  -47.947
 6.600000000 9.399428E-01  -53.990 3.388987E-02   38.681 3.422145E-02   39.544 1.159852E-01  -50.127
 6.650000000 9.436218E-01  -54.474 3.412839E-02   38.319 3.454713E-02   39.092 1.144372E-01  -53.176
 6.700000000 9.389120E-01  -54.807 3.445714E-02   37.597 3.477408E-02   38.677 1.175675E-01  -52.297
 6.750000000 9.414194E-01  -55.281 3.474859E-02   36.940 3.495769E-02   37.699 1.172187E-01  -56.928
 6.800000000 9.420236E-01  -55.600 3.482680E-02   36.365 3.519898E-02   37.320 1.196116E-01  -57.854
 6.850000000 9.396621E-01  -56.099 3.503657E-02   36.033 3.549292E-02   36.903 1.186930E-01  -58.006
 6.900000000 9.425988E-01  -56.378 3.503696E-02   35.790 3.536128E-02   36.673 1.203788E-01  -62.105
 6.950000000 9.386213E-01  -56.755 3.537028E-02   35.352 3.578946E-02   36.039 1.194506E-01  -61.465
 7.000000000 9.416828E-01  -57.158 3.557144E-02   34.912 3.608280E-02   35.836 1.203395E-01  -64.686
 7.050000000 9.410185E-01  -57.500 3.596706E-02   34.306 3.603461E-02   35.332 1.219098E-01  -65.965
 7.100000000 9.379607E-01  -57.964 3.584416E-02   33.666 3.647237E-02   34.677 1.177986E-01  -66.050
 7.150000000 9.429748E-01  -58.209 3.597819E-02   33.449 3.658708E-02   33.923 1.222803E-01  -69.519
 7.200000000 9.391305E-01  -58.861 3.628355E-02   33.175 3.664196E-02   33.865 1.177483E-01  -69.452
 7.250000000 9.392260E-01  -59.117 3.649279E-02   32.797 3.678654E-02   33.232 1.166518E-01  -71.388
 7.300000000 9.407837E-01  -59.242 3.649945E-02   32.278 3.679007E-02   32.955 1.212255E-01  -73.584
 7.350000000 9.402881E-01  -60.098 3.656646E-02   31.717 3.711247E-02   32.875 1.131796E-01  -75.310
 7.400000000 9.377306E-01  -60.028 3.669009E-02   31.531 3.721957E-02   32.438 1.183214E-01  -75.881
 7.450000000 9.399480E-01  -60.540 3.700964E-02   31.455 3.735492E-02   31.792 1.175348E-01  -77.502
 7.500000000 9.417910E-01  -61.204 3.710296E-02   30.857 3.778438E-02   31.744 1.116829E-01  -80.418
 7.550000000 9.350183E-01  -61.136 3.750067E-02   30.335 3.770928E-02   31.404 1.158585E-01  -78.397
 7.600000000 9.420212E-01  -61.742 3.746214E-02   29.579 3.791075E-02   30.968 1.125365E-01  -82.615
 7.650000000 9.406440E-01  -62.156 3.752322E-02   29.556 3.813984E-02   30.197 1.107185E-01  -83.612
 7.700000000 9.339409E-01  -62.507 3.773870E-02   29.366 3.805372E-02   30.295 1.120518E-01  -82.040
 7.750000000 9.435524E-01  -62.765 3.790469E-02   28.994 3.845702E-02   30.068 1.125240E-01  -86.706
 7.800000000 9.369828E-01  -63.304 3.816629E-02   28.683 3.849411E-02   29.613 1.089216E-01  -83.771
 7.850000000 9.372202E-01  -63.688 3.814624E-02   28.447 3.871963E-02   29.555 1.073224E-01  -84.809
 7.900000000 9.433647E-01  -63.645 3.813992E-02   28.091 3.880177E-02   28.924 1.080608E-01  -87.557
 7.950000000 9.352166E-01  -64.648 3.841941E-02   27.915 3.902595E-02   28.898 1.005688E-01  -85.103
 8.000000000 9.406368E-01  -64.683 3.850289E-02   27.768 3.932535E-02   28.537 1.052659E-01  -88.098
 8.050000000 9.382051E-01  -64.998 3.894117E-02   27.160 3.924875E-02   27.956 1.013755E-01  -87.318
 8.100000000 9.368459E-01  -65.862 3.877982E-02   26.834 3.938985E-02   28.013 9.586147E-02  -86.946
 8.150000000 9.395101E-01  -65.552 3.921824E-02   26.888 3.966878E-02   27.739 1.030697E-01  -88.616
 8.200000000 9.359559E-01  -66.589 3.931686E-02   26.804 3.967907E-02   27.684 9.269014E-02  -88.316
 8.250000000 9.388361E-01  -66.678 3.938998E-02   26.416 4.007315E-02   27.340 9.476230E-02  -87.995
 8.300000000 9.372048E-01  -66.775 3.987657E-02   26.036 4.047596E-02   26.863 9.842599E-02  -88.545
 8.350000000 9.378119E-01  -67.985 3.980526E-02   25.537 4.045196E-02   26.631 8.824119E-02  -90.416
 8.400000000 9.359180E-01  -67.492 3.988332E-02   25.379 4.078826E-02   26.138 9.692673E-02  -85.998
 8.450000000 9.368098E-01  -68.256 4.007061E-02   25.294 4.062303E-02   25.886 9.384245E-02  -88.571
 8.500000000 9.404838E-01  -68.841 4.035717E-02   25.107 4.102382E-02   25.975 8.787503E-02  -89.193
 8.550000000 9.314279E-01  -68.524 4.075264E-02   24.680 4.106259E-02   25.259 9.521614E-02  -82.851
 8.600000000 9.405098E-01  -69.640 4.104335E-02   24.152 4.115777E-02   25.505 9.170734E-02  -89.802
 8.650000000 9.372529E-01  -69.637 4.094220E-02   24.002 4.171603E-02   25.140 9.029456E-02  -86.082
 8.700000000 9.308976E-01  -69.917 4.139224E-02   24.162 4.203723E-02   25.127 9.517449E-02  -81.263
 8.750000000 9.426577E-01  -70.579 4.169173E-02   23.604 4.224718E-02   24.859 9.507818E-02  -87.935
 8.800000000 9.323118E-01  -71.017 4.201892E-02   23.459 4.267807E-02   24.184 9.081500E-02  -80.070
 8.850000000 9.350630E-01  -71.310 4.221433E-02   22.800 4.274759E-02   23.986 9.508297E-02  -80.812
 8.900000000 9.417771E-01  -71.436 4.224404E-02   22.635 4.314312E-02   23.743 9.702785E-02  -84.864
 8.950000000 9.315841E-01  -72.187 4.228965E-02   22.417 4.321939E-02   23.224 9.177174E-02  -79.288
 9.000000000 9.380715E-01  -72.322 4.293686E-02   22.331 4.366730E-02   22.989 1.023595E-01  -81.769
 9.050000000 9.368365E-01  -72.602 4.325257E-02   21.742 4.404523E-02   22.924 1.010030E-01  -81.810
 9.100000000 9.327368E-01  -73.474 4.345576E-02   21.371 4.409035E-02   22.529 9.848684E-02  -79.172
 9.150000000 9.386599E-01  -73.179 4.362800E-02   20.975 4.454235E-02   22.394 1.098976E-01  -80.223
 9.200000000 9.347597E-01  -73.945 4.390681E-02   20.849 4.476916E-02   21.857 1.025734E-01  -80.181
 9.250000000 9.347593E-01  -74.303 4.411395E-02   20.656 4.509534E-02   21.459 1.079362E-01  -79.663
 9.300000000 9.366039E-01  -74.391 4.461995E-02   20.139 4.532158E-02   20.911 1.141959E-01  -80.709
 9.350000000 9.357210E-01  -75.363 4.501114E-02   19.757 4.561420E-02   20.478 1.073981E-01  -82.283
 9.400000000 9.337699E-01  -75.129 4.513256E-02   19.198 4.587986E-02   20.547 1.214697E-01  -79.703
 9.450000000 9.368326E-01  -75.680 4.530172E-02   18.962 4.632056E-02   19.827 1.178116E-01  -82.359
 9.500000000 9.363677E-01  -76.447 4.567679E-02   18.596 4.660408E-02   19.759 1.179861E-01  -82.073
 9.550000000 9.285527E-01  -76.153 4.618901E-02   18.105 4.699240E-02   18.824 1.289997E-01  -79.808
 9.600000000 9.421480E-01  -76.916 4.665868E-02   17.556 4.737124E-02   18.541 1.249411E-01  -86.390
 9.650000000 9.323069E-01  -77.410 4.682360E-02   16.958 4.773297E-02   18.276 1.275278E-01  -82.342
 9.700000000 9.308430E-01  -77.286 4.689772E-02   16.523 4.799277E-02   17.385 1.360502E-01  -83.396
