! Touchstone file from project SPST_2c_spar
# GHZ S MA R 50.000000
! Modal data exported
! Port[1] = Port1
! Port[2] = Port2
5.000000E-002    9.934044E-001    -6.754162E-001   2.466187E-003    5.348472E+000    3.751973E-003    8.891220E+001    9.869307E-001    -4.041265E-001   
! Port Impedance  5.000000E+001    0.000000E+000    5.000000E+001    0.000000E+000    

1.000000E-001    9.901783E-001    -9.709252E-001   3.513121E-003    5.151437E+001    3.755480E-003    5.085838E+001    9.902481E-001    -9.374141E-001   
! Port Impedance  5.000000E+001    0.000000E+000    5.000000E+001    0.000000E+000    

1.500000E-001    9.905317E-001    -1.380117E+000   4.439970E-003    4.792351E+001    4.629033E-003    4.829223E+001    9.901249E-001    -1.358246E+000   
! Port Impedance  5.000000E+001    0.000000E+000    5.000000E+001    0.000000E+000    

2.000000E-001    9.889228E-001    -1.636201E+000   5.055542E-003    5.074668E+001    5.366186E-003    5.008988E+001    9.888734E-001    -1.682355E+000   
! Port Impedance  5.000000E+001    0.000000E+000    5.000000E+001    0.000000E+000    

2.500000E-001    9.871164E-001    -1.974599E+000   5.781036E-003    5.192988E+001    6.064549E-003    5.124099E+001    9.870722E-001    -2.077228E+000   
! Port Impedance  5.000000E+001    0.000000E+000    5.000000E+001    0.000000E+000    

3.000000E-001    9.858764E-001    -2.224612E+000   6.206889E-003    5.490503E+001    6.910284E-003    5.269186E+001    9.860083E-001    -2.322500E+000   
! Port Impedance  5.000000E+001    0.000000E+000    5.000000E+001    0.000000E+000    

3.500000E-001    9.851768E-001    -2.527914E+000   6.916511E-003    5.481988E+001    7.546858E-003    5.362130E+001    9.851406E-001    -2.678581E+000   
! Port Impedance  5.000000E+001    0.000000E+000    5.000000E+001    0.000000E+000    

4.000000E-001    9.842437E-001    -2.865228E+000   7.618768E-003    5.590745E+001    8.006900E-003    5.532757E+001    9.855189E-001    -3.050436E+000   
! Port Impedance  5.000000E+001    0.000000E+000    5.000000E+001    0.000000E+000    

4.500000E-001    9.835271E-001    -3.281553E+000   8.166974E-003    5.487003E+001    8.594624E-003    5.622267E+001    9.845219E-001    -3.465080E+000   
! Port Impedance  5.000000E+001    0.000000E+000    5.000000E+001    0.000000E+000    

5.000000E-001    9.837133E-001    -3.650452E+000   8.667796E-003    5.680758E+001    9.272541E-003    5.684082E+001    9.840904E-001    -3.874269E+000   
! Port Impedance  5.000000E+001    0.000000E+000    5.000000E+001    0.000000E+000    

5.500000E-001    9.826703E-001    -3.953235E+000   9.139038E-003    5.817860E+001    1.007178E-002    5.733317E+001    9.832569E-001    -4.179311E+000   
! Port Impedance  5.000000E+001    0.000000E+000    5.000000E+001    0.000000E+000    

6.000000E-001    9.829921E-001    -4.248478E+000   9.749863E-003    5.890554E+001    1.037074E-002    5.832093E+001    9.828254E-001    -4.534499E+000   
! Port Impedance  5.000000E+001    0.000000E+000    5.000000E+001    0.000000E+000    

6.500000E-001    9.819857E-001    -4.435999E+000   1.048103E-002    5.850893E+001    1.091072E-002    5.680047E+001    9.827757E-001    -4.797709E+000   
! Port Impedance  5.000000E+001    0.000000E+000    5.000000E+001    0.000000E+000    

7.000000E-001    9.817298E-001    -4.713057E+000   1.083949E-002    5.920947E+001    1.139445E-002    5.969200E+001    9.819144E-001    -5.132882E+000   
! Port Impedance  5.000000E+001    0.000000E+000    5.000000E+001    0.000000E+000    

7.500000E-001    9.813875E-001    -5.098941E+000   1.151597E-002    5.966382E+001    1.217695E-002    5.842365E+001    9.812636E-001    -5.521176E+000   
! Port Impedance  5.000000E+001    0.000000E+000    5.000000E+001    0.000000E+000    

8.000000E-001    9.810581E-001    -5.388931E+000   1.185172E-002    6.015797E+001    1.272006E-002    5.942614E+001    9.808703E-001    -5.844688E+000   
! Port Impedance  5.000000E+001    0.000000E+000    5.000000E+001    0.000000E+000    

8.500000E-001    9.808483E-001    -5.713082E+000   1.250033E-002    5.942459E+001    1.325864E-002    5.913187E+001    9.806341E-001    -6.188806E+000   
! Port Impedance  5.000000E+001    0.000000E+000    5.000000E+001    0.000000E+000    

9.000000E-001    9.803131E-001    -6.041332E+000   1.294391E-002    6.051212E+001    1.388997E-002    6.023544E+001    9.807611E-001    -6.497489E+000   
! Port Impedance  5.000000E+001    0.000000E+000    5.000000E+001    0.000000E+000    

9.500000E-001    9.799036E-001    -6.357272E+000   1.364379E-002    6.055020E+001    1.456690E-002    6.016539E+001    9.797634E-001    -6.886484E+000   
! Port Impedance  5.000000E+001    0.000000E+000    5.000000E+001    0.000000E+000    

1.000000E+000    9.789937E-001    -6.631919E+000   1.415533E-002    6.053910E+001    1.493040E-002    6.028191E+001    9.790385E-001    -7.232689E+000   
! Port Impedance  5.000000E+001    0.000000E+000    5.000000E+001    0.000000E+000    

1.050000E+000    9.791442E-001    -6.947405E+000   1.470590E-002    6.098930E+001    1.563674E-002    6.058263E+001    9.785057E-001    -7.557963E+000   
! Port Impedance  5.000000E+001    0.000000E+000    5.000000E+001    0.000000E+000    

1.100000E+000    9.788534E-001    -7.295884E+000   1.529661E-002    6.086998E+001    1.615036E-002    6.043570E+001    9.779551E-001    -7.901169E+000   
! Port Impedance  5.000000E+001    0.000000E+000    5.000000E+001    0.000000E+000    

1.150000E+000    9.784149E-001    -7.613157E+000   1.591023E-002    6.116508E+001    1.674805E-002    6.031340E+001    9.779509E-001    -8.272280E+000   
! Port Impedance  5.000000E+001    0.000000E+000    5.000000E+001    0.000000E+000    

1.200000E+000    9.785275E-001    -7.932461E+000   1.627064E-002    6.097846E+001    1.729853E-002    6.047276E+001    9.774072E-001    -8.603815E+000   
! Port Impedance  5.000000E+001    0.000000E+000    5.000000E+001    0.000000E+000    

1.250000E+000    9.777650E-001    -8.224529E+000   1.694383E-002    6.119148E+001    1.790373E-002    6.032348E+001    9.767106E-001    -8.925000E+000   
! Port Impedance  5.000000E+001    0.000000E+000    5.000000E+001    0.000000E+000    

1.300000E+000    9.772912E-001    -8.552122E+000   1.745225E-002    6.099620E+001    1.850174E-002    6.080222E+001    9.763318E-001    -9.276194E+000   
! Port Impedance  5.000000E+001    0.000000E+000    5.000000E+001    0.000000E+000    

1.350000E+000    9.775021E-001    -8.832077E+000   1.798424E-002    6.106620E+001    1.899443E-002    6.035322E+001    9.758755E-001    -9.627664E+000   
! Port Impedance  5.000000E+001    0.000000E+000    5.000000E+001    0.000000E+000    

1.400000E+000    9.773706E-001    -9.157929E+000   1.845622E-002    6.113131E+001    1.963662E-002    6.027707E+001    9.752686E-001    -9.994813E+000   
! Port Impedance  5.000000E+001    0.000000E+000    5.000000E+001    0.000000E+000    

1.450000E+000    9.768355E-001    -9.479320E+000   1.895831E-002    6.107646E+001    2.008550E-002    6.026214E+001    9.752294E-001    -1.030519E+001   
! Port Impedance  5.000000E+001    0.000000E+000    5.000000E+001    0.000000E+000    

1.500000E+000    9.766501E-001    -9.761074E+000   1.963311E-002    6.105639E+001    2.070741E-002    6.025855E+001    9.743678E-001    -1.064466E+001   
! Port Impedance  5.000000E+001    0.000000E+000    5.000000E+001    0.000000E+000    

1.550000E+000    9.762723E-001    -1.010772E+001   2.011102E-002    6.119095E+001    2.125075E-002    6.043341E+001    9.741063E-001    -1.100178E+001   
! Port Impedance  5.000000E+001    0.000000E+000    5.000000E+001    0.000000E+000    

1.600000E+000    9.764139E-001    -1.038142E+001   2.060003E-002    6.051401E+001    2.184464E-002    5.994541E+001    9.734262E-001    -1.131426E+001   
! Port Impedance  5.000000E+001    0.000000E+000    5.000000E+001    0.000000E+000    

1.650000E+000    9.757325E-001    -1.070601E+001   2.110809E-002    6.098174E+001    2.213956E-002    6.008250E+001    9.732297E-001    -1.168796E+001   
! Port Impedance  5.000000E+001    0.000000E+000    5.000000E+001    0.000000E+000    

1.700000E+000    9.755857E-001    -1.103774E+001   2.162849E-002    6.069947E+001    2.285520E-002    5.999908E+001    9.724096E-001    -1.198921E+001   
! Port Impedance  5.000000E+001    0.000000E+000    5.000000E+001    0.000000E+000    

1.750000E+000    9.751897E-001    -1.133032E+001   2.230084E-002    6.054291E+001    2.347407E-002    6.004771E+001    9.720001E-001    -1.233373E+001   
! Port Impedance  5.000000E+001    0.000000E+000    5.000000E+001    0.000000E+000    

1.800000E+000    9.751174E-001    -1.168028E+001   2.294730E-002    6.077978E+001    2.417908E-002    6.016859E+001    9.719163E-001    -1.267550E+001   
! Port Impedance  5.000000E+001    0.000000E+000    5.000000E+001    0.000000E+000    

1.850000E+000    9.750180E-001    -1.194370E+001   2.339093E-002    5.999732E+001    2.466695E-002    5.947605E+001    9.710615E-001    -1.295844E+001   
! Port Impedance  5.000000E+001    0.000000E+000    5.000000E+001    0.000000E+000    

1.900000E+000    9.748261E-001    -1.226001E+001   2.395702E-002    6.005531E+001    2.522644E-002    5.942940E+001    9.704736E-001    -1.332041E+001   
! Port Impedance  5.000000E+001    0.000000E+000    5.000000E+001    0.000000E+000    

1.950000E+000    9.748348E-001    -1.259502E+001   2.437188E-002    5.976899E+001    2.580690E-002    5.889007E+001    9.706726E-001    -1.367355E+001   
! Port Impedance  5.000000E+001    0.000000E+000    5.000000E+001    0.000000E+000    

2.000000E+000    9.743446E-001    -1.287774E+001   2.476697E-002    5.952494E+001    2.620637E-002    5.863917E+001    9.695681E-001    -1.398847E+001   
! Port Impedance  5.000000E+001    0.000000E+000    5.000000E+001    0.000000E+000    

2.050000E+000    9.743564E-001    -1.321170E+001   2.534271E-002    5.967332E+001    2.680077E-002    5.882690E+001    9.695645E-001    -1.435883E+001   
! Port Impedance  5.000000E+001    0.000000E+000    5.000000E+001    0.000000E+000    

2.100000E+000    9.738311E-001    -1.350412E+001   2.576874E-002    5.907324E+001    2.729731E-002    5.850562E+001    9.683424E-001    -1.461475E+001   
! Port Impedance  5.000000E+001    0.000000E+000    5.000000E+001    0.000000E+000    

2.150000E+000    9.732339E-001    -1.384339E+001   2.631473E-002    5.929654E+001    2.781247E-002    5.830646E+001    9.684602E-001    -1.500448E+001   
! Port Impedance  5.000000E+001    0.000000E+000    5.000000E+001    0.000000E+000    

2.200000E+000    9.732721E-001    -1.408973E+001   2.670497E-002    5.853392E+001    2.828479E-002    5.795908E+001    9.674804E-001    -1.531162E+001   
! Port Impedance  5.000000E+001    0.000000E+000    5.000000E+001    0.000000E+000    

2.250000E+000    9.730911E-001    -1.445990E+001   2.738268E-002    5.872237E+001    2.880629E-002    5.780348E+001    9.673902E-001    -1.565885E+001   
! Port Impedance  5.000000E+001    0.000000E+000    5.000000E+001    0.000000E+000    

2.300000E+000    9.729347E-001    -1.473848E+001   2.763134E-002    5.860045E+001    2.928901E-002    5.766451E+001    9.669292E-001    -1.599430E+001   
! Port Impedance  5.000000E+001    0.000000E+000    5.000000E+001    0.000000E+000    

2.350000E+000    9.729217E-001    -1.507124E+001   2.822121E-002    5.817983E+001    2.981355E-002    5.770164E+001    9.661820E-001    -1.633654E+001   
! Port Impedance  5.000000E+001    0.000000E+000    5.000000E+001    0.000000E+000    

2.400000E+000    9.725331E-001    -1.539241E+001   2.848850E-002    5.861267E+001    3.035988E-002    5.749298E+001    9.658546E-001    -1.661676E+001   
! Port Impedance  5.000000E+001    0.000000E+000    5.000000E+001    0.000000E+000    

2.450000E+000    9.724223E-001    -1.566462E+001   2.913410E-002    5.812283E+001    3.075702E-002    5.726834E+001    9.651601E-001    -1.698373E+001   
! Port Impedance  5.000000E+001    0.000000E+000    5.000000E+001    0.000000E+000    

2.500000E+000    9.721844E-001    -1.599117E+001   2.969794E-002    5.775677E+001    3.133926E-002    5.710294E+001    9.647491E-001    -1.732846E+001   
! Port Impedance  5.000000E+001    0.000000E+000    5.000000E+001    0.000000E+000    

2.550000E+000    9.715661E-001    -1.631640E+001   2.998947E-002    5.820882E+001    3.169165E-002    5.726973E+001    9.639986E-001    -1.763813E+001   
! Port Impedance  5.000000E+001    0.000000E+000    5.000000E+001    0.000000E+000    

2.600000E+000    9.714709E-001    -1.662898E+001   3.068792E-002    5.768816E+001    3.235064E-002    5.703942E+001    9.634553E-001    -1.797379E+001   
! Port Impedance  5.000000E+001    0.000000E+000    5.000000E+001    0.000000E+000    

2.650000E+000    9.715858E-001    -1.691602E+001   3.115513E-002    5.791650E+001    3.283185E-002    5.702388E+001    9.630785E-001    -1.828826E+001   
! Port Impedance  5.000000E+001    0.000000E+000    5.000000E+001    0.000000E+000    

2.700000E+000    9.707460E-001    -1.723073E+001   3.164842E-002    5.757604E+001    3.354472E-002    5.697226E+001    9.624134E-001    -1.861197E+001   
! Port Impedance  5.000000E+001    0.000000E+000    5.000000E+001    0.000000E+000    

2.750000E+000    9.711795E-001    -1.752324E+001   3.230332E-002    5.762654E+001    3.422869E-002    5.666146E+001    9.617027E-001    -1.894624E+001   
! Port Impedance  5.000000E+001    0.000000E+000    5.000000E+001    0.000000E+000    

2.800000E+000    9.707243E-001    -1.783932E+001   3.300160E-002    5.729566E+001    3.481956E-002    5.625950E+001    9.615077E-001    -1.923365E+001   
! Port Impedance  5.000000E+001    0.000000E+000    5.000000E+001    0.000000E+000    

2.850000E+000    9.711852E-001    -1.815273E+001   3.362184E-002    5.656579E+001    3.560433E-002    5.575284E+001    9.611597E-001    -1.959393E+001   
! Port Impedance  5.000000E+001    0.000000E+000    5.000000E+001    0.000000E+000    

2.900000E+000    9.706794E-001    -1.845369E+001   3.383754E-002    5.608052E+001    3.591786E-002    5.539685E+001    9.609515E-001    -1.989528E+001   
! Port Impedance  5.000000E+001    0.000000E+000    5.000000E+001    0.000000E+000    

2.950000E+000    9.709170E-001    -1.878213E+001   3.455843E-002    5.584363E+001    3.639965E-002    5.504502E+001    9.608704E-001    -2.025282E+001   
! Port Impedance  5.000000E+001    0.000000E+000    5.000000E+001    0.000000E+000    

3.000000E+000    9.708216E-001    -1.909749E+001   3.458320E-002    5.589099E+001    3.683678E-002    5.473635E+001    9.601382E-001    -2.058642E+001   
! Port Impedance  5.000000E+001    0.000000E+000    5.000000E+001    0.000000E+000    

3.050000E+000    9.706083E-001    -1.942631E+001   3.533780E-002    5.530950E+001    3.719685E-002    5.456810E+001    9.599303E-001    -2.089239E+001   
! Port Impedance  5.000000E+001    0.000000E+000    5.000000E+001    0.000000E+000    

3.100000E+000    9.711071E-001    -1.974929E+001   3.581811E-002    5.501826E+001    3.766699E-002    5.413226E+001    9.592425E-001    -2.124678E+001   
! Port Impedance  5.000000E+001    0.000000E+000    5.000000E+001    0.000000E+000    

3.150000E+000    9.695452E-001    -2.003288E+001   3.582418E-002    5.503002E+001    3.807717E-002    5.397402E+001    9.593758E-001    -2.158837E+001   
! Port Impedance  5.000000E+001    0.000000E+000    5.000000E+001    0.000000E+000    

3.200000E+000    9.693540E-001    -2.040948E+001   3.667926E-002    5.432746E+001    3.849399E-002    5.322271E+001    9.586473E-001    -2.188971E+001   
! Port Impedance  5.000000E+001    0.000000E+000    5.000000E+001    0.000000E+000    

3.250000E+000    9.697215E-001    -2.073066E+001   3.690554E-002    5.440310E+001    3.899853E-002    5.354392E+001    9.578592E-001    -2.225412E+001   
! Port Impedance  5.000000E+001    0.000000E+000    5.000000E+001    0.000000E+000    

3.300000E+000    9.687455E-001    -2.102123E+001   3.715582E-002    5.347133E+001    3.943113E-002    5.318344E+001    9.580796E-001    -2.255053E+001   
! Port Impedance  5.000000E+001    0.000000E+000    5.000000E+001    0.000000E+000    

3.350000E+000    9.693735E-001    -2.138310E+001   3.801084E-002    5.397381E+001    3.978683E-002    5.305809E+001    9.567187E-001    -2.289995E+001   
! Port Impedance  5.000000E+001    0.000000E+000    5.000000E+001    0.000000E+000    

3.400000E+000    9.683626E-001    -2.168132E+001   3.811515E-002    5.375275E+001    4.057853E-002    5.269697E+001    9.558866E-001    -2.317715E+001   
! Port Impedance  5.000000E+001    0.000000E+000    5.000000E+001    0.000000E+000    

3.450000E+000    9.681668E-001    -2.200280E+001   3.870441E-002    5.376432E+001    4.088427E-002    5.261148E+001    9.554064E-001    -2.353028E+001   
! Port Impedance  5.000000E+001    0.000000E+000    5.000000E+001    0.000000E+000    

3.500000E+000    9.678088E-001    -2.231722E+001   3.938170E-002    5.338027E+001    4.145083E-002    5.271601E+001    9.552598E-001    -2.388787E+001   
! Port Impedance  5.000000E+001    0.000000E+000    5.000000E+001    0.000000E+000    

3.550000E+000    9.672564E-001    -2.259902E+001   3.939124E-002    5.360070E+001    4.180142E-002    5.273290E+001    9.546037E-001    -2.416590E+001   
! Port Impedance  5.000000E+001    0.000000E+000    5.000000E+001    0.000000E+000    

3.600000E+000    9.670052E-001    -2.292361E+001   4.046459E-002    5.326767E+001    4.248030E-002    5.220447E+001    9.535941E-001    -2.452497E+001   
! Port Impedance  5.000000E+001    0.000000E+000    5.000000E+001    0.000000E+000    

3.650000E+000    9.667162E-001    -2.320577E+001   4.061523E-002    5.340533E+001    4.286689E-002    5.245857E+001    9.536023E-001    -2.481564E+001   
! Port Impedance  5.000000E+001    0.000000E+000    5.000000E+001    0.000000E+000    

3.700000E+000    9.661419E-001    -2.352135E+001   4.162864E-002    5.316785E+001    4.375808E-002    5.193945E+001    9.528861E-001    -2.512089E+001   
! Port Impedance  5.000000E+001    0.000000E+000    5.000000E+001    0.000000E+000    

3.750000E+000    9.668301E-001    -2.381124E+001   4.181816E-002    5.250036E+001    4.411333E-002    5.170153E+001    9.529261E-001    -2.547121E+001   
! Port Impedance  5.000000E+001    0.000000E+000    5.000000E+001    0.000000E+000    

3.800000E+000    9.658835E-001    -2.411345E+001   4.260462E-002    5.202597E+001    4.493317E-002    5.115717E+001    9.520343E-001    -2.574101E+001   
! Port Impedance  5.000000E+001    0.000000E+000    5.000000E+001    0.000000E+000    

3.850000E+000    9.662271E-001    -2.444738E+001   4.289874E-002    5.207825E+001    4.515443E-002    5.080807E+001    9.520478E-001    -2.609467E+001   
! Port Impedance  5.000000E+001    0.000000E+000    5.000000E+001    0.000000E+000    

3.900000E+000    9.660362E-001    -2.473620E+001   4.323940E-002    5.124375E+001    4.572647E-002    5.057145E+001    9.520291E-001    -2.635355E+001   
! Port Impedance  5.000000E+001    0.000000E+000    5.000000E+001    0.000000E+000    

3.950000E+000    9.655419E-001    -2.506283E+001   4.392217E-002    5.140395E+001    4.614962E-002    5.004889E+001    9.515472E-001    -2.673368E+001   
! Port Impedance  5.000000E+001    0.000000E+000    5.000000E+001    0.000000E+000    

4.000000E+000    9.656769E-001    -2.537150E+001   4.434088E-002    5.130532E+001    4.673644E-002    5.015240E+001    9.513370E-001    -2.709153E+001   
! Port Impedance  5.000000E+001    0.000000E+000    5.000000E+001    0.000000E+000    

4.050000E+000    9.654419E-001    -2.568225E+001   4.474387E-002    5.005719E+001    4.715115E-002    4.974891E+001    9.507848E-001    -2.735715E+001   
! Port Impedance  5.000000E+001    0.000000E+000    5.000000E+001    0.000000E+000    

