! Touchstone file from project SPST_2c_spar
# GHZ S MA R 50.000000
! Modal data exported
! Port[1] = Port1
! Port[2] = Port2
5.000000E-002    1.979603E-002    -2.118907E+000   9.766626E-001    -4.608089E-001   9.795473E-001    -3.983646E-001   1.612522E-002    -9.843822E+000   
! Port Impedance  5.000000E+001    0.000000E+000    5.000000E+001    0.000000E+000    

1.000000E-001    1.725702E-002    -3.659866E+000   9.761774E-001    -7.049023E-001   9.767150E-001    -7.265356E-001   1.557907E-002    -4.089701E+000   
! Port Impedance  5.000000E+001    0.000000E+000    5.000000E+001    0.000000E+000    

1.500000E-001    1.695539E-002    -5.552960E-001   9.764873E-001    -1.078873E+000   9.777424E-001    -1.080912E+000   1.538012E-002    -4.556190E+000   
! Port Impedance  5.000000E+001    0.000000E+000    5.000000E+001    0.000000E+000    

2.000000E-001    1.640458E-002    1.387415E-001    9.753257E-001    -1.285950E+000   9.765803E-001    -1.381152E+000   1.492329E-002    -2.408982E+000   
! Port Impedance  5.000000E+001    0.000000E+000    5.000000E+001    0.000000E+000    

2.500000E-001    1.576424E-002    1.489871E+000    9.755920E-001    -1.668965E+000   9.753630E-001    -1.675258E+000   1.501881E-002    -2.333043E+000   
! Port Impedance  5.000000E+001    0.000000E+000    5.000000E+001    0.000000E+000    

3.000000E-001    1.635075E-002    4.217213E+000    9.736656E-001    -1.875800E+000   9.757140E-001    -1.998381E+000   1.422618E-002    1.096950E+000    
! Port Impedance  5.000000E+001    0.000000E+000    5.000000E+001    0.000000E+000    

3.500000E-001    1.581640E-002    7.254589E+000    9.733923E-001    -2.176716E+000   9.748668E-001    -2.262981E+000   1.390275E-002    1.554289E+000    
! Port Impedance  5.000000E+001    0.000000E+000    5.000000E+001    0.000000E+000    

4.000000E-001    1.546475E-002    8.820420E+000    9.731242E-001    -2.435231E+000   9.753575E-001    -2.551480E+000   1.387974E-002    1.551345E+000    
! Port Impedance  5.000000E+001    0.000000E+000    5.000000E+001    0.000000E+000    

4.500000E-001    1.540202E-002    9.633339E+000    9.725458E-001    -2.840060E+000   9.747912E-001    -2.866405E+000   1.393738E-002    3.017707E+000    
! Port Impedance  5.000000E+001    0.000000E+000    5.000000E+001    0.000000E+000    

5.000000E-001    1.566110E-002    1.086664E+001    9.726991E-001    -3.218010E+000   9.742472E-001    -3.215885E+000   1.412595E-002    3.204644E+000    
! Port Impedance  5.000000E+001    0.000000E+000    5.000000E+001    0.000000E+000    

5.500000E-001    1.557615E-002    1.366090E+001    9.728417E-001    -3.517194E+000   9.740977E-001    -3.471136E+000   1.400410E-002    4.479423E+000    
! Port Impedance  5.000000E+001    0.000000E+000    5.000000E+001    0.000000E+000    

6.000000E-001    1.573791E-002    1.531462E+001    9.727113E-001    -3.792691E+000   9.743368E-001    -3.822031E+000   1.368470E-002    6.989734E+000    
! Port Impedance  5.000000E+001    0.000000E+000    5.000000E+001    0.000000E+000    

6.500000E-001    1.573564E-002    1.603564E+001    9.724362E-001    -3.953523E+000   9.734701E-001    -4.043219E+000   1.357108E-002    8.269069E+000    
! Port Impedance  5.000000E+001    0.000000E+000    5.000000E+001    0.000000E+000    

7.000000E-001    1.599000E-002    1.824333E+001    9.721833E-001    -4.229455E+000   9.734835E-001    -4.339356E+000   1.335522E-002    8.968303E+000    
! Port Impedance  5.000000E+001    0.000000E+000    5.000000E+001    0.000000E+000    

7.500000E-001    1.605394E-002    2.017014E+001    9.719374E-001    -4.539938E+000   9.729814E-001    -4.679678E+000   1.341912E-002    9.350223E+000    
! Port Impedance  5.000000E+001    0.000000E+000    5.000000E+001    0.000000E+000    

8.000000E-001    1.610713E-002    2.244582E+001    9.719234E-001    -4.834550E+000   9.730923E-001    -4.950378E+000   1.365342E-002    1.202181E+001    
! Port Impedance  5.000000E+001    0.000000E+000    5.000000E+001    0.000000E+000    

8.500000E-001    1.620971E-002    2.298638E+001    9.715685E-001    -5.154045E+000   9.734029E-001    -5.276155E+000   1.349150E-002    1.307708E+001    
! Port Impedance  5.000000E+001    0.000000E+000    5.000000E+001    0.000000E+000    

9.000000E-001    1.690510E-002    2.539923E+001    9.715944E-001    -5.433145E+000   9.727490E-001    -5.574614E+000   1.444617E-002    1.511604E+001    
! Port Impedance  5.000000E+001    0.000000E+000    5.000000E+001    0.000000E+000    

9.500000E-001    1.680322E-002    2.634130E+001    9.712035E-001    -5.733729E+000   9.726882E-001    -5.850604E+000   1.377105E-002    1.583822E+001    
! Port Impedance  5.000000E+001    0.000000E+000    5.000000E+001    0.000000E+000    

1.000000E+000    1.701018E-002    2.758042E+001    9.708978E-001    -6.048725E+000   9.729270E-001    -6.175568E+000   1.374800E-002    1.657072E+001    
! Port Impedance  5.000000E+001    0.000000E+000    5.000000E+001    0.000000E+000    

1.050000E+000    1.721949E-002    2.964846E+001    9.712659E-001    -6.325745E+000   9.716731E-001    -6.426314E+000   1.375551E-002    1.668569E+001    
! Port Impedance  5.000000E+001    0.000000E+000    5.000000E+001    0.000000E+000    

1.100000E+000    1.757006E-002    3.090847E+001    9.709069E-001    -6.635050E+000   9.721925E-001    -6.755508E+000   1.388901E-002    1.880813E+001    
! Port Impedance  5.000000E+001    0.000000E+000    5.000000E+001    0.000000E+000    

1.150000E+000    1.761444E-002    3.183049E+001    9.713081E-001    -6.910031E+000   9.720886E-001    -7.037027E+000   1.417243E-002    1.919659E+001    
! Port Impedance  5.000000E+001    0.000000E+000    5.000000E+001    0.000000E+000    

1.200000E+000    1.808158E-002    3.363295E+001    9.704399E-001    -7.255593E+000   9.718639E-001    -7.350603E+000   1.412283E-002    2.052418E+001    
! Port Impedance  5.000000E+001    0.000000E+000    5.000000E+001    0.000000E+000    

1.250000E+000    1.841865E-002    3.467338E+001    9.706984E-001    -7.499681E+000   9.716062E-001    -7.644461E+000   1.432020E-002    2.190342E+001    
! Port Impedance  5.000000E+001    0.000000E+000    5.000000E+001    0.000000E+000    

1.300000E+000    1.861781E-002    3.576257E+001    9.705832E-001    -7.800796E+000   9.710952E-001    -7.921413E+000   1.444398E-002    2.230742E+001    
! Port Impedance  5.000000E+001    0.000000E+000    5.000000E+001    0.000000E+000    

1.350000E+000    1.925499E-002    3.664824E+001    9.698601E-001    -8.131365E+000   9.718244E-001    -8.247569E+000   1.477539E-002    2.394122E+001    
! Port Impedance  5.000000E+001    0.000000E+000    5.000000E+001    0.000000E+000    

1.400000E+000    1.921622E-002    3.820745E+001    9.705064E-001    -8.403838E+000   9.710652E-001    -8.516283E+000   1.470148E-002    2.457323E+001    
! Port Impedance  5.000000E+001    0.000000E+000    5.000000E+001    0.000000E+000    

1.450000E+000    1.992560E-002    3.820612E+001    9.694985E-001    -8.733819E+000   9.708626E-001    -8.795138E+000   1.475859E-002    2.524427E+001    
! Port Impedance  5.000000E+001    0.000000E+000    5.000000E+001    0.000000E+000    

1.500000E+000    2.024234E-002    4.063172E+001    9.702935E-001    -9.015139E+000   9.707638E-001    -9.103104E+000   1.523847E-002    2.716877E+001    
! Port Impedance  5.000000E+001    0.000000E+000    5.000000E+001    0.000000E+000    

1.550000E+000    2.023450E-002    4.012338E+001    9.695358E-001    -9.304223E+000   9.705407E-001    -9.418735E+000   1.515107E-002    2.704855E+001    
! Port Impedance  5.000000E+001    0.000000E+000    5.000000E+001    0.000000E+000    

1.600000E+000    2.135630E-002    4.200148E+001    9.693048E-001    -9.598907E+000   9.709267E-001    -9.690411E+000   1.562962E-002    2.934585E+001    
! Port Impedance  5.000000E+001    0.000000E+000    5.000000E+001    0.000000E+000    

1.650000E+000    2.169810E-002    4.367271E+001    9.698681E-001    -9.889261E+000   9.712144E-001    -9.998459E+000   1.421285E-002    2.617928E+001    
! Port Impedance  5.000000E+001    0.000000E+000    5.000000E+001    0.000000E+000    

1.700000E+000    2.179665E-002    4.311402E+001    9.690963E-001    -1.018147E+001   9.703508E-001    -1.029785E+001   1.597834E-002    3.006202E+001    
! Port Impedance  5.000000E+001    0.000000E+000    5.000000E+001    0.000000E+000    

1.750000E+000    2.249195E-002    4.508037E+001    9.693183E-001    -1.049698E+001   9.704353E-001    -1.057789E+001   1.621566E-002    3.210462E+001    
! Port Impedance  5.000000E+001    0.000000E+000    5.000000E+001    0.000000E+000    

1.800000E+000    2.252954E-002    4.468966E+001    9.693288E-001    -1.074253E+001   9.702186E-001    -1.090609E+001   1.621917E-002    3.174093E+001    
! Port Impedance  5.000000E+001    0.000000E+000    5.000000E+001    0.000000E+000    

1.850000E+000    2.349655E-002    4.602413E+001    9.691944E-001    -1.108444E+001   9.703286E-001    -1.113591E+001   1.707299E-002    3.282701E+001    
! Port Impedance  5.000000E+001    0.000000E+000    5.000000E+001    0.000000E+000    

1.900000E+000    2.351238E-002    4.595146E+001    9.691630E-001    -1.136181E+001   9.699771E-001    -1.146946E+001   1.699473E-002    3.327646E+001    
! Port Impedance  5.000000E+001    0.000000E+000    5.000000E+001    0.000000E+000    

1.950000E+000    2.421917E-002    4.599320E+001    9.693950E-001    -1.163490E+001   9.697373E-001    -1.177341E+001   1.741032E-002    3.276019E+001    
! Port Impedance  5.000000E+001    0.000000E+000    5.000000E+001    0.000000E+000    

2.000000E+000    2.476077E-002    4.719119E+001    9.687773E-001    -1.199800E+001   9.702398E-001    -1.206973E+001   1.749863E-002    3.459184E+001    
! Port Impedance  5.000000E+001    0.000000E+000    5.000000E+001    0.000000E+000    

2.050000E+000    2.478970E-002    4.718851E+001    9.691160E-001    -1.221279E+001   9.693598E-001    -1.233135E+001   1.744866E-002    3.412035E+001    
! Port Impedance  5.000000E+001    0.000000E+000    5.000000E+001    0.000000E+000    

2.100000E+000    2.577845E-002    4.819052E+001    9.680566E-001    -1.259188E+001   9.692239E-001    -1.266038E+001   1.803441E-002    3.570271E+001    
! Port Impedance  5.000000E+001    0.000000E+000    5.000000E+001    0.000000E+000    

2.150000E+000    2.577366E-002    4.826935E+001    9.690843E-001    -1.283459E+001   9.690836E-001    -1.294619E+001   1.818116E-002    3.592008E+001    
! Port Impedance  5.000000E+001    0.000000E+000    5.000000E+001    0.000000E+000    

2.200000E+000    2.664368E-002    4.855907E+001    9.681718E-001    -1.319273E+001   9.693361E-001    -1.321417E+001   1.838750E-002    3.537621E+001    
! Port Impedance  5.000000E+001    0.000000E+000    5.000000E+001    0.000000E+000    

2.250000E+000    2.674533E-002    4.976145E+001    9.687708E-001    -1.341375E+001   9.685529E-001    -1.348285E+001   1.882218E-002    3.659525E+001    
! Port Impedance  5.000000E+001    0.000000E+000    5.000000E+001    0.000000E+000    

2.300000E+000    2.736896E-002    4.942233E+001    9.676929E-001    -1.369100E+001   9.688590E-001    -1.381608E+001   1.875430E-002    3.709453E+001    
! Port Impedance  5.000000E+001    0.000000E+000    5.000000E+001    0.000000E+000    

2.350000E+000    2.814034E-002    5.012065E+001    9.688022E-001    -1.407931E+001   9.694012E-001    -1.411814E+001   1.922628E-002    3.662266E+001    
! Port Impedance  5.000000E+001    0.000000E+000    5.000000E+001    0.000000E+000    

2.400000E+000    2.878725E-002    5.021931E+001    9.679876E-001    -1.425014E+001   9.692386E-001    -1.438018E+001   1.997265E-002    3.954577E+001    
! Port Impedance  5.000000E+001    0.000000E+000    5.000000E+001    0.000000E+000    

2.450000E+000    2.885845E-002    5.065401E+001    9.678770E-001    -1.465797E+001   9.687971E-001    -1.469262E+001   1.960998E-002    3.795806E+001    
! Port Impedance  5.000000E+001    0.000000E+000    5.000000E+001    0.000000E+000    

2.500000E+000    2.927225E-002    5.085298E+001    9.681883E-001    -1.489377E+001   9.681933E-001    -1.497090E+001   2.004034E-002    3.883725E+001    
! Port Impedance  5.000000E+001    0.000000E+000    5.000000E+001    0.000000E+000    

2.550000E+000    2.981898E-002    5.130136E+001    9.668723E-001    -1.517769E+001   9.681767E-001    -1.534275E+001   2.005094E-002    4.019186E+001    
! Port Impedance  5.000000E+001    0.000000E+000    5.000000E+001    0.000000E+000    

2.600000E+000    3.005596E-002    5.180418E+001    9.673596E-001    -1.554776E+001   9.683604E-001    -1.554992E+001   2.045204E-002    3.930627E+001    
! Port Impedance  5.000000E+001    0.000000E+000    5.000000E+001    0.000000E+000    

2.650000E+000    3.093041E-002    5.180168E+001    9.670996E-001    -1.576153E+001   9.677854E-001    -1.584512E+001   2.081804E-002    4.129109E+001    
! Port Impedance  5.000000E+001    0.000000E+000    5.000000E+001    0.000000E+000    

2.700000E+000    3.121955E-002    5.230895E+001    9.667758E-001    -1.612268E+001   9.674603E-001    -1.616746E+001   2.096419E-002    4.021269E+001    
! Port Impedance  5.000000E+001    0.000000E+000    5.000000E+001    0.000000E+000    

2.750000E+000    3.206304E-002    5.268684E+001    9.674224E-001    -1.636517E+001   9.680033E-001    -1.638767E+001   2.187422E-002    4.158893E+001    
! Port Impedance  5.000000E+001    0.000000E+000    5.000000E+001    0.000000E+000    

2.800000E+000    3.295183E-002    5.259188E+001    9.670809E-001    -1.667447E+001   9.681947E-001    -1.673552E+001   2.219598E-002    4.227165E+001    
! Port Impedance  5.000000E+001    0.000000E+000    5.000000E+001    0.000000E+000    

2.850000E+000    3.286991E-002    5.262342E+001    9.677627E-001    -1.692395E+001   9.679393E-001    -1.693354E+001   2.269862E-002    3.944585E+001    
! Port Impedance  5.000000E+001    0.000000E+000    5.000000E+001    0.000000E+000    

2.900000E+000    3.431184E-002    5.212108E+001    9.664268E-001    -1.729728E+001   9.683480E-001    -1.731191E+001   2.295280E-002    4.169365E+001    
! Port Impedance  5.000000E+001    0.000000E+000    5.000000E+001    0.000000E+000    

2.950000E+000    3.408283E-002    5.296592E+001    9.680557E-001    -1.753359E+001   9.681355E-001    -1.758427E+001   2.303388E-002    3.997357E+001    
! Port Impedance  5.000000E+001    0.000000E+000    5.000000E+001    0.000000E+000    

3.000000E+000    3.452220E-002    5.226601E+001    9.666139E-001    -1.788054E+001   9.691256E-001    -1.781672E+001   2.375605E-002    4.110726E+001    
! Port Impedance  5.000000E+001    0.000000E+000    5.000000E+001    0.000000E+000    

3.050000E+000    3.560561E-002    5.257507E+001    9.673845E-001    -1.818711E+001   9.673313E-001    -1.818247E+001   2.356993E-002    4.144969E+001    
! Port Impedance  5.000000E+001    0.000000E+000    5.000000E+001    0.000000E+000    

3.100000E+000    3.561757E-002    5.286476E+001    9.676026E-001    -1.846893E+001   9.686782E-001    -1.847382E+001   2.380688E-002    3.980192E+001    
! Port Impedance  5.000000E+001    0.000000E+000    5.000000E+001    0.000000E+000    

3.150000E+000    3.622509E-002    5.233331E+001    9.653946E-001    -1.881089E+001   9.681287E-001    -1.881570E+001   2.466398E-002    4.283498E+001    
! Port Impedance  5.000000E+001    0.000000E+000    5.000000E+001    0.000000E+000    

3.200000E+000    3.682983E-002    5.219373E+001    9.672840E-001    -1.914241E+001   9.692441E-001    -1.905720E+001   2.347624E-002    4.122174E+001    
! Port Impedance  5.000000E+001    0.000000E+000    5.000000E+001    0.000000E+000    

3.250000E+000    3.695519E-002    5.303347E+001    9.657164E-001    -1.935384E+001   9.662124E-001    -1.940949E+001   2.509315E-002    4.048095E+001    
! Port Impedance  5.000000E+001    0.000000E+000    5.000000E+001    0.000000E+000    

3.300000E+000    3.790975E-002    5.244791E+001    9.656744E-001    -1.980158E+001   9.681255E-001    -1.972651E+001   2.430439E-002    4.300393E+001    
! Port Impedance  5.000000E+001    0.000000E+000    5.000000E+001    0.000000E+000    

3.350000E+000    3.760360E-002    5.301989E+001    9.666359E-001    -1.996136E+001   9.672105E-001    -2.001798E+001   2.489648E-002    4.086234E+001    
! Port Impedance  5.000000E+001    0.000000E+000    5.000000E+001    0.000000E+000    

3.400000E+000    3.848246E-002    5.297948E+001    9.648277E-001    -2.032792E+001   9.676014E-001    -2.021057E+001   2.541890E-002    4.172228E+001    
! Port Impedance  5.000000E+001    0.000000E+000    5.000000E+001    0.000000E+000    

3.450000E+000    3.897797E-002    5.323878E+001    9.646176E-001    -2.064971E+001   9.667142E-001    -2.058765E+001   2.526465E-002    4.176195E+001    
! Port Impedance  5.000000E+001    0.000000E+000    5.000000E+001    0.000000E+000    

3.500000E+000    3.939633E-002    5.340927E+001    9.661000E-001    -2.088142E+001   9.662755E-001    -2.080548E+001   2.611610E-002    4.032107E+001    
! Port Impedance  5.000000E+001    0.000000E+000    5.000000E+001    0.000000E+000    

3.550000E+000    4.005035E-002    5.289371E+001    9.629811E-001    -2.117854E+001   9.676339E-001    -2.119808E+001   2.607513E-002    4.276642E+001    
! Port Impedance  5.000000E+001    0.000000E+000    5.000000E+001    0.000000E+000    

3.600000E+000    4.054124E-002    5.410993E+001    9.660238E-001    -2.142103E+001   9.664074E-001    -2.137850E+001   2.625554E-002    4.078161E+001    
! Port Impedance  5.000000E+001    0.000000E+000    5.000000E+001    0.000000E+000    

3.650000E+000    4.113428E-002    5.338000E+001    9.627175E-001    -2.174741E+001   9.664004E-001    -2.176805E+001   2.747447E-002    4.300175E+001    
! Port Impedance  5.000000E+001    0.000000E+000    5.000000E+001    0.000000E+000    

3.700000E+000    4.184387E-002    5.354470E+001    9.646038E-001    -2.195638E+001   9.667903E-001    -2.197707E+001   2.750189E-002    4.264577E+001    
! Port Impedance  5.000000E+001    0.000000E+000    5.000000E+001    0.000000E+000    

3.750000E+000    4.219849E-002    5.328704E+001    9.629820E-001    -2.232189E+001   9.660681E-001    -2.234855E+001   2.841927E-002    4.192608E+001    
! Port Impedance  5.000000E+001    0.000000E+000    5.000000E+001    0.000000E+000    

3.800000E+000    4.335794E-002    5.332102E+001    9.649924E-001    -2.257756E+001   9.663416E-001    -2.249687E+001   2.868270E-002    4.167067E+001    
! Port Impedance  5.000000E+001    0.000000E+000    5.000000E+001    0.000000E+000    

3.850000E+000    4.312815E-002    5.296641E+001    9.625215E-001    -2.282142E+001   9.668990E-001    -2.294763E+001   2.902833E-002    4.177544E+001    
! Port Impedance  5.000000E+001    0.000000E+000    5.000000E+001    0.000000E+000    

3.900000E+000    4.459106E-002    5.241944E+001    9.654547E-001    -2.325588E+001   9.661811E-001    -2.315565E+001   2.957268E-002    4.161781E+001    
! Port Impedance  5.000000E+001    0.000000E+000    5.000000E+001    0.000000E+000    

3.950000E+000    4.479278E-002    5.276991E+001    9.640615E-001    -2.341292E+001   9.677917E-001    -2.349627E+001   2.948406E-002    4.130093E+001    
! Port Impedance  5.000000E+001    0.000000E+000    5.000000E+001    0.000000E+000    

4.000000E+000    4.476353E-002    5.249115E+001    9.634221E-001    -2.368507E+001   9.650692E-001    -2.377685E+001   2.988894E-002    4.003191E+001    
! Port Impedance  5.000000E+001    0.000000E+000    5.000000E+001    0.000000E+000    

4.050000E+000    4.584181E-002    5.278468E+001    9.660013E-001    -2.418289E+001   9.650102E-001    -2.403319E+001   3.010497E-002    4.080196E+001    
! Port Impedance  5.000000E+001    0.000000E+000    5.000000E+001    0.000000E+000    

