<Qucs Dataset 0.0.20>
<indep frequency 124>
  +1.00000000000000000000e+09
  +1.04746422055330467224e+09
  +1.09718129333934235573e+09
  +1.14925814823336100578e+09
  +1.20380679045379185677e+09
  +1.26094454145945668221e+09
  +1.32079429128077411652e+09
  +1.38348476282767081261e+09
  +1.44915078874265980721e+09
  +1.51793360139453697205e+09
  +1.58998113663639950752e+09
  +1.66544835198130393028e+09
  +1.74449755987988233566e+09
  +1.82729877681672334671e+09
  +1.91403008897633624077e+09
  +2.00487803526517057419e+09
  +2.10003800851347303391e+09
  +2.19971467571987962723e+09
  +2.30412241824258947372e+09
  +2.41348579288386917114e+09
  +2.52804001485957717896e+09
  +2.64803146369245195389e+09
  +2.77371821311724090576e+09
  +2.90537058613735628128e+09
  +3.04327173642686414719e+09
  +3.18771825732826757431e+09
  +3.33902081975589323044e+09
  +3.49750484037686347961e+09
  +3.66351118150676155090e+09
  +3.83739688422529697418e+09
  +4.01953593628873062134e+09
  +4.21032007649067449570e+09
  +4.41015963720123386383e+09
  +4.61948442689663600922e+09
  +4.83874465457741546631e+09
  +5.06841189806340122223e+09
  +5.30898011824807834625e+09
  +5.56096672149371433258e+09
  +5.82491367245228004456e+09
  +6.10138865970551586151e+09
  +6.39098631673121070862e+09
  +6.69432950082169437408e+09
  +7.01207063270519065857e+09
  +7.34489309975126075745e+09
  +7.69351272577830028534e+09
  +8.05867931062429904938e+09
  +8.44117824279212665558e+09
  +8.84183218863776779175e+09
  +9.26150286173458099365e+09
  +9.70109287621901702881e+09
  +1.01615476881039676666e+10
  +1.06438576287350597382e+10
  +1.11490600347633171082e+10
  +1.16782414792153549194e+10
  +1.22325401084595870972e+10
  +1.28131480900946617126e+10
  +1.34213141770250663757e+10
  +1.40583463932385826111e+10
  +1.47256148470620174408e+10
  +1.54245546779459915161e+10
  +1.61566691431165237427e+10
  +1.69235328507321834564e+10
  +1.77267951465004348755e+10
  +1.85681836610371818542e+10
  +1.94495080255989227295e+10
  +2.03726637641792221069e+10
  +2.13396363703405380249e+10
  +2.23525055775497093201e+10
  +2.34134498322015113831e+10
  +2.45247509789508514404e+10
  +2.56887991684306564331e+10
  +2.69080979979106063843e+10
  +2.81852698959533805847e+10
  +2.95230617626493186951e+10
  +3.09243508775605545044e+10
  +3.23921510880808715820e+10
  +3.39296192915215034485e+10
  +3.55400622248639526367e+10
  +3.72269435767830810547e+10
  +3.89938914372369308472e+10
  +4.08447061006455764771e+10
  +4.27833682394415359497e+10
  +4.48140474655716247559e+10
  +4.69411112983638000488e+10
  +4.91691345580465698242e+10
  +5.15029092051248016357e+10
  +5.39474546467736816406e+10
  +5.65080285324175338745e+10
  +5.91901380617126541138e+10
  +6.19995518292543487549e+10
  +6.49423122314841384888e+10
  +6.80247484624809036255e+10
  +7.12534901265871734619e+10
  +7.46354814971481781006e+10
  +7.81779964520309295654e+10
  +8.18886541180456237793e+10
  +8.57754352579178314209e+10
  +8.98466994350553894043e+10
  +9.41112029930273437500e+10
  +9.85781178884252471924e+10
  +1.03257051417611068726e+11
  +1.08158066879780502319e+11
  +1.13291705220781509399e+11
  +1.18669007704240692139e+11
  +1.24301539658756607056e+11
  +1.30201415352235214233e+11
  +1.36381324046866073608e+11
  +1.42854557290778259277e+11
  +1.49635037505072479248e+11
  +1.56737347927715332031e+11
  +1.64176763978696472168e+11
  +1.71969286113909210205e+11
  +1.80131674238414031982e+11
  +1.88681483753102203369e+11
  +1.97637103312284271240e+11
  +2.07017794373414855957e+11
  +2.16843732624013336182e+11
  +2.27136051374881378174e+11
  +2.37916887012945556641e+11
  +2.49209426611483520508e+11
  +2.61037957800133666992e+11
  +2.73427921001943511963e+11
  +2.86405964149811401367e+11
  +2.99999999999999938965e+11
</indep>
<dep dBS21 frequency>
  +3.87309733883179907465e+00
  +4.15548953874731452629e+00
  +4.42907112888493070813e+00
  +4.69304163870174573248e+00
  +4.94657723939654303535e+00
  +5.18883438690749265731e+00
  +5.41895467550597231821e+00
  +5.63607098302376030574e+00
  +5.83931494954575569523e+00
  +6.02782577881757575256e+00
  +6.20076028593346606499e+00
  +6.35730403814379485539e+00
  +6.49668335156729881419e+00
  +6.61817782106129737230e+00
  +6.72113298101524847539e+00
  +6.80497263020816767209e+00
  +6.86921031292518247113e+00
  +6.91345943920101468905e+00
  +6.93744155477474500060e+00
  +6.94099233774884005754e+00
  +6.92406500134169533567e+00
  +6.88673091314618623926e+00
  +6.82917738973626242682e+00
  +6.75170277776636851286e+00
  +6.65470907438433023628e+00
  +6.53869245856196545930e+00
  +6.40423219086894501828e+00
  +6.25197838743436129505e+00
  +6.08263918353233101755e+00
  +5.89696777714828535011e+00
  +5.69574978967343437120e+00
  +5.47979130815429549273e+00
  +5.24990789022218873328e+00
  +5.00691472727433151135e+00
  +4.75161808044748301683e+00
  +4.48480803224909596594e+00
  +4.20725253736228133050e+00
  +3.91969271022151488637e+00
  +3.62283925427584829748e+00
  +3.31736991711628226298e+00
  +3.00392784515624811092e+00
  +2.68312070913123168481e+00
  +2.35552047545420339958e+00
  +2.02166370641954751264e+00
  +1.68205228290743380448e+00
  +1.33715445530395582452e+00
  +9.87406140804146570389e-01
  +6.33212397489697598196e-01
  +2.74949017006233809024e-01
  -8.70358118548164583217e-02
  -4.52419807124060824322e-01
  -8.20904895505611076345e-01
  -1.19221553554018822041e+00
  -1.56609707965216315984e+00
  -1.94231418781451536937e+00
  -2.32064930155476956131e+00
  -2.70090118380536647891e+00
  -3.08288352751089345105e+00
  -3.46642363382157459029e+00
  -3.85136115917376464779e+00
  -4.23754692925818510219e+00
  -4.62484181699980467783e+00
  -5.01311568099017179634e+00
  -5.40224636032147298437e+00
  -5.79211872146241546488e+00
  -6.18262375261243501967e+00
  -6.57365770086793421711e+00
  -6.96512124752117323112e+00
  -7.35691871683102327495e+00
  -7.74895731371601392823e+00
  -8.14114638592480410750e+00
  -8.53339670641607739299e+00
  -8.92561977186663035866e+00
  -9.31772711345792359339e+00
  -9.70962961635311749831e+00
  -1.01012368445652072069e+01
  -1.04924563682826104127e+01
  -1.08831930910846974569e+01
  -1.12733485749635811146e+01
  -1.16628203615783014868e+01
  -1.20515012887831467481e+01
  -1.24392788021925699837e+01
  -1.28260342623590837263e+01
  -1.32116422490869940276e+01
  -1.35959698655177696480e+01
  -1.39788760458462508751e+01
  -1.43602108719621739397e+01
  -1.47398149058934748723e+01
  -1.51175185466950416924e+01
  -1.54931414223776968697e+01
  -1.58664918295402852522e+01
  -1.62373662356253376515e+01
  -1.66055488609854471349e+01
  -1.69708113602797254771e+01
  -1.73329126249620486533e+01
  -1.76915987306492752396e+01
  -1.80466030549074787359e+01
  -1.83976465921648681956e+01
  -1.87444384930064202877e+01
  -1.90866768546417837626e+01
  -1.94240497878487232697e+01
  -1.97562367826969840223e+01
  -2.00829103908305661719e+01
  -2.04037382359477703631e+01
  -2.07183853558355579594e+01
  -2.10265168696055937403e+01
  -2.13278009520569113988e+01
  -2.16219120841935392718e+01
  -2.19085345350453799540e+01
  -2.21873660158162238076e+01
  -2.24581214336698842260e+01
  -2.27205366604148792931e+01
  -2.29743722214373633506e+01
  -2.32194168038662525078e+01
  -2.34554904805668016365e+01
  -2.36824475492575601265e+01
  -2.39001788933873591247e+01
  -2.41086137843020189564e+01
  -2.43077210612834058168e+01
  -2.44975096471272557608e+01
  -2.46780283803645588137e+01
  -2.48493651699604534144e+01
  -2.50116455027136126432e+01
  -2.51650303559815995413e+01
</dep>
<dep dBH21 frequency>
  +8.49893282613067313491e+00
  +8.48867574370628474867e+00
  +8.47926740528300371125e+00
  +8.47063216320953671357e+00
  +8.46270014633447331676e+00
  +8.45540680182724990743e+00
  +8.44869245992742001761e+00
  +8.44250192144075839451e+00
  +8.43678406746590425769e+00
  +8.43149149058394797862e+00
  +8.42658014651850351129e+00
  +8.42200902512864679750e+00
  +8.41773983948228199381e+00
  +8.41373673166156521575e+00
  +8.40996599389720422835e+00
  +8.40639580359272819976e+00
  +8.40299597077601490014e+00
  +8.39973769649358104061e+00
  +8.39659334067265739066e+00
  +8.39353619797019590010e+00
  +8.39054028013854846790e+00
  +8.38758010343632420813e+00
  +8.38463047962730101403e+00
  +8.38166630912182064606e+00
  +8.37866237479812170363e+00
  +8.37559313508106129120e+00
  +8.37243251481479688891e+00
  +8.36915369250321639072e+00
  +8.36572888247282087093e+00
  +8.36212911050885665531e+00
  +8.35832398153267241980e+00
  +8.35428143787548549426e+00
  +8.34996750671933085641e+00
  +8.34534603529224128238e+00
  +8.34037841243234367994e+00
  +8.33502327516633201299e+00
  +8.32923619902605771870e+00
  +8.32296937088540467187e+00
  +8.31617124324260181822e+00
  +8.30878616899082089731e+00
  +8.30075401595122741583e+00
  +8.29200976066217521065e+00
  +8.28248306125414934797e+00
  +8.27209780962679097627e+00
  +8.26077166362779635733e+00
  +8.24841556051502422520e+00
  +8.23493321370152386862e+00
  +8.22022059560137208223e+00
  +8.20416541039629443333e+00
  +8.18664656168610527232e+00
  +8.16753362129868420993e+00
  +8.14668630705014429338e+00
  +8.12395397892983162080e+00
  +8.09917516504619960926e+00
  +8.07217713072166276334e+00
  +8.04277550628331994176e+00
  +8.01077399139087908964e+00
  +7.97596415603000075123e+00
  +7.93812536059824047641e+00
  +7.89702481956794510864e+00
  +7.85241783504979373731e+00
  +7.80404822793165209305e+00
  +7.75164899491298520218e+00
  +7.69494321961942517873e+00
  +7.63364526468538340254e+00
  +7.56746226906673413737e+00
  +7.49609597071514244249e+00
  +7.41924486887985956685e+00
  +7.33660673259374451760e+00
  +7.24788145238445835616e+00
  +7.15277422098734572131e+00
  +7.05099901611631985077e+00
  +6.94228234455469905839e+00
  +6.82636719265810842927e+00
  +6.70301711440000502762e+00
  +6.57202037545240180805e+00
  +6.43319406116389380657e+00
  +6.28638804891837121858e+00
  +6.13148874179188840827e+00
  +5.96842246148716171206e+00
  +5.79715840471949306334e+00
  +5.61771107803183511464e+00
  +5.43014214186883581448e+00
  +5.23456161404524955572e+00
  +5.03112840489771606656e+00
  +4.82005017982919259367e+00
  +4.60158256818938937727e+00
  +4.37602775883632055809e+00
  +4.14373254117896916426e+00
  +3.90508586464597939880e+00
  +3.66051599886530443229e+00
  +3.41048738087314529110e+00
  +3.15549723458501363282e+00
  +2.89607204215452229690e+00
  +2.63276393699796651404e+00
  +2.36614707597291662466e+00
  +2.09681403364592533478e+00
  +1.82537224669779063468e+00
  +1.55244052173457935950e+00
  +1.27864560673677440938e+00
  +1.00461881502670680177e+00
  +7.30992682771910429196e-01
  +4.58397635772479050686e-01
  +1.87458640232646522872e-01
  -8.12081856242895527842e-02
  -3.46999016373961022275e-01
  -6.09325828956067683251e-01
  -8.67619973427664614718e-01
  -1.12133578788617693789e+00
  -1.36995422540372402409e+00
  -1.61298644618023212516e+00
  -1.84997731378941154823e+00
  -2.08050872297088806917e+00
  -2.30420267719159621578e+00
  -2.52072403017039814443e+00
  -2.72978280552649188451e+00
  -2.93113601423473868479e+00
  -3.12458890027496272168e+00
  -3.30999556024683938560e+00
  -3.48725890202030619491e+00
  -3.65632992961016523026e+00
  -3.81720636474571417551e+00
  -3.96993063909218601992e+00
  -4.11458731230318353056e+00
</dep>
<dep H[1,1] frequency>
  +9.18545342115517904347e+00-j1.47922089580041244972e+02
  +9.18527897791978276132e+00-j1.41226511088849889575e+02
  +9.18508760330078821710e+00-j1.34834677206302728791e+02
  +9.18487765594116645218e+00-j1.28732840461306579982e+02
  +9.18464733586529646914e+00-j1.22907877081198407154e+02
  +9.18439466916470159674e+00-j1.17347258762906847096e+02
  +9.18411749134573263120e+00-j1.12039025724381076543e+02
  +9.18381342904701369889e+00-j1.06971760978335268533e+02
  +9.18347988003337434293e+00-j1.02134565772956079854e+02
  +9.18311399129103378414e+00-j9.75170361464914492444e+01
  +9.18271263515903868324e+00-j9.31092405454193112746e+01
  +9.18227238307092008540e+00-j8.89016984578875337775e+01
  +9.18178947700566361334e+00-j8.48853600162514396743e+01
  +9.18125979817239645797e+00-j8.10515865248274280930e+01
  +9.18067883288513009177e+00-j7.73921318708249970086e+01
  +9.18004163527996119853e+00-j7.38991247782559099733e+01
  +9.17934278658876756651e+00-j7.05650518664186421347e+01
  +9.17857635076448197253e+00-j6.73827414764197669683e+01
  +9.17773582610087501621e+00-j6.43453482305908863736e+01
  +9.17681409252148583278e+00-j6.14463382913348041825e+01
  +9.17580335421723347622e+00-j5.86794752873191285403e+01
  +9.17469507718174170918e+00-j5.60388068764379738695e+01
  +9.17347992150216562379e+00-j5.35186519161938321076e+01
  +9.17214766763168043440e+00-j5.11135882133037569020e+01
  +9.17068713660309597913e+00-j4.88184408258444122453e+01
  +9.16908610354243158724e+00-j4.66282708918770012474e+01
  +9.16733120413617541544e+00-j4.45383649600661897239e+01
  +9.16540783360268207502e+00-j4.25442247983611068207e+01
  +9.16330003780091217891e+00-j4.06415576579645900779e+01
  +9.16099039600363873603e+00-j3.88262669706693444027e+01
  +9.15845989507263880114e+00-j3.70944434583318809473e+01
  +9.15568779461037074441e+00-j3.54423566341181626171e+01
  +9.15265148292650287942e+00-j3.38664466758078575026e+01
  +9.14932632364842746142e+00-j3.23633166520692583390e+01
  +9.14568549288249066365e+00-j3.09297250831903838275e+01
  +9.14169980709371188254e+00-j2.95625788183739999226e+01
  +9.13733754197693137655e+00-j2.82589262120447735072e+01
  +9.13256424291541080152e+00-j2.70159505822490153548e+01
  +9.12734252775894816523e+00-j2.58309639344228401114e+01
  +9.12163188323687634806e+00-j2.47014009344068377061e+01
  +9.11538845652833806810e+00-j2.36248131147208617620e+01
  +9.10856484419729994784e+00-j2.25988632986399338165e+01
  +9.10110988120867148155e+00-j2.16213202268425277452e+01
  +9.09296843347933325674e+00-j2.06900533718128798455e+01
  +9.08408119822459703130e+00-j1.98030279255646668446e+01
  +9.07438451738192419782e+00-j1.89582999467765915824e+01
  +9.06381021028581557175e+00-j1.81540116539036411325e+01
  +9.05228543317625522491e+00-j1.73883868516556887585e+01
  +9.03973257433403176719e+00-j1.66597264790301586856e+01
  +9.02606919490342995971e+00-j1.59664042681967277559e+01
  +9.01120802738897630491e+00-j1.53068625050061353221e+01
  +8.99505704487467916408e+00-j1.46796078835124568229e+01
  +8.97751961601949766134e+00-j1.40832074491044618725e+01
  +8.95849476199021843570e+00-j1.35162846274025394422e+01
  +8.93787753316165911599e+00-j1.29775153391865689656e+01
  +8.91555952412312535671e+00-j1.24656242052990435809e+01
  +8.89142954642367122631e+00-j1.19793808497273026603e+01
  +8.86537447813041090683e+00-j1.15175963139235815191e+01
  +8.83728030868996405900e+00-j1.10791196007891112885e+01
  +8.80703339555151210050e+00-j1.06628343727092200766e+01
  +8.77452194573826993462e+00-j1.02676558340797168256e+01
  +8.73963773097424834191e+00-j9.89252783503552635125e+00
  +8.70227803832564283937e+00-j9.53642023908363789531e+00
  +8.66234785004363949668e+00-j9.19832660254137124411e+00
  +8.61976223587124579240e+00-j8.87726221772667045684e+00
  +8.57444892892047327848e+00-j8.57226257411695158339e+00
  +8.52635104216253125742e+00-j8.28238229131070902156e+00
  +8.47542986752493199276e+00-j8.00669457418678298666e+00
  +8.42166768380626251655e+00-j7.74429123335595637201e+00
  +8.36507048433790778574e+00-j7.49428330235885109545e+00
  +8.30567052161559615797e+00-j7.25580226684820406291e+00
  +8.24352855523691019357e+00-j7.02800190015113646069e+00
  +8.17873568316028531910e+00-j6.81006067473464860029e+00
  +8.11141463579159349706e+00-j6.60118469096541815588e+00
  +8.04172041898275757887e+00-j6.40061103481204085597e+00
  +7.96984020658909475543e+00-j6.20761144647296259080e+00
  +7.89599240623383202831e+00-j6.02149615498533297142e+00
  +7.82042485259174391388e+00-j5.84161771173525590228e+00
  +7.74341211997590761484e+00-j5.66737464134601331978e+00
  +7.66525198803638740941e+00-j5.49821472352757201207e+00
  +7.58626113814609670527e+00-j5.33363772549541437229e+00
  +7.50677020046529008823e+00-j5.17319742259666437434e+00
  +7.42711830912342829691e+00-j5.01650277357147444945e+00
  +7.34764735234617116788e+00-j4.86321815558524939149e+00
  +7.26869612294709810385e+00-j4.71306260970245194386e+00
  +7.19059458077554491950e+00-j4.56580809670888942975e+00
  +7.11365843177797430030e+00-j4.42127681225970192713e+00
  +7.03818420905731212400e+00-j4.27933765563159962397e+00
  +6.96444501137864335760e+00-j4.13990198437245382479e+00
  +6.89268701671060846081e+00-j4.00291881552184225512e+00
  +6.82312684586152240485e+00-j3.86836965117335962461e+00
  +6.75594980743482764751e+00-j3.73626311159058399625e+00
  +6.69130901356920215761e+00-j3.60662955355930581192e+00
  +6.62932531879365694039e+00-j3.47951583649419760036e+00
  +6.57008800404563064745e+00-j3.35498037652320979518e+00
  +6.51365610542984718734e+00-j3.23308860129704012110e+00
  +6.46006027321739573210e+00-j3.11390888865358039794e+00
  +6.40930504042073856397e+00-j2.99750904237635173999e+00
  +6.36137138115757938550e+00-j2.88395333029965339477e+00
  +6.31621944574401616990e+00-j2.77330008518216741820e+00
  +6.27379137039792311725e+00-j2.66559984815988793017e+00
  +6.23401407337163426803e+00-j2.56089401845267117253e+00
  +6.19680196467859456533e+00-j2.45921396160844230039e+00
  +6.16205951223521264382e+00-j2.36058052125023687395e+00
  +6.12968362243119457844e+00-j2.26500387599403474326e+00
  +6.09956580689973915099e+00-j2.17248368283433412884e+00
  +6.07159411946244098601e+00-j2.08300945053000630125e+00
  +6.04565485744521691203e+00-j1.99656109042504903428e+00
  +6.02163402981652229329e+00-j1.91310959731801988326e+00
  +5.99941860099214085977e+00-j1.83261781873345475091e+00
  +5.97889752379530392545e+00-j1.75504127704420986866e+00
  +5.95996257817747121521e+00-j1.68032901474966545052e+00
  +5.94250903414787323698e+00-j1.60842443891114661447e+00
  +5.92643615819353453134e+00-j1.53926614579989107234e+00
  +5.91164758243711574437e+00-j1.47278871145748690985e+00
  +5.89805155516147383565e+00-j1.40892343776569273217e+00
  +5.88556109031355578765e+00-j1.34759904702511645880e+00
  +5.87409403222754367135e+00-j1.28874232079151651575e+00
  +5.86357305034180065206e+00-j1.23227868099257831247e+00
  +5.85392557710457328568e+00-j1.17813271310567868611e+00
  +5.84508370071324812045e+00-j1.12622863255716887387e+00
  +5.83698402282488437720e+00-j1.07649069649742568089e+00
  +5.82956748993704643169e+00-j1.02884356383452990613e+00
  +5.82277920585514330298e+00-j9.83212606867394978138e-01
</dep>
<dep H[1,2] frequency>
  +7.62055470459188505350e-02+j9.69251604169141071921e-03
  +7.62270755991098364346e-02+j1.01520480700893461073e-02
  +7.62506938088327729242e-02+j1.06333145179648320966e-02
  +7.62766042383432874008e-02+j1.11373355296512203949e-02
  +7.63050290319783330872e-02+j1.16651779632421081362e-02
  +7.63362117969206277479e-02+j1.22179573541519332497e-02
  +7.63704196634734100435e-02+j1.27968399344118664157e-02
  +7.64079455403824658877e-02+j1.34030447046414973034e-02
  +7.64491105832287437538e-02+j1.40378455548930275443e-02
  +7.64942668949193521621e-02+j1.47025734296611469698e-02
  +7.65438004799996185579e-02+j1.53986185305679985913e-02
  +7.65981344750441273117e-02+j1.61274325488979658472e-02
  +7.66577326799443153904e-02+j1.68905309190477102843e-02
  +7.67231034169548187229e-02+j1.76894950807160861173e-02
  +7.67948037457760468438e-02+j1.85259747367643237692e-02
  +7.68734440660613915774e-02+j1.94016900897676577986e-02
  +7.69596931397058953150e-02+j2.03184340378014492712e-02
  +7.70542835691126609676e-02+j2.12780743064922873986e-02
  +7.71580177686591872632e-02+j2.22825554901477825009e-02
  +7.72717744697430791723e-02+j2.33339009700315146156e-02
  +7.73965158018017213015e-02+j2.44342146729887230161e-02
  +7.75332949942468541149e-02+j2.55856826263318633263e-02
  +7.76832647461198622096e-02+j2.67905742609979499735e-02
  +7.78476863123558904256e-02+j2.80512434022099493847e-02
  +7.80279393575050994603e-02+j2.93701288836126020443e-02
