<Qucs Dataset 0.0.20>
<indep Versus.0001 5>
  +1.00000000000000008180e-05
  +1.00000000000000004792e-04
  +1.00000000000000002082e-03
  +1.00000000000000002082e-02
  +1.00000000000000005551e-01
</indep>
<indep Versus.0002 5>
  +1.00000000000000008180e-05
  +1.00000000000000004792e-04
  +1.00000000000000002082e-03
  +1.00000000000000002082e-02
  +1.00000000000000005551e-01
</indep>
<indep Versus.0003 5>
  +1.00000000000000008180e-05
  +1.00000000000000004792e-04
  +1.00000000000000002082e-03
  +1.00000000000000002082e-02
  +1.00000000000000005551e-01
</indep>
<indep Versus.0004 5>
  +1.00000000000000008180e-05
  +1.00000000000000004792e-04
  +1.00000000000000002082e-03
  +1.00000000000000002082e-02
  +1.00000000000000005551e-01
</indep>
<indep Versus.0005 5>
  +1.00000000000000008180e-05
  +1.00000000000000004792e-04
  +1.00000000000000002082e-03
  +1.00000000000000002082e-02
  +1.00000000000000005551e-01
</indep>
<indep Versus.0006 5>
  +1.00000000000000008180e-05
  +1.00000000000000004792e-04
  +1.00000000000000002082e-03
  +1.00000000000000002082e-02
  +1.00000000000000005551e-01
</indep>
<indep hbfrequency 9>
  +0.00000000000000000000e+00
  +1.00000000000000000000e+10
  +2.00000000000000000000e+10
  +3.00000000000000000000e+10
  +4.00000000000000000000e+10
  +5.00000000000000000000e+10
  +6.00000000000000000000e+10
  +7.00000000000000000000e+10
  +8.00000000000000000000e+10
</indep>
<indep P_S 5>
  +1.00000000000000008180e-05
  +1.00000000000000004792e-04
  +1.00000000000000002082e-03
  +1.00000000000000002082e-02
  +1.00000000000000005551e-01
</indep>
<dep HD3_dBc Versus.0005>
  -inf
  -inf
  -inf
  -inf
  -inf
</dep>
<dep HD2_dBc Versus.0003>
  -inf
  -inf
  -inf
  -inf
  -inf
</dep>
<dep G_dB Versus.0001>
  -1.24953932312360009860e+01
  -1.24953932312360009860e+01
  -1.24953932312360223023e+01
  -1.24953932312360009860e+01
  -1.24953932312359974333e+01
</dep>
<dep P_OUT_dBm hbfrequency P_S>
  -inf
  -3.24953932312360009860e+01
  -inf
  -inf
  -inf
  -inf
  -inf
  -inf
  -inf
  -inf
  -2.24953932312360009860e+01
  -inf
  -inf
  -inf
  -inf
  -inf
  -inf
  -inf
  -inf
  -1.24953932312360223023e+01
  -inf
  -inf
  -inf
  -inf
  -inf
  -inf
  -inf
  -inf
  -2.49539323123600098597e+00
  -inf
  -inf
  -inf
  -inf
  -inf
  -inf
  -inf
  -inf
  +7.50460676876400256674e+00
  -inf
  -inf
  -inf
  -inf
  -inf
  -inf
  -inf
</dep>
<dep P_OUT hbfrequency P_S>
  +0.00000000000000000000e+00
  +5.62938143943419497088e-07
  +0.00000000000000000000e+00
  +0.00000000000000000000e+00
  +0.00000000000000000000e+00
  +0.00000000000000000000e+00
  +0.00000000000000000000e+00
  +0.00000000000000000000e+00
  +0.00000000000000000000e+00
  +0.00000000000000000000e+00
  +5.62938143943420344121e-06
  +0.00000000000000000000e+00
  +0.00000000000000000000e+00
  +0.00000000000000000000e+00
  +0.00000000000000000000e+00
  +0.00000000000000000000e+00
  +0.00000000000000000000e+00
  +0.00000000000000000000e+00
  +0.00000000000000000000e+00
  +5.62938143943417972428e-05
  +0.00000000000000000000e+00
  +0.00000000000000000000e+00
  +0.00000000000000000000e+00
  +0.00000000000000000000e+00
  +0.00000000000000000000e+00
  +0.00000000000000000000e+00
  +0.00000000000000000000e+00
  +0.00000000000000000000e+00
  +5.62938143943420249253e-04
  +0.00000000000000000000e+00
  +0.00000000000000000000e+00
  +0.00000000000000000000e+00
  +0.00000000000000000000e+00
  +0.00000000000000000000e+00
  +0.00000000000000000000e+00
  +0.00000000000000000000e+00
  +0.00000000000000000000e+00
  +5.62938143943420704618e-03
  +0.00000000000000000000e+00
  +0.00000000000000000000e+00
  +0.00000000000000000000e+00
  +0.00000000000000000000e+00
  +0.00000000000000000000e+00
  +0.00000000000000000000e+00
  +0.00000000000000000000e+00
</dep>
<dep P_IN_dBm hbfrequency P_S>
  -inf
  -2.00000000000000000000e+01
  -inf
  -inf
  -inf
  -inf
  -inf
  -inf
  -inf
  -inf
  -1.00000000000000000000e+01
  -inf
  -inf
  -inf
  -inf
  -inf
  -inf
  -inf
  -inf
  +0.00000000000000000000e+00
  -inf
  -inf
  -inf
  -inf
  -inf
  -inf
  -inf
  -inf
  +1.00000000000000000000e+01
  -inf
  -inf
  -inf
  -inf
  -inf
  -inf
  -inf
  -inf
  +2.00000000000000000000e+01
  -inf
  -inf
  -inf
  -inf
  -inf
  -inf
  -inf
</dep>
<dep P_IN hbfrequency P_S>
  +0.00000000000000000000e+00
  +1.00000000000000008180e-05
  +0.00000000000000000000e+00
  +0.00000000000000000000e+00
  +0.00000000000000000000e+00
  +0.00000000000000000000e+00
  +0.00000000000000000000e+00
  +0.00000000000000000000e+00
  +0.00000000000000000000e+00
  +0.00000000000000000000e+00
  +1.00000000000000004792e-04
  +0.00000000000000000000e+00
  +0.00000000000000000000e+00
  +0.00000000000000000000e+00
  +0.00000000000000000000e+00
  +0.00000000000000000000e+00
  +0.00000000000000000000e+00
  +0.00000000000000000000e+00
  +0.00000000000000000000e+00
  +1.00000000000000002082e-03
  +0.00000000000000000000e+00
  +0.00000000000000000000e+00
  +0.00000000000000000000e+00
  +0.00000000000000000000e+00
  +0.00000000000000000000e+00
  +0.00000000000000000000e+00
  +0.00000000000000000000e+00
  +0.00000000000000000000e+00
  +1.00000000000000019429e-02
  +0.00000000000000000000e+00
  +0.00000000000000000000e+00
  +0.00000000000000000000e+00
  +0.00000000000000000000e+00
  +0.00000000000000000000e+00
  +0.00000000000000000000e+00
  +0.00000000000000000000e+00
  +0.00000000000000000000e+00
  +1.00000000000000019429e-01
  +0.00000000000000000000e+00
  +0.00000000000000000000e+00
  +0.00000000000000000000e+00
  +0.00000000000000000000e+00
  +0.00000000000000000000e+00
  +0.00000000000000000000e+00
  +0.00000000000000000000e+00
</dep>
<dep SUBCIRCUIT_RFMEMS_ATTENUATOR.SUB1._net8.Vb hbfrequency P_S>
  +0.00000000000000000000e+00
  +3.56389620399216841724e-04+j1.78112070575747738488e-03
  +0.00000000000000000000e+00
  +0.00000000000000000000e+00
  +0.00000000000000000000e+00
  +0.00000000000000000000e+00
  +0.00000000000000000000e+00
  +0.00000000000000000000e+00
  +0.00000000000000000000e+00
  +0.00000000000000000000e+00
  +1.12700293490433363190e-03+j5.63239821788021673837e-03
  +0.00000000000000000000e+00
  +0.00000000000000000000e+00
  +0.00000000000000000000e+00
  +0.00000000000000000000e+00
  +0.00000000000000000000e+00
  +0.00000000000000000000e+00
  +0.00000000000000000000e+00
  +0.00000000000000000000e+00
  +3.56389620399216689936e-03+j1.78112070575747738488e-02
  +0.00000000000000000000e+00
  +0.00000000000000000000e+00
  +0.00000000000000000000e+00
  +0.00000000000000000000e+00
  +0.00000000000000000000e+00
  +0.00000000000000000000e+00
  +0.00000000000000000000e+00
  +0.00000000000000000000e+00
  +1.12700293490433384874e-02+j5.63239821788021205462e-02
  +0.00000000000000000000e+00
  +0.00000000000000000000e+00
  +0.00000000000000000000e+00
  +0.00000000000000000000e+00
  +0.00000000000000000000e+00
  +0.00000000000000000000e+00
  +0.00000000000000000000e+00
  +0.00000000000000000000e+00
  +3.56389620399217149638e-02+j1.78112070575747793999e-01
  +0.00000000000000000000e+00
  +0.00000000000000000000e+00
  +0.00000000000000000000e+00
  +0.00000000000000000000e+00
  +0.00000000000000000000e+00
  +0.00000000000000000000e+00
  +0.00000000000000000000e+00
</dep>
<dep SUBCIRCUIT_RFMEMS_ATTENUATOR.SUB1._net15.Vb hbfrequency P_S>
  +0.00000000000000000000e+00
  +3.63720934920497512930e-04+j1.81517621972117045373e-03
  +0.00000000000000000000e+00
  +0.00000000000000000000e+00
  +0.00000000000000000000e+00
  +0.00000000000000000000e+00
  +0.00000000000000000000e+00
  +0.00000000000000000000e+00
  +0.00000000000000000000e+00
  +0.00000000000000000000e+00
  +1.15018658703464754511e-03+j5.74009120889315549441e-03
  +0.00000000000000000000e+00
  +0.00000000000000000000e+00
  +0.00000000000000000000e+00
  +0.00000000000000000000e+00
  +0.00000000000000000000e+00
  +0.00000000000000000000e+00
  +0.00000000000000000000e+00
  +0.00000000000000000000e+00
  +3.63720934920497371984e-03+j1.81517621972117036699e-02
  +0.00000000000000000000e+00
  +0.00000000000000000000e+00
  +0.00000000000000000000e+00
  +0.00000000000000000000e+00
  +0.00000000000000000000e+00
  +0.00000000000000000000e+00
  +0.00000000000000000000e+00
  +0.00000000000000000000e+00
  +1.15018658703464771859e-02+j5.74009120889315133107e-02
  +0.00000000000000000000e+00
  +0.00000000000000000000e+00
  +0.00000000000000000000e+00
  +0.00000000000000000000e+00
  +0.00000000000000000000e+00
  +0.00000000000000000000e+00
  +0.00000000000000000000e+00
  +0.00000000000000000000e+00
  +3.63720934920497840359e-02+j1.81517621972117099149e-01
  +0.00000000000000000000e+00
  +0.00000000000000000000e+00
  +0.00000000000000000000e+00
  +0.00000000000000000000e+00
  +0.00000000000000000000e+00
  +0.00000000000000000000e+00
  +0.00000000000000000000e+00
</dep>
<dep SUBCIRCUIT_RFMEMS_ATTENUATOR.SUB1._net10.Vb hbfrequency P_S>
  +0.00000000000000000000e+00
  +1.40394544005535172604e-02-j3.51259423600415682330e-04
  +0.00000000000000000000e+00
  +0.00000000000000000000e+00
  +0.00000000000000000000e+00
  +0.00000000000000000000e+00
  +0.00000000000000000000e+00
  +0.00000000000000000000e+00
  +0.00000000000000000000e+00
  +0.00000000000000000000e+00
  +4.43966530118230506829e-02-j1.11077982817522121634e-03
  +0.00000000000000000000e+00
  +0.00000000000000000000e+00
  +0.00000000000000000000e+00
  +0.00000000000000000000e+00
  +0.00000000000000000000e+00
  +0.00000000000000000000e+00
  +0.00000000000000000000e+00
  +0.00000000000000000000e+00
  +1.40394544005535026887e-01-j3.51259423600414760758e-03
  +0.00000000000000000000e+00
  +0.00000000000000000000e+00
  +0.00000000000000000000e+00
  +0.00000000000000000000e+00
  +0.00000000000000000000e+00
  +0.00000000000000000000e+00
  +0.00000000000000000000e+00
  +0.00000000000000000000e+00
  +4.43966530118230506829e-01-j1.11077982817521861425e-02
  +0.00000000000000000000e+00
  +0.00000000000000000000e+00
  +0.00000000000000000000e+00
  +0.00000000000000000000e+00
  +0.00000000000000000000e+00
  +0.00000000000000000000e+00
  +0.00000000000000000000e+00
  +0.00000000000000000000e+00
  +1.40394544005535237829e+00-j3.51259423600416634259e-02
  +0.00000000000000000000e+00
  +0.00000000000000000000e+00
  +0.00000000000000000000e+00
  +0.00000000000000000000e+00
  +0.00000000000000000000e+00
  +0.00000000000000000000e+00
  +0.00000000000000000000e+00
</dep>
<dep SUBCIRCUIT_RFMEMS_ATTENUATOR.SUB1._net3.Vb hbfrequency P_S>
  +0.00000000000000000000e+00
  +1.49111031303512456270e-02-j3.22029335564118744661e-04
  +0.00000000000000000000e+00
  +0.00000000000000000000e+00
  +0.00000000000000000000e+00
  +0.00000000000000000000e+00
  +0.00000000000000000000e+00
  +0.00000000000000000000e+00
  +0.00000000000000000000e+00
  +0.00000000000000000000e+00
  +4.71530483175765513515e-02-j1.01834617377328444203e-03
  +0.00000000000000000000e+00
  +0.00000000000000000000e+00
  +0.00000000000000000000e+00
  +0.00000000000000000000e+00
  +0.00000000000000000000e+00
  +0.00000000000000000000e+00
  +0.00000000000000000000e+00
  +0.00000000000000000000e+00
  +1.49111031303512303614e-01-j3.22029335564117920668e-03
  +0.00000000000000000000e+00
  +0.00000000000000000000e+00
  +0.00000000000000000000e+00
  +0.00000000000000000000e+00
  +0.00000000000000000000e+00
  +0.00000000000000000000e+00
  +0.00000000000000000000e+00
  +0.00000000000000000000e+00
  +4.71530483175765513515e-01-j1.01834617377328188331e-02
  +0.00000000000000000000e+00
  +0.00000000000000000000e+00
  +0.00000000000000000000e+00
  +0.00000000000000000000e+00
  +0.00000000000000000000e+00
  +0.00000000000000000000e+00
  +0.00000000000000000000e+00
  +0.00000000000000000000e+00
  +1.49111031303512509005e+00-j3.22029335564119681412e-02
  +0.00000000000000000000e+00
  +0.00000000000000000000e+00
  +0.00000000000000000000e+00
  +0.00000000000000000000e+00
  +0.00000000000000000000e+00
  +0.00000000000000000000e+00
  +0.00000000000000000000e+00
</dep>
<dep SUBCIRCUIT_RFMEMS_ATTENUATOR.SUB1._net9.Vb hbfrequency P_S>
  +0.00000000000000000000e+00
  +2.93528568778318732502e-02+j8.15725688915145850585e-04
  +0.00000000000000000000e+00
  +0.00000000000000000000e+00
  +0.00000000000000000000e+00
  +0.00000000000000000000e+00
  +0.00000000000000000000e+00
  +0.00000000000000000000e+00
  +0.00000000000000000000e+00
  +0.00000000000000000000e+00
  +9.28218835668875030809e-02+j2.57955112288182518074e-03
  +0.00000000000000000000e+00
  +0.00000000000000000000e+00
  +0.00000000000000000000e+00
  +0.00000000000000000000e+00
  +0.00000000000000000000e+00
  +0.00000000000000000000e+00
  +0.00000000000000000000e+00
  +0.00000000000000000000e+00
  +2.93528568778318676991e-01+j8.15725688915146761315e-03
  +0.00000000000000000000e+00
  +0.00000000000000000000e+00
  +0.00000000000000000000e+00
  +0.00000000000000000000e+00
  +0.00000000000000000000e+00
  +0.00000000000000000000e+00
  +0.00000000000000000000e+00
  +0.00000000000000000000e+00
  +9.28218835668875419387e-01+j2.57955112288182665525e-02
  +0.00000000000000000000e+00
  +0.00000000000000000000e+00
  +0.00000000000000000000e+00
  +0.00000000000000000000e+00
  +0.00000000000000000000e+00
  +0.00000000000000000000e+00
  +0.00000000000000000000e+00
  +0.00000000000000000000e+00
  +2.93528568778318810217e+00+j8.15725688915145685787e-02
  +0.00000000000000000000e+00
  +0.00000000000000000000e+00
  +0.00000000000000000000e+00
  +0.00000000000000000000e+00
  +0.00000000000000000000e+00
  +0.00000000000000000000e+00
  +0.00000000000000000000e+00
</dep>
<dep V_OUT.Vb hbfrequency P_S>
  +0.00000000000000000000e+00
  +1.06036241122112948054e-02-j3.88309767602027498291e-04
  +0.00000000000000000000e+00
  +0.00000000000000000000e+00
  +0.00000000000000000000e+00
  +0.00000000000000000000e+00
  +0.00000000000000000000e+00
  +0.00000000000000000000e+00
  +0.00000000000000000000e+00
  +0.00000000000000000000e+00
  +3.35316036468685657601e-02-j1.22794330331307171081e-03
  +0.00000000000000000000e+00
  +0.00000000000000000000e+00
  +0.00000000000000000000e+00
  +0.00000000000000000000e+00
  +0.00000000000000000000e+00
  +0.00000000000000000000e+00
  +0.00000000000000000000e+00
  +0.00000000000000000000e+00
  +1.06036241122112795399e-01-j3.88309767602026609246e-03
  +0.00000000000000000000e+00
  +0.00000000000000000000e+00
  +0.00000000000000000000e+00
  +0.00000000000000000000e+00
  +0.00000000000000000000e+00
  +0.00000000000000000000e+00
  +0.00000000000000000000e+00
  +0.00000000000000000000e+00
  +3.35316036468685629846e-01-j1.22794330331306902199e-02
  +0.00000000000000000000e+00
  +0.00000000000000000000e+00
  +0.00000000000000000000e+00
  +0.00000000000000000000e+00
  +0.00000000000000000000e+00
  +0.00000000000000000000e+00
  +0.00000000000000000000e+00
  +0.00000000000000000000e+00
  +1.06036241122113050750e+00-j3.88309767602028343969e-02
  +0.00000000000000000000e+00
  +0.00000000000000000000e+00
  +0.00000000000000000000e+00
  +0.00000000000000000000e+00
  +0.00000000000000000000e+00
  +0.00000000000000000000e+00
  +0.00000000000000000000e+00
</dep>
<dep SUBCIRCUIT_RFMEMS_ATTENUATOR.SUB1._net13.Vb hbfrequency P_S>
  +0.00000000000000000000e+00
  +1.14567173116448747794e-02-j4.01705549617527844265e-04
  +0.00000000000000000000e+00
  +0.00000000000000000000e+00
  +0.00000000000000000000e+00
  +0.00000000000000000000e+00
  +0.00000000000000000000e+00
  +0.00000000000000000000e+00
  +0.00000000000000000000e+00
  +0.00000000000000000000e+00
  +3.62293212134789377465e-02-j1.27030448552117392405e-03
  +0.00000000000000000000e+00
  +0.00000000000000000000e+00
  +0.00000000000000000000e+00
  +0.00000000000000000000e+00
  +0.00000000000000000000e+00
  +0.00000000000000000000e+00
  +0.00000000000000000000e+00
  +0.00000000000000000000e+00
  +1.14567173116448595138e-01-j4.01705549617526955219e-03
  +0.00000000000000000000e+00
  +0.00000000000000000000e+00
  +0.00000000000000000000e+00
  +0.00000000000000000000e+00
  +0.00000000000000000000e+00
  +0.00000000000000000000e+00
  +0.00000000000000000000e+00
  +0.00000000000000000000e+00
  +3.62293212134789377465e-01-j1.27030448552117123523e-02
  +0.00000000000000000000e+00
  +0.00000000000000000000e+00
  +0.00000000000000000000e+00
  +0.00000000000000000000e+00
  +0.00000000000000000000e+00
  +0.00000000000000000000e+00
  +0.00000000000000000000e+00
  +0.00000000000000000000e+00
  +1.14567173116448839387e+00-j4.01705549617528759332e-02
  +0.00000000000000000000e+00
  +0.00000000000000000000e+00
  +0.00000000000000000000e+00
  +0.00000000000000000000e+00
  +0.00000000000000000000e+00
  +0.00000000000000000000e+00
  +0.00000000000000000000e+00
</dep>
<dep SUBCIRCUIT_RFMEMS_ATTENUATOR.SUB1._net12.Vb hbfrequency P_S>
  +0.00000000000000000000e+00
  +1.23112691240399897696e-02-j4.15155227792798084494e-04
  +0.00000000000000000000e+00
  +0.00000000000000000000e+00
  +0.00000000000000000000e+00
  +0.00000000000000000000e+00
  +0.00000000000000000000e+00
  +0.00000000000000000000e+00
  +0.00000000000000000000e+00
  +0.00000000000000000000e+00
  +3.89316513192724117376e-02-j1.31283610235128538404e-03
  +0.00000000000000000000e+00
  +0.00000000000000000000e+00
  +0.00000000000000000000e+00
  +0.00000000000000000000e+00
  +0.00000000000000000000e+00
  +0.00000000000000000000e+00
  +0.00000000000000000000e+00
  +0.00000000000000000000e+00
  +1.23112691240399751980e-01-j4.15155227792797162922e-03
  +0.00000000000000000000e+00
  +0.00000000000000000000e+00
  +0.00000000000000000000e+00
  +0.00000000000000000000e+00
  +0.00000000000000000000e+00
  +0.00000000000000000000e+00
  +0.00000000000000000000e+00
  +0.00000000000000000000e+00
  +3.89316513192724089620e-01-j1.31283610235128252175e-02
  +0.00000000000000000000e+00
  +0.00000000000000000000e+00
  +0.00000000000000000000e+00
  +0.00000000000000000000e+00
  +0.00000000000000000000e+00
  +0.00000000000000000000e+00
  +0.00000000000000000000e+00
  +0.00000000000000000000e+00
  +1.23112691240399985126e+00-j4.15155227792799036424e-02
  +0.00000000000000000000e+00
  +0.00000000000000000000e+00
  +0.00000000000000000000e+00
  +0.00000000000000000000e+00
  +0.00000000000000000000e+00
  +0.00000000000000000000e+00
  +0.00000000000000000000e+00
</dep>
<dep SUBCIRCUIT_RFMEMS_ATTENUATOR.SUB1._net7.Vb hbfrequency P_S>
  +0.00000000000000000000e+00
  +3.63829854651050209682e-04+j1.82088864194485306781e-03
  +0.00000000000000000000e+00
  +0.00000000000000000000e+00
  +0.00000000000000000000e+00
  +0.00000000000000000000e+00
  +0.00000000000000000000e+00
  +0.00000000000000000000e+00
  +0.00000000000000000000e+00
  +0.00000000000000000000e+00
  +1.15053102146532603735e-03+j5.75815547407655670131e-03
  +0.00000000000000000000e+00
  +0.00000000000000000000e+00
  +0.00000000000000000000e+00
  +0.00000000000000000000e+00
  +0.00000000000000000000e+00
  +0.00000000000000000000e+00
  +0.00000000000000000000e+00
  +0.00000000000000000000e+00
  +3.63829854651050079578e-03+j1.82088864194485319792e-02
  +0.00000000000000000000e+00
  +0.00000000000000000000e+00
  +0.00000000000000000000e+00
  +0.00000000000000000000e+00
  +0.00000000000000000000e+00
  +0.00000000000000000000e+00
  +0.00000000000000000000e+00
  +0.00000000000000000000e+00
  +1.15053102146532616745e-02+j5.75815547407655253798e-02
  +0.00000000000000000000e+00
  +0.00000000000000000000e+00
  +0.00000000000000000000e+00
  +0.00000000000000000000e+00
  +0.00000000000000000000e+00
  +0.00000000000000000000e+00
  +0.00000000000000000000e+00
  +0.00000000000000000000e+00
  +3.63829854651050582648e-02+j1.82088864194485361425e-01
  +0.00000000000000000000e+00
  +0.00000000000000000000e+00
  +0.00000000000000000000e+00
  +0.00000000000000000000e+00
  +0.00000000000000000000e+00
  +0.00000000000000000000e+00
  +0.00000000000000000000e+00
</dep>
<dep SUBCIRCUIT_RFMEMS_ATTENUATOR.SUB1._net6.Vb hbfrequency P_S>
  +0.00000000000000000000e+00
  +1.24019076800074715475e-04+j1.08842098123569219065e-03
  +0.00000000000000000000e+00
  +0.00000000000000000000e+00
  +0.00000000000000000000e+00
  +0.00000000000000000000e+00
  +0.00000000000000000000e+00
  +0.00000000000000000000e+00
  +0.00000000000000000000e+00
