<Qucs Dataset 0.0.15>
<indep Versus.0001 5>
  +1.00000000000e-05
  +1.00000000000e-04
  +1.00000000000e-03
  +1.00000000000e-02
  +1.00000000000e-01
</indep>
<indep Versus.0002 5>
  +1.00000000000e-05
  +1.00000000000e-04
  +1.00000000000e-03
  +1.00000000000e-02
  +1.00000000000e-01
</indep>
<indep Versus.0003 5>
  +1.00000000000e-05
  +1.00000000000e-04
  +1.00000000000e-03
  +1.00000000000e-02
  +1.00000000000e-01
</indep>
<indep Versus.0004 5>
  +1.00000000000e-05
  +1.00000000000e-04
  +1.00000000000e-03
  +1.00000000000e-02
  +1.00000000000e-01
</indep>
<indep Versus.0005 5>
  +1.00000000000e-05
  +1.00000000000e-04
  +1.00000000000e-03
  +1.00000000000e-02
  +1.00000000000e-01
</indep>
<indep Versus.0006 5>
  +1.00000000000e-05
  +1.00000000000e-04
  +1.00000000000e-03
  +1.00000000000e-02
  +1.00000000000e-01
</indep>
<indep hbfrequency 9>
  +0.00000000000e+00
  +1.00000000000e+10
  +2.00000000000e+10
  +3.00000000000e+10
  +4.00000000000e+10
  +5.00000000000e+10
  +6.00000000000e+10
  +7.00000000000e+10
  +8.00000000000e+10
</indep>
<indep P_S 5>
  +1.00000000000e-05
  +1.00000000000e-04
  +1.00000000000e-03
  +1.00000000000e-02
  +1.00000000000e-01
</indep>
<dep HD3_dBc Versus.0005>
  -inf
  -inf
  -inf
  -inf
  -inf
</dep>
<dep HD2_dBc Versus.0003>
  -inf
  -inf
  -inf
  -inf
  -inf
</dep>
<dep G_dB Versus.0001>
  -1.97224401755e+00
  -1.97224401755e+00
  -1.97224401755e+00
  -1.97224401755e+00
  -1.97224401755e+00
</dep>
<dep P_OUT_dBm hbfrequency P_S>
  -inf
  -2.19722440175e+01
  -inf
  -inf
  -inf
  -inf
  -inf
  -inf
  -inf
  -inf
  -1.19722440175e+01
  -inf
  -inf
  -inf
  -inf
  -inf
  -inf
  -inf
  -inf
  -1.97224401755e+00
  -inf
  -inf
  -inf
  -inf
  -inf
  -inf
  -inf
  -inf
  +8.02775598245e+00
  -inf
  -inf
  -inf
  -inf
  -inf
  -inf
  -inf
  -inf
  +1.80277559825e+01
  -inf
  -inf
  -inf
  -inf
  -inf
  -inf
  -inf
</dep>
<dep P_OUT hbfrequency P_S>
  +0.00000000000e+00
  +6.35002738528e-06
  +0.00000000000e+00
  +0.00000000000e+00
  +0.00000000000e+00
  +0.00000000000e+00
  +0.00000000000e+00
  +0.00000000000e+00
  +0.00000000000e+00
  +0.00000000000e+00
  +6.35002738528e-05
  +0.00000000000e+00
  +0.00000000000e+00
  +0.00000000000e+00
  +0.00000000000e+00
  +0.00000000000e+00
  +0.00000000000e+00
  +0.00000000000e+00
  +0.00000000000e+00
  +6.35002738528e-04
  +0.00000000000e+00
  +0.00000000000e+00
  +0.00000000000e+00
  +0.00000000000e+00
  +0.00000000000e+00
  +0.00000000000e+00
  +0.00000000000e+00
  +0.00000000000e+00
  +6.35002738528e-03
  +0.00000000000e+00
  +0.00000000000e+00
  +0.00000000000e+00
  +0.00000000000e+00
  +0.00000000000e+00
  +0.00000000000e+00
  +0.00000000000e+00
  +0.00000000000e+00
  +6.35002738528e-02
  +0.00000000000e+00
  +0.00000000000e+00
  +0.00000000000e+00
  +0.00000000000e+00
  +0.00000000000e+00
  +0.00000000000e+00
  +0.00000000000e+00
</dep>
<dep P_IN_dBm hbfrequency P_S>
  -inf
  -2.00000000000e+01
  -inf
  -inf
  -inf
  -inf
  -inf
  -inf
  -inf
  -inf
  -1.00000000000e+01
  -inf
  -inf
  -inf
  -inf
  -inf
  -inf
  -inf
  -inf
  +3.55271367880e-15
  -inf
  -inf
  -inf
  -inf
  -inf
  -inf
  -inf
  -inf
  +1.00000000000e+01
  -inf
  -inf
  -inf
  -inf
  -inf
  -inf
  -inf
  -inf
  +2.00000000000e+01
  -inf
  -inf
  -inf
  -inf
  -inf
  -inf
  -inf
</dep>
<dep P_IN hbfrequency P_S>
  +0.00000000000e+00
  +1.00000000000e-05
  +0.00000000000e+00
  +0.00000000000e+00
  +0.00000000000e+00
  +0.00000000000e+00
  +0.00000000000e+00
  +0.00000000000e+00
  +0.00000000000e+00
  +0.00000000000e+00
  +1.00000000000e-04
  +0.00000000000e+00
  +0.00000000000e+00
  +0.00000000000e+00
  +0.00000000000e+00
  +0.00000000000e+00
  +0.00000000000e+00
  +0.00000000000e+00
  +0.00000000000e+00
  +1.00000000000e-03
  +0.00000000000e+00
  +0.00000000000e+00
  +0.00000000000e+00
  +0.00000000000e+00
  +0.00000000000e+00
  +0.00000000000e+00
  +0.00000000000e+00
  +0.00000000000e+00
  +1.00000000000e-02
  +0.00000000000e+00
  +0.00000000000e+00
  +0.00000000000e+00
  +0.00000000000e+00
  +0.00000000000e+00
  +0.00000000000e+00
  +0.00000000000e+00
  +0.00000000000e+00
  +1.00000000000e-01
  +0.00000000000e+00
  +0.00000000000e+00
  +0.00000000000e+00
  +0.00000000000e+00
  +0.00000000000e+00
  +0.00000000000e+00
  +0.00000000000e+00
</dep>
<dep SUBCIRCUIT_RFMEMS_PHASESHIFTER.SUB1._net2.Vb hbfrequency P_S>
  +0.00000000000e+00
  +4.18602832381e-02-j3.38998495375e-05
  +0.00000000000e+00
  +0.00000000000e+00
  +0.00000000000e+00
  +0.00000000000e+00
  +0.00000000000e+00
  +0.00000000000e+00
  +0.00000000000e+00
  +0.00000000000e+00
  +1.32373838532e-01-j1.07200736876e-04
  +0.00000000000e+00
  +0.00000000000e+00
  +0.00000000000e+00
  +0.00000000000e+00
  +0.00000000000e+00
  +0.00000000000e+00
  +0.00000000000e+00
  +0.00000000000e+00
  +4.18602832381e-01-j3.38998495375e-04
  +0.00000000000e+00
  +0.00000000000e+00
  +0.00000000000e+00
  +0.00000000000e+00
  +0.00000000000e+00
  +0.00000000000e+00
  +0.00000000000e+00
  +0.00000000000e+00
  +1.32373838532e+00-j1.07200736876e-03
  +0.00000000000e+00
  +0.00000000000e+00
  +0.00000000000e+00
  +0.00000000000e+00
  +0.00000000000e+00
  +0.00000000000e+00
  +0.00000000000e+00
  +0.00000000000e+00
  +4.18602832381e+00-j3.38998495375e-03
  +0.00000000000e+00
  +0.00000000000e+00
  +0.00000000000e+00
  +0.00000000000e+00
  +0.00000000000e+00
  +0.00000000000e+00
  +0.00000000000e+00
</dep>
<dep SUBCIRCUIT_RFMEMS_PHASESHIFTER.SUB1._net7.Vb hbfrequency P_S>
  +0.00000000000e+00
  +4.01765775782e-02-j5.70465207345e-05
  +0.00000000000e+00
  +0.00000000000e+00
  +0.00000000000e+00
  +0.00000000000e+00
  +0.00000000000e+00
  +0.00000000000e+00
  +0.00000000000e+00
  +0.00000000000e+00
  +1.27049493738e-01-j1.80396938109e-04
  +0.00000000000e+00
  +0.00000000000e+00
  +0.00000000000e+00
  +0.00000000000e+00
  +0.00000000000e+00
  +0.00000000000e+00
  +0.00000000000e+00
  +0.00000000000e+00
  +4.01765775782e-01-j5.70465207345e-04
  +0.00000000000e+00
  +0.00000000000e+00
  +0.00000000000e+00
  +0.00000000000e+00
  +0.00000000000e+00
  +0.00000000000e+00
  +0.00000000000e+00
  +0.00000000000e+00
  +1.27049493738e+00-j1.80396938109e-03
  +0.00000000000e+00
  +0.00000000000e+00
  +0.00000000000e+00
  +0.00000000000e+00
  +0.00000000000e+00
  +0.00000000000e+00
  +0.00000000000e+00
  +0.00000000000e+00
  +4.01765775782e+00-j5.70465207345e-03
  +0.00000000000e+00
  +0.00000000000e+00
  +0.00000000000e+00
  +0.00000000000e+00
  +0.00000000000e+00
  +0.00000000000e+00
  +0.00000000000e+00
</dep>
<dep SUBCIRCUIT_RFMEMS_PHASESHIFTER.SUB1._net4.Vb hbfrequency P_S>
  +0.00000000000e+00
  +3.84929141453e-02-j5.04536724151e-05
  +0.00000000000e+00
  +0.00000000000e+00
  +0.00000000000e+00
  +0.00000000000e+00
  +0.00000000000e+00
  +0.00000000000e+00
  +0.00000000000e+00
  +0.00000000000e+00
  +1.21725282476e-01-j1.59548521152e-04
  +0.00000000000e+00
  +0.00000000000e+00
  +0.00000000000e+00
  +0.00000000000e+00
  +0.00000000000e+00
  +0.00000000000e+00
  +0.00000000000e+00
  +0.00000000000e+00
  +3.84929141453e-01-j5.04536724151e-04
  +0.00000000000e+00
  +0.00000000000e+00
  +0.00000000000e+00
  +0.00000000000e+00
  +0.00000000000e+00
  +0.00000000000e+00
  +0.00000000000e+00
  +0.00000000000e+00
  +1.21725282476e+00-j1.59548521152e-03
  +0.00000000000e+00
  +0.00000000000e+00
  +0.00000000000e+00
  +0.00000000000e+00
  +0.00000000000e+00
  +0.00000000000e+00
  +0.00000000000e+00
  +0.00000000000e+00
  +3.84929141453e+00-j5.04536724151e-03
  +0.00000000000e+00
  +0.00000000000e+00
  +0.00000000000e+00
  +0.00000000000e+00
  +0.00000000000e+00
  +0.00000000000e+00
  +0.00000000000e+00
</dep>
<dep V_OUT.Vb hbfrequency P_S>
  +0.00000000000e+00
  +3.56371201011e-02-j3.38814725184e-05
  +0.00000000000e+00
  +0.00000000000e+00
  +0.00000000000e+00
  +0.00000000000e+00
  +0.00000000000e+00
  +0.00000000000e+00
  +0.00000000000e+00
  +0.00000000000e+00
  +1.12694468769e-01-j1.07142623638e-04
  +0.00000000000e+00
  +0.00000000000e+00
  +0.00000000000e+00
  +0.00000000000e+00
  +0.00000000000e+00
  +0.00000000000e+00
  +0.00000000000e+00
  +0.00000000000e+00
  +3.56371201011e-01-j3.38814725184e-04
  +0.00000000000e+00
  +0.00000000000e+00
  +0.00000000000e+00
  +0.00000000000e+00
  +0.00000000000e+00
  +0.00000000000e+00
  +0.00000000000e+00
  +0.00000000000e+00
  +1.12694468769e+00-j1.07142623638e-03
  +0.00000000000e+00
  +0.00000000000e+00
  +0.00000000000e+00
  +0.00000000000e+00
  +0.00000000000e+00
  +0.00000000000e+00
  +0.00000000000e+00
  +0.00000000000e+00
  +3.56371201011e+00-j3.38814725184e-03
  +0.00000000000e+00
  +0.00000000000e+00
  +0.00000000000e+00
  +0.00000000000e+00
  +0.00000000000e+00
  +0.00000000000e+00
  +0.00000000000e+00
</dep>
<dep SUBCIRCUIT_RFMEMS_PHASESHIFTER.SUB1._net1.Vb hbfrequency P_S>
  +0.00000000000e+00
  +4.01340325034e-02+j1.33853515627e-03
  +0.00000000000e+00
  +0.00000000000e+00
  +0.00000000000e+00
  +0.00000000000e+00
  +0.00000000000e+00
  +0.00000000000e+00
  +0.00000000000e+00
  +0.00000000000e+00
  +1.26914954398e-01+j4.23281982202e-03
  +0.00000000000e+00
  +0.00000000000e+00
  +0.00000000000e+00
  +0.00000000000e+00
  +0.00000000000e+00
  +0.00000000000e+00
  +0.00000000000e+00
  +0.00000000000e+00
  +4.01340325034e-01+j1.33853515627e-02
  +0.00000000000e+00
  +0.00000000000e+00
  +0.00000000000e+00
  +0.00000000000e+00
  +0.00000000000e+00
  +0.00000000000e+00
  +0.00000000000e+00
  +0.00000000000e+00
  +1.26914954398e+00+j4.23281982202e-02
  +0.00000000000e+00
  +0.00000000000e+00
  +0.00000000000e+00
  +0.00000000000e+00
  +0.00000000000e+00
  +0.00000000000e+00
  +0.00000000000e+00
  +0.00000000000e+00
  +4.01340325034e+00+j1.33853515627e-01
  +0.00000000000e+00
  +0.00000000000e+00
  +0.00000000000e+00
  +0.00000000000e+00
  +0.00000000000e+00
  +0.00000000000e+00
  +0.00000000000e+00
</dep>
<dep V_IN.Vb hbfrequency P_S>
  +0.00000000000e+00
  +4.47213595500e-02
  +0.00000000000e+00
  +0.00000000000e+00
  +0.00000000000e+00
  +0.00000000000e+00
  +0.00000000000e+00
  +0.00000000000e+00
  +0.00000000000e+00
  +0.00000000000e+00
  +1.41421356237e-01
  +0.00000000000e+00
  +0.00000000000e+00
  +0.00000000000e+00
  +0.00000000000e+00
  +0.00000000000e+00
  +0.00000000000e+00
  +0.00000000000e+00
  +0.00000000000e+00
  +4.47213595500e-01
  +0.00000000000e+00
  +0.00000000000e+00
  +0.00000000000e+00
  +0.00000000000e+00
  +0.00000000000e+00
  +0.00000000000e+00
  +0.00000000000e+00
  +0.00000000000e+00
  +1.41421356237e+00
  +0.00000000000e+00
  +0.00000000000e+00
  +0.00000000000e+00
  +0.00000000000e+00
  +0.00000000000e+00
  +0.00000000000e+00
  +0.00000000000e+00
  +0.00000000000e+00
  +4.47213595500e+00
  +0.00000000000e+00
  +0.00000000000e+00
  +0.00000000000e+00
  +0.00000000000e+00
  +0.00000000000e+00
  +0.00000000000e+00
  +0.00000000000e+00
</dep>
<dep V_OUT.V P_S>
  +0.00000000000e+00
  +0.00000000000e+00
  +0.00000000000e+00
  +0.00000000000e+00
  +0.00000000000e+00
</dep>
<dep V_IN.V P_S>
  +0.00000000000e+00
  +0.00000000000e+00
  +0.00000000000e+00
  +0.00000000000e+00
  +0.00000000000e+00
</dep>
