<Qucs Dataset 0.0.17>
<indep time 200>
  +0.00000000000e+00
  +5.02512562814e-08
  +1.00502512563e-07
  +1.50753768844e-07
  +2.01005025126e-07
  +2.51256281407e-07
  +3.01507537688e-07
  +3.51758793970e-07
  +4.02010050251e-07
  +4.52261306533e-07
  +5.02512562814e-07
  +5.52763819095e-07
  +6.03015075377e-07
  +6.53266331658e-07
  +7.03517587940e-07
  +7.53768844221e-07
  +8.04020100503e-07
  +8.54271356784e-07
  +9.04522613065e-07
  +9.54773869347e-07
  +1.00502512563e-06
  +1.05527638191e-06
  +1.10552763819e-06
  +1.15577889447e-06
  +1.20603015075e-06
  +1.25628140704e-06
  +1.30653266332e-06
  +1.35678391960e-06
  +1.40703517588e-06
  +1.45728643216e-06
  +1.50753768844e-06
  +1.55778894472e-06
  +1.60804020101e-06
  +1.65829145729e-06
  +1.70854271357e-06
  +1.75879396985e-06
  +1.80904522613e-06
  +1.85929648241e-06
  +1.90954773869e-06
  +1.95979899497e-06
  +2.01005025126e-06
  +2.06030150754e-06
  +2.11055276382e-06
  +2.16080402010e-06
  +2.21105527638e-06
  +2.26130653266e-06
  +2.31155778894e-06
  +2.36180904523e-06
  +2.41206030151e-06
  +2.46231155779e-06
  +2.51256281407e-06
  +2.56281407035e-06
  +2.61306532663e-06
  +2.66331658291e-06
  +2.71356783920e-06
  +2.76381909548e-06
  +2.81407035176e-06
  +2.86432160804e-06
  +2.91457286432e-06
  +2.96482412060e-06
  +3.01507537688e-06
  +3.06532663317e-06
  +3.11557788945e-06
  +3.16582914573e-06
  +3.21608040201e-06
  +3.26633165829e-06
  +3.31658291457e-06
  +3.36683417085e-06
  +3.41708542714e-06
  +3.46733668342e-06
  +3.51758793970e-06
  +3.56783919598e-06
  +3.61809045226e-06
  +3.66834170854e-06
  +3.71859296482e-06
  +3.76884422111e-06
  +3.81909547739e-06
  +3.86934673367e-06
  +3.91959798995e-06
  +3.96984924623e-06
  +4.02010050251e-06
  +4.07035175879e-06
  +4.12060301508e-06
  +4.17085427136e-06
  +4.22110552764e-06
  +4.27135678392e-06
  +4.32160804020e-06
  +4.37185929648e-06
  +4.42211055276e-06
  +4.47236180905e-06
  +4.52261306533e-06
  +4.57286432161e-06
  +4.62311557789e-06
  +4.67336683417e-06
  +4.72361809045e-06
  +4.77386934673e-06
  +4.82412060302e-06
  +4.87437185930e-06
  +4.92462311558e-06
  +4.97487437186e-06
  +5.02512562814e-06
  +5.07537688442e-06
  +5.12562814070e-06
  +5.17587939698e-06
  +5.22613065327e-06
  +5.27638190955e-06
  +5.32663316583e-06
  +5.37688442211e-06
  +5.42713567839e-06
  +5.47738693467e-06
  +5.52763819095e-06
  +5.57788944724e-06
  +5.62814070352e-06
  +5.67839195980e-06
  +5.72864321608e-06
  +5.77889447236e-06
  +5.82914572864e-06
  +5.87939698492e-06
  +5.92964824121e-06
  +5.97989949749e-06
  +6.03015075377e-06
  +6.08040201005e-06
  +6.13065326633e-06
  +6.18090452261e-06
  +6.23115577889e-06
  +6.28140703518e-06
  +6.33165829146e-06
  +6.38190954774e-06
  +6.43216080402e-06
  +6.48241206030e-06
  +6.53266331658e-06
  +6.58291457286e-06
  +6.63316582915e-06
  +6.68341708543e-06
  +6.73366834171e-06
  +6.78391959799e-06
  +6.83417085427e-06
  +6.88442211055e-06
  +6.93467336683e-06
  +6.98492462312e-06
  +7.03517587940e-06
  +7.08542713568e-06
  +7.13567839196e-06
  +7.18592964824e-06
  +7.23618090452e-06
  +7.28643216080e-06
  +7.33668341709e-06
  +7.38693467337e-06
  +7.43718592965e-06
  +7.48743718593e-06
  +7.53768844221e-06
  +7.58793969849e-06
  +7.63819095477e-06
  +7.68844221106e-06
  +7.73869346734e-06
  +7.78894472362e-06
  +7.83919597990e-06
  +7.88944723618e-06
  +7.93969849246e-06
  +7.98994974874e-06
  +8.04020100503e-06
  +8.09045226131e-06
  +8.14070351759e-06
  +8.19095477387e-06
  +8.24120603015e-06
  +8.29145728643e-06
  +8.34170854271e-06
  +8.39195979899e-06
  +8.44221105528e-06
  +8.49246231156e-06
  +8.54271356784e-06
  +8.59296482412e-06
  +8.64321608040e-06
  +8.69346733668e-06
  +8.74371859296e-06
  +8.79396984925e-06
  +8.84422110553e-06
  +8.89447236181e-06
  +8.94472361809e-06
  +8.99497487437e-06
  +9.04522613065e-06
  +9.09547738693e-06
  +9.14572864322e-06
  +9.19597989950e-06
  +9.24623115578e-06
  +9.29648241206e-06
  +9.34673366834e-06
  +9.39698492462e-06
  +9.44723618090e-06
  +9.49748743719e-06
  +9.54773869347e-06
  +9.59798994975e-06
  +9.64824120603e-06
  +9.69849246231e-06
  +9.74874371859e-06
  +9.79899497487e-06
  +9.84924623116e-06
  +9.89949748744e-06
  +9.94974874372e-06
  +1.00000000000e-05
</indep>
<dep RF.It time>
  -3.05718009531e-12
  -1.19970184296e-09
  -2.39819140519e-09
  -3.59423234171e-09
  -4.78668935648e-09
  -5.97435229241e-09
  -7.15604178628e-09
  -8.33055465783e-09
  -9.49674028842e-09
  -1.06534712942e-08
  -1.17995170953e-08
  -1.29338038997e-08
  -1.40551655042e-08
  -1.51625190341e-08
  -1.62546832939e-08
  -1.73306540061e-08
  -1.83893566102e-08
  -1.94296358998e-08
  -2.04505802731e-08
  -2.14510854215e-08
  -2.24302076893e-08
  -2.33869516140e-08
  -2.43203466890e-08
  -2.52294716416e-08
  -2.61134141117e-08
  -2.69713122228e-08
  -2.78022987206e-08
  -2.86055714633e-08
  -2.93803021084e-08
  -3.01256973577e-08
  -3.08410351170e-08
  -3.15256528897e-08
  -3.21787813180e-08
  -3.27998249272e-08
  -3.33881660432e-08
  -3.39431621824e-08
  -3.44643096126e-08
  -3.49511127993e-08
  -3.54030323694e-08
  -3.58196573395e-08
  -3.62005191793e-08
  -3.65452926687e-08
  -3.68536191671e-08
  -3.71251502183e-08
  -3.73596808425e-08
  -3.75569641735e-08
  -3.77167429584e-08
  -3.78389511566e-08
  -3.79233955022e-08
  -3.79700159114e-08
  -3.79787330801e-08
  -3.79496203619e-08
  -3.78826298073e-08
  -3.77778528430e-08
  -3.76354158136e-08
  -3.74554194124e-08
  -3.72380615877e-08
  -3.69835761010e-08
  -3.66921789814e-08
  -3.63641979374e-08
  -3.59999740668e-08
  -3.55998157309e-08
  -3.51641157146e-08
  -3.46934024405e-08
  -3.41880196741e-08
  -3.36485819455e-08
  -3.30755546290e-08
  -3.24695700991e-08
  -3.18311427142e-08
  -3.11610037333e-08
  -3.04597486853e-08
  -2.97281427107e-08
  -2.89668460870e-08
  -2.81766648967e-08
  -2.73584115963e-08
  -2.65128019978e-08
  -2.56407801460e-08
  -2.47431515981e-08
  -2.38208731667e-08
  -2.28747708907e-08
  -2.19058795406e-08
  -2.09151359027e-08
  -1.99034995248e-08
  -1.88720195925e-08
  -1.78217062042e-08
  -1.67535621294e-08
  -1.56687330614e-08
  -1.45682473264e-08
  -1.34532204689e-08
  -1.23247974203e-08
  -1.11839942605e-08
  -1.00320711315e-08
  -8.87010038481e-09
  -7.69930991890e-09
  -6.52077269001e-09
  -5.33572570862e-09
  -4.14535483561e-09
  -2.95078982923e-09
  -1.75328871720e-09
  -5.54010135677e-10
  +6.45856223713e-10
  +1.84508517464e-09
  +3.04248057684e-09
  +4.23688315939e-09
  +5.42711790376e-09
  +6.61189814185e-09
  +7.79015601583e-09
  +8.96066839366e-09
  +1.01222815953e-08
  +1.12737978102e-08
  +1.24141127413e-08
  +1.35420812389e-08
  +1.46565531065e-08
  +1.57564789589e-08
  +1.68406656384e-08
  +1.79081223171e-08
  +1.89577648916e-08
  +1.99885132021e-08
  +2.09993363477e-08
  +2.19892745845e-08
  +2.29573097155e-08
  +2.39025050371e-08
  +2.48238608780e-08
  +2.57205418591e-08
  +2.65915602686e-08
  +2.74361025624e-08
  +2.82533492272e-08
  +2.90424209745e-08
  +2.98026018071e-08
  +3.05330486976e-08
  +3.12331109046e-08
  +3.19020697435e-08
  +3.25392195524e-08
  +3.31440020021e-08
  +3.37157453890e-08
  +3.42538918886e-08
  +3.47579152780e-08
  +3.52273357820e-08
  +3.56616430074e-08
  +3.60604448657e-08
  +3.64233061176e-08
  +3.67498942625e-08
  +3.70398866096e-08
  +3.72929590293e-08
  +3.75088578525e-08
  +3.76874364196e-08
  +3.78284302151e-08
  +3.79317375012e-08
  +3.79972958376e-08
  +3.80249740312e-08
  +3.80147878193e-08
  +3.79666952107e-08
  +3.78808420175e-08
  +3.77572114171e-08
  +3.75959363633e-08
  +3.73972514133e-08
  +3.71613013030e-08
  +3.68883115600e-08
  +3.65786010782e-08
  +3.62324448268e-08
  +3.58501821464e-08
  +3.54322131566e-08
  +3.49789787965e-08
  +3.44908497122e-08
  +3.39683750464e-08
  +3.34120981146e-08
  +3.28224788416e-08
  +3.22002132010e-08
  +3.15458664071e-08
  +3.08600689623e-08
  +3.01435449327e-08
  +2.93969994579e-08
  +2.86211785981e-08
  +2.78168429307e-08
  +2.69848224737e-08
  +2.61258791500e-08
  +2.52409439818e-08
  +2.43308681318e-08
  +2.33965830294e-08
  +2.24389653792e-08
  +2.14590185024e-08
  +2.04577086191e-08
  +1.94360119139e-08
  +1.83949745938e-08
  +1.73356438921e-08
  +1.62590343654e-08
  +1.51662251143e-08
  +1.40583245589e-08
  +1.29364324060e-08
  +1.18016980564e-08
  +1.06552094327e-08
  +9.49809664853e-09
  +8.33155843473e-09
  +7.15675320583e-09
  +5.97481671157e-09
  +4.78694841511e-09
  +3.59435618952e-09
  +2.39816490216e-09
  +1.19963514575e-09
  -9.08402256164e-14
</dep>
<dep V1.It time>
  -7.96019900497e-03
  -7.96019900497e-03
  -7.96019900497e-03
  -7.96019900498e-03
  -7.96019900498e-03
  -7.96019900498e-03
  -7.96019900498e-03
  -7.96019900498e-03
  -7.96019900498e-03
  -7.96019900498e-03
  -7.96019900498e-03
  -7.96019900498e-03
  -7.96019900497e-03
  -7.96019900498e-03
  -7.96019900498e-03
  -7.96019900498e-03
  -7.96019900498e-03
  -7.96019900497e-03
  -7.96019900497e-03
  -7.96019900498e-03
  -7.96019900498e-03
  -7.96019900498e-03
  -7.96019900498e-03
  -7.96019900498e-03
  -7.96019900498e-03
  -7.96019900498e-03
  -7.96019900498e-03
  -7.96019900498e-03
  -7.96019900498e-03
  -7.96019900498e-03
  -7.96019900498e-03
  -7.96019900498e-03
  -7.96019900498e-03
  -7.96019900498e-03
  -7.96019900498e-03
  -7.96019900498e-03
  -7.96019900498e-03
  -7.96019900498e-03
  -7.96019900498e-03
  -7.96019900498e-03
  -7.96019900498e-03
  -7.96019900498e-03
  -7.96019900498e-03
  -7.96019900498e-03
  -7.96019900498e-03
  -7.96019900498e-03
  -7.96019900498e-03
  -7.96019900497e-03
  -7.96019900498e-03
  -7.96019900498e-03
  -7.96019900498e-03
  -7.96019900498e-03
  -7.96019900497e-03
  -7.96019900498e-03
  -7.96019900498e-03
  -7.96019900498e-03
  -7.96019900497e-03
  -7.96019900497e-03
  -7.96019900498e-03
  -7.96019900498e-03
  -7.96019900498e-03
  -7.96019900498e-03
  -7.96019900498e-03
  -7.96019900498e-03
  -7.96019900498e-03
  -7.96019900498e-03
  -7.96019900498e-03
  -7.96019900498e-03
  -7.96019900498e-03
  -7.96019900498e-03
  -7.96019900497e-03
  -7.96019900497e-03
  -7.96019900498e-03
  -7.96019900497e-03
  -7.96019900498e-03
  -7.96019900498e-03
  -7.96019900498e-03
  -7.96019900497e-03
  -7.96019900498e-03
  -7.96019900498e-03
  -7.96019900498e-03
  -7.96019900498e-03
  -7.96019900498e-03
  -7.96019900498e-03
  -7.96019900498e-03
  -7.96019900498e-03
  -7.96019900498e-03
  -7.96019900498e-03
  -7.96019900498e-03
  -7.96019900497e-03
  -7.96019900498e-03
  -7.96019900498e-03
  -7.96019900498e-03
  -7.96019900498e-03
  -7.96019900497e-03
  -7.96019900498e-03
  -7.96019900497e-03
  -7.96019900498e-03
  -7.96019900498e-03
  -7.96019900498e-03
  -7.96019900498e-03
  -7.96019900498e-03
  -7.96019900497e-03
  -7.96019900498e-03
  -7.96019900498e-03
  -7.96019900498e-03
  -7.96019900498e-03
  -7.96019900498e-03
  -7.96019900498e-03
  -7.96019900498e-03
  -7.96019900498e-03
  -7.96019900498e-03
  -7.96019900498e-03
  -7.96019900498e-03
  -7.96019900498e-03
  -7.96019900498e-03
  -7.96019900497e-03
  -7.96019900498e-03
  -7.96019900498e-03
  -7.96019900498e-03
  -7.96019900498e-03
  -7.96019900498e-03
  -7.96019900498e-03
  -7.96019900498e-03
  -7.96019900498e-03
  -7.96019900498e-03
  -7.96019900498e-03
  -7.96019900498e-03
  -7.96019900498e-03
  -7.96019900498e-03
  -7.96019900498e-03
  -7.96019900498e-03
  -7.96019900497e-03
  -7.96019900498e-03
  -7.96019900497e-03
  -7.96019900498e-03
  -7.96019900498e-03
  -7.96019900498e-03
  -7.96019900498e-03
  -7.96019900498e-03
  -7.96019900498e-03
  -7.96019900498e-03
  -7.96019900498e-03
  -7.96019900498e-03
  -7.96019900498e-03
  -7.96019900498e-03
  -7.96019900498e-03
  -7.96019900498e-03
  -7.96019900497e-03
  -7.96019900498e-03
  -7.96019900498e-03
  -7.96019900498e-03
  -7.96019900498e-03
  -7.96019900498e-03
  -7.96019900498e-03
  -7.96019900498e-03
  -7.96019900498e-03
  -7.96019900497e-03
  -7.96019900498e-03
  -7.96019900498e-03
  -7.96019900498e-03
  -7.96019900498e-03
  -7.96019900498e-03
  -7.96019900498e-03
  -7.96019900498e-03
  -7.96019900498e-03
  -7.96019900498e-03
  -7.96019900498e-03
  -7.96019900498e-03
  -7.96019900498e-03
  -7.96019900498e-03
  -7.96019900498e-03
  -7.96019900497e-03
  -7.96019900498e-03
  -7.96019900498e-03
  -7.96019900498e-03
  -7.96019900497e-03
  -7.96019900498e-03
  -7.96019900497e-03
  -7.96019900498e-03
  -7.96019900498e-03
  -7.96019900498e-03
  -7.96019900498e-03
  -7.96019900498e-03
  -7.96019900498e-03
  -7.96019900498e-03
  -7.96019900498e-03
  -7.96019900498e-03
  -7.96019900498e-03
  -7.96019900498e-03
  -7.96019900498e-03
  -7.96019900498e-03
  -7.96019900497e-03
  -7.96019900498e-03
  -7.96019900498e-03
  -7.96019900497e-03
  -7.96019900498e-03
  -7.96019900498e-03
  -7.96019900498e-03
  -7.96019900498e-03
</dep>
<dep V2.It time>
  -3.98010012572e-05
  -3.98009950440e-05
  -3.98009950769e-05
  -3.98009950381e-05
  -3.98009950438e-05
  -3.98009950502e-05
  -3.98009950665e-05
  -3.98009950412e-05
  -3.98009950155e-05
  -3.98009950609e-05
  -3.98009950195e-05
  -3.98009950310e-05
  -3.98009950231e-05
  -3.98009950670e-05
  -3.98009950050e-05
  -3.98009950092e-05
  -3.98009950755e-05
  -3.98009950002e-05
  -3.98009950391e-05
  -3.98009950154e-05
  -3.98009950387e-05
  -3.98009950692e-05
  -3.98009950727e-05
  -3.98009950678e-05
  -3.98009950420e-05
  -3.98009950346e-05
  -3.98009950209e-05
  -3.98009950544e-05
  -3.98009950788e-05
  -3.98009950510e-05
  -3.98009950138e-05
  -3.98009950703e-05
  -3.98009950433e-05
  -3.98009950459e-05
  -3.98009950812e-05
  -3.98009950347e-05
  -3.98009950076e-05
  -3.98009950485e-05
  -3.98009950472e-05
  -3.98009950841e-05
  -3.98009950507e-05
  -3.98009950579e-05
  -3.98009950753e-05
  -3.98009950189e-05
  -3.98009950229e-05
  -3.98009950603e-05
  -3.98009950078e-05
  -3.98009950554e-05
  -3.98009950574e-05
  -3.98009950628e-05
  -3.98009950049e-05
  -3.98009950508e-05
  -3.98009950436e-05
  -3.98009950335e-05
  -3.98009950654e-05
  -3.98009950548e-05
  -3.98009950397e-05
  -3.98009950548e-05
  -3.98009950235e-05
  -3.98009950216e-05
  -3.98009950781e-05
  -3.98009950815e-05
  -3.98009950191e-05
  -3.98009950831e-05
  -3.98009950176e-05
  -3.98009950484e-05
  -3.98009950281e-05
  -3.98009950813e-05
  -3.98009950253e-05
  -3.98009950534e-05
  -3.98009950179e-05
  -3.98009950535e-05
  -3.98009950197e-05
  -3.98009950127e-05
  -3.98009950831e-05
  -3.98009950272e-05
  -3.98009950512e-05
  -3.98009950254e-05
  -3.98009950762e-05
  -3.98009950133e-05
  -3.98009950237e-05
  -3.98009950483e-05
  -3.98009950298e-05
  -3.98009950514e-05
  -3.98009950761e-05
  -3.98009950137e-05
  -3.98009950295e-05
  -3.98009950151e-05
  -3.98009950084e-05
  -3.98009950776e-05
  -3.98009950010e-05
  -3.98009950292e-05
  -3.98009950074e-05
  -3.98009950776e-05
  -3.98009950479e-05
  -3.98009950451e-05
  -3.98009950786e-05
  -3.98009950323e-05
  -3.98009950436e-05
  -3.98009950408e-05
  -3.98009950122e-05
  -3.98009950171e-05
  -3.98009950572e-05
  -3.98009950622e-05
  -3.98009950004e-05
  -3.98009950762e-05
  -3.98009950588e-05
  -3.98009950473e-05
  -3.98009950150e-05
  -3.98009950432e-05
  -3.98009950431e-05
  -3.98009950318e-05
  -3.98009950621e-05
  -3.98009950084e-05
  -3.98009950680e-05
  -3.98009950574e-05
  -3.98009950177e-05
  -3.98009950177e-05
  -3.98009950645e-05
  -3.98009950605e-05
  -3.98009950697e-05
  -3.98009950346e-05
  -3.98009950722e-05
  -3.98009950133e-05
  -3.98009950493e-05
  -3.98009950688e-05
  -3.98009950260e-05
  -3.98009950529e-05
  -3.98009950056e-05
  -3.98009950580e-05
  -3.98009950522e-05
  -3.98009950309e-05
  -3.98009950731e-05
  -3.98009950223e-05
  -3.98009950189e-05
  -3.98009950383e-05
  -3.98009950597e-05
  -3.98009950368e-05
  -3.98009950563e-05
  -3.98009950349e-05
  -3.98009950495e-05
  -3.98009950406e-05
  -3.98009950024e-05
  -3.98009950063e-05
  -3.98009950553e-05
  -3.98009950095e-05
  -3.98009950454e-05
  -3.98009950838e-05
  -3.98009950420e-05
  -3.98009950544e-05
  -3.98009950324e-05
  -3.98009950826e-05
  -3.98009950053e-05
  -3.98009950093e-05
  -3.98009950749e-05
  -3.98009950515e-05
  -3.98009950478e-05
  -3.98009950835e-05
  -3.98009950632e-05
  -3.98009950559e-05
  -3.98009950730e-05
  -3.98009950757e-05
  -3.98009950145e-05
  -3.98009950547e-05
  -3.98009950689e-05
  -3.98009950111e-05
  -3.98009950742e-05
  -3.98009950374e-05
  -3.98009950130e-05
  -3.98009950455e-05
  -3.98009950523e-05
  -3.98009950519e-05
  -3.98009950405e-05
  -3.98009950442e-05
  -3.98009950052e-05
  -3.98009950613e-05
  -3.98009950598e-05
  -3.98009950639e-05
  -3.98009950239e-05
  -3.98009950515e-05
  -3.98009950470e-05
  -3.98009950322e-05
  -3.98009950518e-05
  -3.98009950492e-05
  -3.98009950050e-05
  -3.98009950037e-05
  -3.98009950332e-05
  -3.98009950546e-05
  -3.98009950774e-05
  -3.98009950383e-05
  -3.98009950253e-05
  -3.98009950644e-05
  -3.98009950634e-05
  -3.98009950311e-05
  -3.98009950397e-05
  -3.98009950457e-05
  -3.98009950007e-05
  -3.98009950352e-05
  -3.98009950099e-05
  -3.98009950320e-05
</dep>
<dep _net12.Vt time>
  +1.00000000000e+01
  +1.00000000000e+01
  +1.00000000000e+01
  +1.00000000000e+01
  +1.00000000000e+01
  +1.00000000000e+01
  +1.00000000000e+01
  +1.00000000000e+01
  +1.00000000000e+01
  +1.00000000000e+01
  +1.00000000000e+01
  +1.00000000000e+01
  +1.00000000000e+01
  +1.00000000000e+01
  +1.00000000000e+01
  +1.00000000000e+01
  +1.00000000000e+01
  +1.00000000000e+01
  +1.00000000000e+01
  +1.00000000000e+01
  +1.00000000000e+01
  +1.00000000000e+01
  +1.00000000000e+01
  +1.00000000000e+01
  +1.00000000000e+01
  +1.00000000000e+01
  +1.00000000000e+01
  +1.00000000000e+01
  +1.00000000000e+01
  +1.00000000000e+01
  +1.00000000000e+01
  +1.00000000000e+01
  +1.00000000000e+01
  +1.00000000000e+01
  +1.00000000000e+01
  +1.00000000000e+01
  +1.00000000000e+01
  +1.00000000000e+01
  +1.00000000000e+01
  +1.00000000000e+01
  +1.00000000000e+01
  +1.00000000000e+01
  +1.00000000000e+01
  +1.00000000000e+01
  +1.00000000000e+01
  +1.00000000000e+01
  +1.00000000000e+01
  +1.00000000000e+01
  +1.00000000000e+01
  +1.00000000000e+01
  +1.00000000000e+01
  +1.00000000000e+01
  +1.00000000000e+01
  +1.00000000000e+01
  +1.00000000000e+01
  +1.00000000000e+01
  +1.00000000000e+01
  +1.00000000000e+01
  +1.00000000000e+01
  +1.00000000000e+01
  +1.00000000000e+01
  +1.00000000000e+01
  +1.00000000000e+01
  +1.00000000000e+01
  +1.00000000000e+01
  +1.00000000000e+01
  +1.00000000000e+01
  +1.00000000000e+01
  +1.00000000000e+01
  +1.00000000000e+01
  +1.00000000000e+01
  +1.00000000000e+01
  +1.00000000000e+01
  +1.00000000000e+01
  +1.00000000000e+01
  +1.00000000000e+01
  +1.00000000000e+01
  +1.00000000000e+01
  +1.00000000000e+01
  +1.00000000000e+01
  +1.00000000000e+01
  +1.00000000000e+01
  +1.00000000000e+01
  +1.00000000000e+01
  +1.00000000000e+01
  +1.00000000000e+01
  +1.00000000000e+01
  +1.00000000000e+01
  +1.00000000000e+01
  +1.00000000000e+01
  +1.00000000000e+01
  +1.00000000000e+01
  +1.00000000000e+01
  +1.00000000000e+01
  +1.00000000000e+01
  +1.00000000000e+01
  +1.00000000000e+01
  +1.00000000000e+01
  +1.00000000000e+01
  +1.00000000000e+01
  +1.00000000000e+01
  +1.00000000000e+01
  +1.00000000000e+01
  +1.00000000000e+01
  +1.00000000000e+01
  +1.00000000000e+01
  +1.00000000000e+01
  +1.00000000000e+01
  +1.00000000000e+01
  +1.00000000000e+01
  +1.00000000000e+01
  +1.00000000000e+01
  +1.00000000000e+01
  +1.00000000000e+01
  +1.00000000000e+01
  +1.00000000000e+01
  +1.00000000000e+01
  +1.00000000000e+01
  +1.00000000000e+01
  +1.00000000000e+01
  +1.00000000000e+01
  +1.00000000000e+01
  +1.00000000000e+01
  +1.00000000000e+01
  +1.00000000000e+01
  +1.00000000000e+01
  +1.00000000000e+01
  +1.00000000000e+01
  +1.00000000000e+01
  +1.00000000000e+01
  +1.00000000000e+01
  +1.00000000000e+01
  +1.00000000000e+01
  +1.00000000000e+01
  +1.00000000000e+01
  +1.00000000000e+01
  +1.00000000000e+01
  +1.00000000000e+01
  +1.00000000000e+01
  +1.00000000000e+01
  +1.00000000000e+01
  +1.00000000000e+01
  +1.00000000000e+01
  +1.00000000000e+01
  +1.00000000000e+01
