<Qucs Dataset 0.0.18>
<indep time 200>
  +0.00000000000e+00
  +5.02512562814e-08
  +1.00502512563e-07
  +1.50753768844e-07
  +2.01005025126e-07
  +2.51256281407e-07
  +3.01507537688e-07
  +3.51758793970e-07
  +4.02010050251e-07
  +4.52261306533e-07
  +5.02512562814e-07
  +5.52763819095e-07
  +6.03015075377e-07
  +6.53266331658e-07
  +7.03517587940e-07
  +7.53768844221e-07
  +8.04020100503e-07
  +8.54271356784e-07
  +9.04522613065e-07
  +9.54773869347e-07
  +1.00502512563e-06
  +1.05527638191e-06
  +1.10552763819e-06
  +1.15577889447e-06
  +1.20603015075e-06
  +1.25628140704e-06
  +1.30653266332e-06
  +1.35678391960e-06
  +1.40703517588e-06
  +1.45728643216e-06
  +1.50753768844e-06
  +1.55778894472e-06
  +1.60804020101e-06
  +1.65829145729e-06
  +1.70854271357e-06
  +1.75879396985e-06
  +1.80904522613e-06
  +1.85929648241e-06
  +1.90954773869e-06
  +1.95979899497e-06
  +2.01005025126e-06
  +2.06030150754e-06
  +2.11055276382e-06
  +2.16080402010e-06
  +2.21105527638e-06
  +2.26130653266e-06
  +2.31155778894e-06
  +2.36180904523e-06
  +2.41206030151e-06
  +2.46231155779e-06
  +2.51256281407e-06
  +2.56281407035e-06
  +2.61306532663e-06
  +2.66331658291e-06
  +2.71356783920e-06
  +2.76381909548e-06
  +2.81407035176e-06
  +2.86432160804e-06
  +2.91457286432e-06
  +2.96482412060e-06
  +3.01507537688e-06
  +3.06532663317e-06
  +3.11557788945e-06
  +3.16582914573e-06
  +3.21608040201e-06
  +3.26633165829e-06
  +3.31658291457e-06
  +3.36683417085e-06
  +3.41708542714e-06
  +3.46733668342e-06
  +3.51758793970e-06
  +3.56783919598e-06
  +3.61809045226e-06
  +3.66834170854e-06
  +3.71859296482e-06
  +3.76884422111e-06
  +3.81909547739e-06
  +3.86934673367e-06
  +3.91959798995e-06
  +3.96984924623e-06
  +4.02010050251e-06
  +4.07035175879e-06
  +4.12060301508e-06
  +4.17085427136e-06
  +4.22110552764e-06
  +4.27135678392e-06
  +4.32160804020e-06
  +4.37185929648e-06
  +4.42211055276e-06
  +4.47236180905e-06
  +4.52261306533e-06
  +4.57286432161e-06
  +4.62311557789e-06
  +4.67336683417e-06
  +4.72361809045e-06
  +4.77386934673e-06
  +4.82412060302e-06
  +4.87437185930e-06
  +4.92462311558e-06
  +4.97487437186e-06
  +5.02512562814e-06
  +5.07537688442e-06
  +5.12562814070e-06
  +5.17587939698e-06
  +5.22613065327e-06
  +5.27638190955e-06
  +5.32663316583e-06
  +5.37688442211e-06
  +5.42713567839e-06
  +5.47738693467e-06
  +5.52763819095e-06
  +5.57788944724e-06
  +5.62814070352e-06
  +5.67839195980e-06
  +5.72864321608e-06
  +5.77889447236e-06
  +5.82914572864e-06
  +5.87939698492e-06
  +5.92964824121e-06
  +5.97989949749e-06
  +6.03015075377e-06
  +6.08040201005e-06
  +6.13065326633e-06
  +6.18090452261e-06
  +6.23115577889e-06
  +6.28140703518e-06
  +6.33165829146e-06
  +6.38190954774e-06
  +6.43216080402e-06
  +6.48241206030e-06
  +6.53266331658e-06
  +6.58291457286e-06
  +6.63316582915e-06
  +6.68341708543e-06
  +6.73366834171e-06
  +6.78391959799e-06
  +6.83417085427e-06
  +6.88442211055e-06
  +6.93467336683e-06
  +6.98492462312e-06
  +7.03517587940e-06
  +7.08542713568e-06
  +7.13567839196e-06
  +7.18592964824e-06
  +7.23618090452e-06
  +7.28643216080e-06
  +7.33668341709e-06
  +7.38693467337e-06
  +7.43718592965e-06
  +7.48743718593e-06
  +7.53768844221e-06
  +7.58793969849e-06
  +7.63819095477e-06
  +7.68844221106e-06
  +7.73869346734e-06
  +7.78894472362e-06
  +7.83919597990e-06
  +7.88944723618e-06
  +7.93969849246e-06
  +7.98994974874e-06
  +8.04020100503e-06
  +8.09045226131e-06
  +8.14070351759e-06
  +8.19095477387e-06
  +8.24120603015e-06
  +8.29145728643e-06
  +8.34170854271e-06
  +8.39195979899e-06
  +8.44221105528e-06
  +8.49246231156e-06
  +8.54271356784e-06
  +8.59296482412e-06
  +8.64321608040e-06
  +8.69346733668e-06
  +8.74371859296e-06
  +8.79396984925e-06
  +8.84422110553e-06
  +8.89447236181e-06
  +8.94472361809e-06
  +8.99497487437e-06
  +9.04522613065e-06
  +9.09547738693e-06
  +9.14572864322e-06
  +9.19597989950e-06
  +9.24623115578e-06
  +9.29648241206e-06
  +9.34673366834e-06
  +9.39698492462e-06
  +9.44723618090e-06
  +9.49748743719e-06
  +9.54773869347e-06
  +9.59798994975e-06
  +9.64824120603e-06
  +9.69849246231e-06
  +9.74874371859e-06
  +9.79899497487e-06
  +9.84924623116e-06
  +9.89949748744e-06
  +9.94974874372e-06
  +1.00000000000e-05
</indep>
<dep RF.It time>
  -3.05718009531e-12
  -1.19970184296e-09
  -2.39819140519e-09
  -3.59423234171e-09
  -4.78668935648e-09
  -5.97435229241e-09
  -7.15604178628e-09
  -8.33055465783e-09
  -9.49674028842e-09
  -1.06534712942e-08
  -1.17995170953e-08
  -1.29338038997e-08
  -1.40551655042e-08
  -1.51625190341e-08
  -1.62546832939e-08
  -1.73306543230e-08
  -1.83893233879e-08
  -1.94296502618e-08
  -2.04505755270e-08
  -2.14511088070e-08
  -2.24302104242e-08
  -2.33869522582e-08
  -2.43203436242e-08
  -2.52294439081e-08
  -2.61134288834e-08
  -2.69713074602e-08
  -2.78023241061e-08
  -2.86055851699e-08
  -2.93802671935e-08
  -3.01256883108e-08
  -3.08410340502e-08
  -3.15256373262e-08
  -3.21787980262e-08
  -3.27998096814e-08
  -3.33881440263e-08
  -3.39431582066e-08
  -3.44643200089e-08
  -3.49510959048e-08
  -3.54030425608e-08
  -3.58196252820e-08
  -3.62005110107e-08
  -3.65452815888e-08
  -3.68535967558e-08
  -3.71251440848e-08
  -3.73596900536e-08
  -3.75569678224e-08
  -3.77167523929e-08
  -3.78389528695e-08
  -3.79233861796e-08
  -3.79699932520e-08
  -3.79787578928e-08
  -3.79495990726e-08
  -3.78826356053e-08
  -3.77778464326e-08
  -3.76353990352e-08
  -3.74554246178e-08
  -3.72380809102e-08
  -3.69835548956e-08
  -3.66921900173e-08
  -3.63641984202e-08
  -3.59999478009e-08
  -3.55998023121e-08
  -3.51641142938e-08
  -3.46933848342e-08
  -3.41880446133e-08
  -3.36485953702e-08
  -3.30755467754e-08
  -3.24695323522e-08
  -3.18311306393e-08
  -3.11610108068e-08
  -3.04597714838e-08
  -2.97281286212e-08
  -2.89668415837e-08
  -2.81766863546e-08
  -2.73584103309e-08
  -2.65128240779e-08
  -2.56407856193e-08
  -2.47431424717e-08
  -2.38208768255e-08
  -2.28748016461e-08
  -2.19058825848e-08
  -2.09151446928e-08
  -1.99035117894e-08
  -1.88720302200e-08
  -1.78216821338e-08
  -1.67535612411e-08
  -1.56687188250e-08
  -1.45682545125e-08
  -1.34532517892e-08
  -1.23247805305e-08
  -1.11840155011e-08
  -1.00320872401e-08
  -8.87009758246e-09
  -7.69930086925e-09
  -6.52077284061e-09
  -5.33572921754e-09
  -4.14533910565e-09
  -2.95080573325e-09
  -1.75329131332e-09
  -5.54005602760e-10
  +6.45856936525e-10
  +1.84506233475e-09
  +3.04248061460e-09
  +4.23689448530e-09
  +5.42710834056e-09
  +6.61191634070e-09
  +7.79014577699e-09
  +8.96065716179e-09
  +1.01222708149e-08
  +1.12737833606e-08
  +1.24141033321e-08
  +1.35420683049e-08
  +1.46565742775e-08
  +1.57564555562e-08
  +1.68406983952e-08
  +1.79081373710e-08
  +1.89577357413e-08
  +1.99885181151e-08
  +2.09993583382e-08
  +2.19892713233e-08
  +2.29573303230e-08
  +2.39025207075e-08
  +2.48238743661e-08
  +2.57205137855e-08
  +2.65915746050e-08
  +2.74361314238e-08
  +2.82533209876e-08
  +2.90424277681e-08
  +2.98025702971e-08
  +3.05330730180e-08
  +3.12330973426e-08
  +3.19020851026e-08
  +3.25392502861e-08
  +3.31440041952e-08
  +3.37157254845e-08
  +3.42538904958e-08
  +3.47579175005e-08
  +3.52273182440e-08
  +3.56616682299e-08
  +3.60604381574e-08
  +3.64232969191e-08
  +3.67499009641e-08
  +3.70398598111e-08
  +3.72929383465e-08
  +3.75088602197e-08
  +3.76874075419e-08
  +3.78284530415e-08
  +3.79317633802e-08
  +3.79972804838e-08
  +3.80249992027e-08
  +3.80147681927e-08
  +3.79667342118e-08
  +3.78808157103e-08
  +3.77572134458e-08
  +3.75959711855e-08
  +3.73972615552e-08
  +3.71613221911e-08
  +3.68883254628e-08
  +3.65786220500e-08
  +3.62324590780e-08
  +3.58501861950e-08
  +3.54322440544e-08
  +3.49789849661e-08
  +3.44908728154e-08
  +3.39683998811e-08
  +3.34121010068e-08
  +3.28224799907e-08
  +3.22002041478e-08
  +3.15458599021e-08
  +3.08600910190e-08
  +3.01435677697e-08
  +2.93969840834e-08
  +2.86211744920e-08
  +2.78168558309e-08
  +2.69848199166e-08
  +2.61258967836e-08
  +2.52409505403e-08
  +2.43308833383e-08
  +2.33965669882e-08
  +2.24389647071e-08
  +2.14590385452e-08
  +2.04576850815e-08
  +1.94360137108e-08
  +1.83949588531e-08
  +1.73356075505e-08
  +1.62590127648e-08
  +1.51662161056e-08
  +1.40583337533e-08
  +1.29364569154e-08
  +1.18016844571e-08
  +1.06552112719e-08
  +9.49810269768e-09
  +8.33158998358e-09
  +7.15676444909e-09
  +5.97480296942e-09
  +4.78693229866e-09
  +3.59431876440e-09
  +2.39814688031e-09
  +1.19960014900e-09
  -9.23262498819e-14
</dep>
<dep V1.It time>
  -7.96019900497e-03
  -7.96019900497e-03
  -7.96019900497e-03
  -7.96019900498e-03
  -7.96019900498e-03
  -7.96019900498e-03
  -7.96019900498e-03
  -7.96019900498e-03
  -7.96019900498e-03
  -7.96019900498e-03
  -7.96019900498e-03
  -7.96019900498e-03
  -7.96019900497e-03
  -7.96019900498e-03
  -7.96019900498e-03
  -7.96019900497e-03
  -7.96019900498e-03
  -7.96019900498e-03
  -7.96019900498e-03
  -7.96019900498e-03
  -7.96019900498e-03
  -7.96019900498e-03
  -7.96019900498e-03
  -7.96019900498e-03
  -7.96019900497e-03
  -7.96019900498e-03
  -7.96019900498e-03
  -7.96019900498e-03
  -7.96019900498e-03
  -7.96019900498e-03
  -7.96019900498e-03
  -7.96019900498e-03
  -7.96019900497e-03
  -7.96019900497e-03
  -7.96019900498e-03
  -7.96019900498e-03
  -7.96019900497e-03
  -7.96019900498e-03
  -7.96019900497e-03
  -7.96019900498e-03
  -7.96019900498e-03
  -7.96019900498e-03
  -7.96019900498e-03
  -7.96019900498e-03
  -7.96019900498e-03
  -7.96019900498e-03
  -7.96019900498e-03
  -7.96019900498e-03
  -7.96019900498e-03
  -7.96019900497e-03
  -7.96019900498e-03
  -7.96019900497e-03
  -7.96019900497e-03
  -7.96019900498e-03
  -7.96019900498e-03
  -7.96019900498e-03
  -7.96019900498e-03
  -7.96019900498e-03
  -7.96019900498e-03
  -7.96019900498e-03
  -7.96019900498e-03
  -7.96019900498e-03
  -7.96019900498e-03
  -7.96019900498e-03
  -7.96019900497e-03
  -7.96019900498e-03
  -7.96019900498e-03
  -7.96019900498e-03
  -7.96019900498e-03
  -7.96019900498e-03
  -7.96019900498e-03
  -7.96019900498e-03
  -7.96019900497e-03
  -7.96019900498e-03
  -7.96019900498e-03
  -7.96019900498e-03
  -7.96019900498e-03
  -7.96019900498e-03
  -7.96019900498e-03
  -7.96019900498e-03
  -7.96019900497e-03
  -7.96019900497e-03
  -7.96019900498e-03
  -7.96019900498e-03
  -7.96019900498e-03
  -7.96019900498e-03
  -7.96019900498e-03
  -7.96019900498e-03
  -7.96019900498e-03
  -7.96019900498e-03
  -7.96019900498e-03
  -7.96019900498e-03
  -7.96019900498e-03
  -7.96019900497e-03
  -7.96019900498e-03
  -7.96019900497e-03
  -7.96019900497e-03
  -7.96019900497e-03
  -7.96019900497e-03
  -7.96019900498e-03
  -7.96019900498e-03
  -7.96019900498e-03
  -7.96019900498e-03
  -7.96019900498e-03
  -7.96019900498e-03
  -7.96019900498e-03
  -7.96019900498e-03
  -7.96019900498e-03
  -7.96019900498e-03
  -7.96019900498e-03
  -7.96019900498e-03
  -7.96019900498e-03
  -7.96019900498e-03
  -7.96019900497e-03
  -7.96019900497e-03
  -7.96019900497e-03
  -7.96019900498e-03
  -7.96019900498e-03
  -7.96019900498e-03
  -7.96019900498e-03
  -7.96019900498e-03
  -7.96019900498e-03
  -7.96019900498e-03
  -7.96019900498e-03
  -7.96019900498e-03
  -7.96019900498e-03
  -7.96019900498e-03
  -7.96019900498e-03
  -7.96019900498e-03
  -7.96019900498e-03
  -7.96019900498e-03
  -7.96019900497e-03
  -7.96019900497e-03
  -7.96019900497e-03
  -7.96019900498e-03
  -7.96019900498e-03
  -7.96019900497e-03
  -7.96019900498e-03
  -7.96019900498e-03
  -7.96019900498e-03
  -7.96019900498e-03
  -7.96019900498e-03
  -7.96019900498e-03
  -7.96019900498e-03
  -7.96019900497e-03
  -7.96019900498e-03
  -7.96019900498e-03
  -7.96019900498e-03
  -7.96019900497e-03
  -7.96019900498e-03
  -7.96019900498e-03
  -7.96019900497e-03
  -7.96019900498e-03
  -7.96019900498e-03
  -7.96019900497e-03
  -7.96019900498e-03
  -7.96019900497e-03
  -7.96019900497e-03
  -7.96019900498e-03
  -7.96019900498e-03
  -7.96019900498e-03
  -7.96019900498e-03
  -7.96019900498e-03
  -7.96019900498e-03
  -7.96019900498e-03
  -7.96019900498e-03
  -7.96019900497e-03
  -7.96019900498e-03
  -7.96019900498e-03
  -7.96019900497e-03
  -7.96019900498e-03
  -7.96019900497e-03
  -7.96019900498e-03
  -7.96019900497e-03
  -7.96019900498e-03
  -7.96019900498e-03
  -7.96019900498e-03
  -7.96019900498e-03
  -7.96019900498e-03
  -7.96019900497e-03
  -7.96019900498e-03
  -7.96019900497e-03
  -7.96019900498e-03
  -7.96019900497e-03
  -7.96019900498e-03
  -7.96019900497e-03
  -7.96019900498e-03
  -7.96019900498e-03
  -7.96019900498e-03
  -7.96019900498e-03
  -7.96019900498e-03
  -7.96019900498e-03
  -7.96019900498e-03
  -7.96019900497e-03
  -7.96019900498e-03
  -7.96019900498e-03
  -7.96019900498e-03
  -7.96019900498e-03
  -7.96019900498e-03
  -7.96019900497e-03
</dep>
<dep V2.It time>
  -3.98010012572e-05
  -3.98009950440e-05
  -3.98009950769e-05
  -3.98009950381e-05
  -3.98009950438e-05
  -3.98009950502e-05
  -3.98009950665e-05
  -3.98009950412e-05
  -3.98009950155e-05
  -3.98009950609e-05
  -3.98009950195e-05
  -3.98009950310e-05
  -3.98009950231e-05
  -3.98009950670e-05
  -3.98009950050e-05
  -3.98009950098e-05
  -3.98009950077e-05
  -3.98009950295e-05
  -3.98009950294e-05
  -3.98009950631e-05
  -3.98009950442e-05
  -3.98009950705e-05
  -3.98009950664e-05
  -3.98009950112e-05
  -3.98009950721e-05
  -3.98009950249e-05
  -3.98009950727e-05
  -3.98009950824e-05
  -3.98009950076e-05
  -3.98009950326e-05
  -3.98009950116e-05
  -3.98009950386e-05
  -3.98009950773e-05
  -3.98009950148e-05
  -3.98009950363e-05
  -3.98009950266e-05
  -3.98009950288e-05
  -3.98009950141e-05
  -3.98009950680e-05
  -3.98009950187e-05
  -3.98009950340e-05
  -3.98009950353e-05
  -3.98009950296e-05
  -3.98009950065e-05
  -3.98009950417e-05
  -3.98009950678e-05
  -3.98009950271e-05
  -3.98009950589e-05
  -3.98009950384e-05
  -3.98009950167e-05
  -3.98009950555e-05
  -3.98009950074e-05
  -3.98009950554e-05
  -3.98009950205e-05
  -3.98009950312e-05
  -3.98009950654e-05
  -3.98009950791e-05
  -3.98009950116e-05
  -3.98009950460e-05
  -3.98009950226e-05
  -3.98009950246e-05
  -3.98009950541e-05
  -3.98009950162e-05
  -3.98009950472e-05
  -3.98009950684e-05
  -3.98009950758e-05
  -3.98009950121e-05
  -3.98009950044e-05
  -3.98009950007e-05
  -3.98009950678e-05
  -3.98009950644e-05
  -3.98009950248e-05
  -3.98009950106e-05
  -3.98009950565e-05
  -3.98009950805e-05
  -3.98009950722e-05
  -3.98009950624e-05
  -3.98009950068e-05
  -3.98009950836e-05
  -3.98009950760e-05
  -3.98009950300e-05
  -3.98009950662e-05
  -3.98009950548e-05
  -3.98009950731e-05
  -3.98009950270e-05
  -3.98009950119e-05
  -3.98009950005e-05
  -3.98009950298e-05
  -3.98009950723e-05
  -3.98009950432e-05
  -3.98009950443e-05
  -3.98009950620e-05
  -3.98009950017e-05
  -3.98009950592e-05
  -3.98009950482e-05
  -3.98009950523e-05
  -3.98009950465e-05
  -3.98009950648e-05
  -3.98009950489e-05
  -3.98009950315e-05
  -3.98009950107e-05
  -3.98009950637e-05
  -3.98009950571e-05
  -3.98009950391e-05
  -3.98009950199e-05
  -3.98009950391e-05
  -3.98009950797e-05
  -3.98009950703e-05
  -3.98009950370e-05
  -3.98009950727e-05
  -3.98009950622e-05
  -3.98009950582e-05
  -3.98009950189e-05
  -3.98009950561e-05
  -3.98009950012e-05
  -3.98009950268e-05
  -3.98009950771e-05
  -3.98009950077e-05
  -3.98009950197e-05
  -3.98009950672e-05
  -3.98009950277e-05
  -3.98009950026e-05
  -3.98009950447e-05
  -3.98009950705e-05
  -3.98009950201e-05
  -3.98009950099e-05
  -3.98009950836e-05
  -3.98009950391e-05
  -3.98009950699e-05
  -3.98009950084e-05
  -3.98009950799e-05
  -3.98009949996e-05
  -3.98009950104e-05
  -3.98009950178e-05
  -3.98009950595e-05
  -3.98009950412e-05
  -3.98009950552e-05
  -3.98009950726e-05
  -3.98009950049e-05
  -3.98009950486e-05
  -3.98009950683e-05
  -3.98009950269e-05
  -3.98009950570e-05
  -3.98009950485e-05
  -3.98009950504e-05
  -3.98009950684e-05
  -3.98009949989e-05
  -3.98009950310e-05
  -3.98009950733e-05
  -3.98009950030e-05
  -3.98009950725e-05
  -3.98009950031e-05
  -3.98009950589e-05
  -3.98009950052e-05
  -3.98009950039e-05
  -3.98009950308e-05
  -3.98009950052e-05
  -3.98009950551e-05
  -3.98009950205e-05
  -3.98009950268e-05
  -3.98009950647e-05
  -3.98009950127e-05
  -3.98009950019e-05
  -3.98009950076e-05
  -3.98009950183e-05
  -3.98009950052e-05
  -3.98009950718e-05
  -3.98009950558e-05
  -3.98009950263e-05
  -3.98009950005e-05
  -3.98009950057e-05
  -3.98009950832e-05
  -3.98009950489e-05
  -3.98009950179e-05
  -3.98009950105e-05
  -3.98009950254e-05
  -3.98009950465e-05
  -3.98009950329e-05
  -3.98009950566e-05
  -3.98009950528e-05
  -3.98009950061e-05
  -3.98009950802e-05
  -3.98009950481e-05
  -3.98009950813e-05
  -3.98009950791e-05
  -3.98009950477e-05
  -3.98009950516e-05
  -3.98009950359e-05
  -3.98009950274e-05
  -3.98009950660e-05
  -3.98009950215e-05
  -3.98009950521e-05
  -3.98009949991e-05
  -3.98009950082e-05
  -3.98009950677e-05
  -3.98009950786e-05
  -3.98009950770e-05
  -3.98009950719e-05
  -3.98009950813e-05
  -3.98009950351e-05
</dep>
<dep _net12.Vt time>
  +1.00000000000e+01
  +1.00000000000e+01
  +1.00000000000e+01
  +1.00000000000e+01
  +1.00000000000e+01
  +1.00000000000e+01
  +1.00000000000e+01
  +1.00000000000e+01
  +1.00000000000e+01
  +1.00000000000e+01
  +1.00000000000e+01
  +1.00000000000e+01
  +1.00000000000e+01
  +1.00000000000e+01
  +1.00000000000e+01
  +1.00000000000e+01
  +1.00000000000e+01
  +1.00000000000e+01
  +1.00000000000e+01
  +1.00000000000e+01
  +1.00000000000e+01
  +1.00000000000e+01
  +1.00000000000e+01
  +1.00000000000e+01
  +1.00000000000e+01
  +1.00000000000e+01
  +1.00000000000e+01
  +1.00000000000e+01
  +1.00000000000e+01
  +1.00000000000e+01
  +1.00000000000e+01
  +1.00000000000e+01
  +1.00000000000e+01
  +1.00000000000e+01
  +1.00000000000e+01
  +1.00000000000e+01
  +1.00000000000e+01
  +1.00000000000e+01
  +1.00000000000e+01
  +1.00000000000e+01
  +1.00000000000e+01
  +1.00000000000e+01
  +1.00000000000e+01
  +1.00000000000e+01
  +1.00000000000e+01
  +1.00000000000e+01
  +1.00000000000e+01
  +1.00000000000e+01
  +1.00000000000e+01
  +1.00000000000e+01
  +1.00000000000e+01
  +1.00000000000e+01
  +1.00000000000e+01
  +1.00000000000e+01
  +1.00000000000e+01
  +1.00000000000e+01
  +1.00000000000e+01
  +1.00000000000e+01
  +1.00000000000e+01
  +1.00000000000e+01
  +1.00000000000e+01
  +1.00000000000e+01
  +1.00000000000e+01
  +1.00000000000e+01
  +1.00000000000e+01
  +1.00000000000e+01
  +1.00000000000e+01
  +1.00000000000e+01
  +1.00000000000e+01
  +1.00000000000e+01
  +1.00000000000e+01
  +1.00000000000e+01
  +1.00000000000e+01
  +1.00000000000e+01
  +1.00000000000e+01
  +1.00000000000e+01
  +1.00000000000e+01
  +1.00000000000e+01
  +1.00000000000e+01
  +1.00000000000e+01
  +1.00000000000e+01
  +1.00000000000e+01
  +1.00000000000e+01
  +1.00000000000e+01
  +1.00000000000e+01
  +1.00000000000e+01
  +1.00000000000e+01
  +1.00000000000e+01
  +1.00000000000e+01
  +1.00000000000e+01
  +1.00000000000e+01
  +1.00000000000e+01
  +1.00000000000e+01
  +1.00000000000e+01
  +1.00000000000e+01
  +1.00000000000e+01
  +1.00000000000e+01
  +1.00000000000e+01
  +1.00000000000e+01
  +1.00000000000e+01
  +1.00000000000e+01
  +1.00000000000e+01
  +1.00000000000e+01
  +1.00000000000e+01
  +1.00000000000e+01
  +1.00000000000e+01
  +1.00000000000e+01
  +1.00000000000e+01
  +1.00000000000e+01
  +1.00000000000e+01
  +1.00000000000e+01
  +1.00000000000e+01
  +1.00000000000e+01
  +1.00000000000e+01
  +1.00000000000e+01
  +1.00000000000e+01
  +1.00000000000e+01
  +1.00000000000e+01
  +1.00000000000e+01
  +1.00000000000e+01
  +1.00000000000e+01
  +1.00000000000e+01
  +1.00000000000e+01
  +1.00000000000e+01
  +1.00000000000e+01
  +1.00000000000e+01
  +1.00000000000e+01
  +1.00000000000e+01
  +1.00000000000e+01
  +1.00000000000e+01
  +1.00000000000e+01
  +1.00000000000e+01
  +1.00000000000e+01
  +1.00000000000e+01
  +1.00000000000e+01
  +1.00000000000e+01
  +1.00000000000e+01
  +1.00000000000e+01
  +1.00000000000e+01
  +1.00000000000e+01
  +1.00000000000e+01
  +1.00000000000e+01
  +1.00000000000e+01
  +1.00000000000e+01
  +1.00000000000e+01
