<Qucs Dataset 0.0.19>
<indep acfrequency 10>
  +1.00000000000000000000e+01
  +2.15443469003188390332e+01
  +4.64158883361277929680e+01
  +1.00000000000000014211e+02
  +2.15443469003188425859e+02
  +4.64158883361278071789e+02
  +1.00000000000000045475e+03
  +2.15443469003188465649e+03
  +4.64158883361278185475e+03
  +1.00000000000000072760e+04
</indep>
<dep Pr1.v acfrequency>
  +3.19286474279512937358e+01+j1.74080732811517862046e+01
  +4.10158645136112980367e+01+j3.88963954921810852738e+01
  +1.06148245517064651722e+02+j5.54078522950107483780e+01
  +9.81326304931205442017e+01-j1.68832760738937928124e+01
  +7.56952089023825180902e+01-j1.18761533970190100717e+01
  +7.11974035882945486264e+01-j5.76759887937613768827e+00
  +7.02565205243522825640e+01-j2.69962322442401703171e+00
  +7.00551975713882910668e+01-j1.25524599653107316044e+00
  +7.00118887886012117860e+01-j5.82851439013058469918e-01
  +7.00025612147619682446e+01-j2.70557430367424522899e-01
</dep>
<dep Zeq1.v acfrequency>
  +9.99999999999999857891e+01
  +9.99999999999999857891e+01
  +9.99999999999999857891e+01
  +9.99999999999999857891e+01
  +9.99999999999999857891e+01
  +9.99999999999999857891e+01
  +9.99999999999999857891e+01
  +9.99999999999999857891e+01
  +9.99999999999999857891e+01
  +9.99999999999999857891e+01
</dep>
<dep Pr2.v acfrequency>
  +2.50000000000000000000e+01
  +2.50000000000000000000e+01
  +2.50000000000000000000e+01
  +2.50000000000000000000e+01
  +2.50000000000000000000e+01
  +2.50000000000000000000e+01
  +2.50000000000000000000e+01
  +2.50000000000000000000e+01
  +2.50000000000000000000e+01
  +2.50000000000000000000e+01
</dep>
<dep V1.i acfrequency>
  +5.00000000000000000000e-01
  +5.00000000000000000000e-01
  +5.00000000000000000000e-01
  +5.00000000000000000000e-01
  +5.00000000000000000000e-01
  +5.00000000000000000000e-01
  +5.00000000000000000000e-01
  +5.00000000000000000000e-01
  +5.00000000000000000000e-01
  +5.00000000000000000000e-01
</dep>
<dep _net6.v acfrequency>
  -1.99999999999999928946e+01
  -1.99999999999999928946e+01
  -1.99999999999999928946e+01
  -1.99999999999999928946e+01
  -1.99999999999999928946e+01
  -1.99999999999999928946e+01
  -1.99999999999999928946e+01
  -1.99999999999999928946e+01
  -1.99999999999999928946e+01
  -1.99999999999999928946e+01
</dep>
<dep _net9.v acfrequency>
  +0.00000000000000000000e+00
  +0.00000000000000000000e+00
  +0.00000000000000000000e+00
  +0.00000000000000000000e+00
  +0.00000000000000000000e+00
  +0.00000000000000000000e+00
  +0.00000000000000000000e+00
  +0.00000000000000000000e+00
  +0.00000000000000000000e+00
  +0.00000000000000000000e+00
</dep>
<dep _net10.v acfrequency>
  +2.50000000000000000000e+01
  +2.50000000000000000000e+01
  +2.50000000000000000000e+01
  +2.50000000000000000000e+01
  +2.50000000000000000000e+01
  +2.50000000000000000000e+01
  +2.50000000000000000000e+01
  +2.50000000000000000000e+01
  +2.50000000000000000000e+01
  +2.50000000000000000000e+01
</dep>
<dep _net4.v acfrequency>
  -2.49999999999999928946e+01
  -2.49999999999999928946e+01
  -2.49999999999999928946e+01
  -2.49999999999999928946e+01
  -2.49999999999999928946e+01
  -2.49999999999999928946e+01
  -2.49999999999999928946e+01
  -2.49999999999999928946e+01
  -2.49999999999999928946e+01
  -2.49999999999999928946e+01
</dep>
<dep _net7.v acfrequency>
  -4.99999999999999857891e+01
  -4.99999999999999857891e+01
  -4.99999999999999857891e+01
  -4.99999999999999857891e+01
  -4.99999999999999857891e+01
  -4.99999999999999857891e+01
  -4.99999999999999857891e+01
  -4.99999999999999857891e+01
  -4.99999999999999857891e+01
  -4.99999999999999857891e+01
</dep>
<dep _net8.v acfrequency>
  -9.99999999999999857891e+01
  -9.99999999999999857891e+01
  -9.99999999999999857891e+01
  -9.99999999999999857891e+01
  -9.99999999999999857891e+01
  -9.99999999999999857891e+01
  -9.99999999999999857891e+01
  -9.99999999999999857891e+01
  -9.99999999999999857891e+01
  -9.99999999999999857891e+01
</dep>
<dep _net5.v acfrequency>
  -3.74999999999999857891e+01
  -3.74999999999999857891e+01
  -3.74999999999999857891e+01
  -3.74999999999999857891e+01
  -3.74999999999999857891e+01
  -3.74999999999999857891e+01
  -3.74999999999999857891e+01
  -3.74999999999999857891e+01
  -3.74999999999999857891e+01
  -3.74999999999999857891e+01
</dep>
<dep _net1.v acfrequency>
  +3.20000000000000000000e+01
  -2.21538461538461532996e+01+j1.47692307692307700506e+01
  +3.84000000000000000000e+02
  -1.43736689254598264398e+01+j1.73475314617618572299e+01
  +8.53333333333333285964e+01-j2.56000000000000000000e+02
  +5.86765249537892756848e+01+j2.08207024029574867541e+01
  +3.18835234166464438488e+01-j1.49090026692550359222e+00
  +5.93770192014629714095e+01-j3.58914964949710437736e+01
  +7.01258261933904520902e+01
  +6.99177007486051564911e+01-j3.41089756160013113373e+00
</dep>
<dep _net3.v acfrequency>
  +7.13525720487062642405e-02-j1.74080732811517862046e+01
  -6.31697106674574513363e+01-j2.41271647229503116705e+01
  +2.77851754482935348278e+02-j5.54078522950107483780e+01
  -1.12506299418580368865e+02+j3.42308075356556500424e+01
  +9.63812443095081050615e+00-j2.44123846602980989928e+02
  -1.25208786345052729416e+01+j2.65883012823336244423e+01
  -3.83729971077058422679e+01+j1.20872295749851366153e+00
  -1.06781783699253196573e+01-j3.46362504984399706132e+01
  +1.13937404789240304126e-01+j5.82851439013058469918e-01
  -8.48604661568117535353e-02-j3.14034013123270661083e+00
</dep>
<dep _net2.v acfrequency>
  +1.26659823730610554549e+00+j1.90229255834876020970e+00
  -5.52240136489093913497e+01+j2.06389698829921854895e+01
  +3.55832808467637391914e+02+j2.67388401990814088549e+01
  -1.41773143705680855220e+01+j3.29970754813620814616e+01
  +8.57950553894245899755e+01-j2.50374045280263317181e+02
  +5.87904467995821207182e+01+j2.32658888139295854103e+01
  +3.19086866962332393882e+01-j3.72332528303653487178e-01
  +5.93824687204545824670e+01-j3.53739362109558541647e+01
  +7.01270015631264698186e+01+j2.40067046893860269741e-01
  +6.99179540349289112555e+01-j3.29948462201820325035e+00
</dep>
<dep _net0.v acfrequency>
  +3.37112707796190775866e+01-j4.43868263614711366927e+00
  -1.49901219986986085075e+01+j1.07317283712080424607e+00
  +3.79723446908846028691e+02-j6.23906271311899445209e+01
  -8.48318295535405439978e+01-j1.91680712506386683458e+01
  +1.42559818691203012975e+01-j2.69127227679385555348e+02
  -1.15892926863940175508e+01+j1.51152674440226011399e+01
  -3.81751909023894100415e+01-j4.10089165704315306016e+00
  -1.06356963428507658165e+01-j3.70991371576731552295e+01
  +1.23083664006425119730e-01-j5.60156442752340555380e-01
  -8.28902528169381397349e-02-j3.67086108729129501071e+00
</dep>
<indep Pr1.Ohm 11>
  +3.00000000000000000000e+01
  +3.19286474279512937358e+01+j1.74080732811517862046e+01
  +4.10158645136112980367e+01+j3.88963954921810852738e+01
  +1.06148245517064651722e+02+j5.54078522950107483780e+01
  +9.81326304931205442017e+01-j1.68832760738937928124e+01
  +7.56952089023825180902e+01-j1.18761533970190100717e+01
  +7.11974035882945486264e+01-j5.76759887937613768827e+00
  +7.02565205243522825640e+01-j2.69962322442401703171e+00
  +7.00551975713882910668e+01-j1.25524599653107316044e+00
  +7.00118887886012117860e+01-j5.82851439013058469918e-01
  +7.00025612147619682446e+01-j2.70557430367424522899e-01
</indep>
<indep Pr1.V 1>
  +3.00000000000000000000e+01
</indep>
<indep Zeq1.Ohm 11>
  +1.00000000000000000000e+02
  +9.99999999999999857891e+01
  +9.99999999999999857891e+01
  +9.99999999999999857891e+01
  +9.99999999999999857891e+01
  +9.99999999999999857891e+01
  +9.99999999999999857891e+01
  +9.99999999999999857891e+01
  +9.99999999999999857891e+01
  +9.99999999999999857891e+01
  +9.99999999999999857891e+01
</indep>
<indep Zeq1.V 1>
  +1.00000000000000000000e+02
</indep>
<indep Pr2.Ohm 11>
  nan-jnan
  +2.50000000000000000000e+01
  +2.50000000000000000000e+01
  +2.50000000000000000000e+01
  +2.50000000000000000000e+01
  +2.50000000000000000000e+01
  +2.50000000000000000000e+01
  +2.50000000000000000000e+01
  +2.50000000000000000000e+01
  +2.50000000000000000000e+01
  +2.50000000000000000000e+01
</indep>
<indep Pr2.V 1>
  +5.00000000000000000000e-01
</indep>
<indep V1.I 1>
  -1.00000000000000002082e-02
</indep>
<indep _net6.V 1>
  -1.99999999999999928946e+01
</indep>
<indep _net9.V 1>
  +1.00000000000000000000e+00
</indep>
<indep _net10.V 1>
  +5.00000000000000000000e-01
</indep>
<indep _net4.V 1>
  -2.49999999999999928946e+01
</indep>
<indep _net7.V 1>
  -4.99999999999999928946e+01
</indep>
<indep _net8.V 1>
  -1.00000000000000000000e+02
</indep>
<indep _net5.V 1>
  -3.74999999999999928946e+01
</indep>
<indep _net1.V 1>
  +0.00000000000000000000e+00
</indep>
<indep _net3.V 1>
  -3.00000000000000000000e+01
</indep>
<indep _net2.V 1>
  -3.00000000000000000000e+01
</indep>
<indep _net0.V 1>
  +0.00000000000000000000e+00
</indep>
