<Qucs Dataset 0.0.19>
<indep acfrequency 10>
  +1.00000000000000000000e+01
  +2.15443469003188390332e+01
  +4.64158883361277929680e+01
  +1.00000000000000014211e+02
  +2.15443469003188425859e+02
  +4.64158883361278071789e+02
  +1.00000000000000045475e+03
  +2.15443469003188465649e+03
  +4.64158883361278185475e+03
  +1.00000000000000072760e+04
</indep>
<dep Pr1.v acfrequency>
  +3.19286474279512937358e+01+j1.74080732811517826519e+01
  +4.10158645136112909313e+01+j3.88963954921810710630e+01
  +1.06148245517064665933e+02+j5.54078522950107696943e+01
  +9.81326304931205726234e+01-j1.68832760738938105760e+01
  +7.56952089023824612468e+01-j1.18761533970189834264e+01
  +7.11974035882945912590e+01-j5.76759887937613768827e+00
  +7.02565205243523109857e+01-j2.69962322442401703171e+00
  +7.00551975713883336994e+01-j1.25524599653107316044e+00
  +7.00118887886012117860e+01-j5.82851439013058469918e-01
  +7.00025612147619256120e+01-j2.70557430367423190631e-01
</dep>
<dep Zeq1.v acfrequency>
  +1.00000000000000000000e+02
  +1.00000000000000000000e+02
  +1.00000000000000000000e+02
  +1.00000000000000000000e+02
  +1.00000000000000000000e+02
  +1.00000000000000000000e+02
  +1.00000000000000000000e+02
  +1.00000000000000000000e+02
  +1.00000000000000000000e+02
  +1.00000000000000000000e+02
</dep>
<dep Pr2.v acfrequency>
  +2.50000000000000000000e+01
  +2.50000000000000000000e+01
  +2.50000000000000000000e+01
  +2.50000000000000000000e+01
  +2.50000000000000000000e+01
  +2.50000000000000000000e+01
  +2.50000000000000000000e+01
  +2.50000000000000000000e+01
  +2.50000000000000000000e+01
  +2.50000000000000000000e+01
</dep>
<dep V1.i acfrequency>
  +5.00000000000000000000e-01
  +5.00000000000000000000e-01
  +5.00000000000000000000e-01
  +5.00000000000000000000e-01
  +5.00000000000000000000e-01
  +5.00000000000000000000e-01
  +5.00000000000000000000e-01
  +5.00000000000000000000e-01
  +5.00000000000000000000e-01
  +5.00000000000000000000e-01
</dep>
<dep _net6.v acfrequency>
  -1.99999999999999928946e+01
  -1.99999999999999928946e+01
  -1.99999999999999928946e+01
  -1.99999999999999928946e+01
  -1.99999999999999928946e+01
  -1.99999999999999928946e+01
  -1.99999999999999928946e+01
  -1.99999999999999928946e+01
  -1.99999999999999928946e+01
  -1.99999999999999928946e+01
</dep>
<dep _net9_TEMP_V1.v acfrequency>
  +0.00000000000000000000e+00
  +0.00000000000000000000e+00
  +0.00000000000000000000e+00
  +0.00000000000000000000e+00
  +0.00000000000000000000e+00
  +0.00000000000000000000e+00
  +0.00000000000000000000e+00
  +0.00000000000000000000e+00
  +0.00000000000000000000e+00
  +0.00000000000000000000e+00
</dep>
<dep _net9.v acfrequency>
  -0.00000000000000000000e+00
  -0.00000000000000000000e+00
  -0.00000000000000000000e+00
  -0.00000000000000000000e+00
  -0.00000000000000000000e+00
  -0.00000000000000000000e+00
  -0.00000000000000000000e+00
  -0.00000000000000000000e+00
  -0.00000000000000000000e+00
  -0.00000000000000000000e+00
</dep>
<dep _net10.v acfrequency>
  +2.50000000000000000000e+01
  +2.50000000000000000000e+01
  +2.50000000000000000000e+01
  +2.50000000000000000000e+01
  +2.50000000000000000000e+01
  +2.50000000000000000000e+01
  +2.50000000000000000000e+01
  +2.50000000000000000000e+01
  +2.50000000000000000000e+01
  +2.50000000000000000000e+01
</dep>
<dep _net4.v acfrequency>
  -2.49999999999999928946e+01
  -2.49999999999999928946e+01
  -2.49999999999999928946e+01
  -2.49999999999999928946e+01
  -2.49999999999999928946e+01
  -2.49999999999999928946e+01
  -2.49999999999999928946e+01
  -2.49999999999999928946e+01
  -2.49999999999999928946e+01
  -2.49999999999999928946e+01
</dep>
<dep _net7.v acfrequency>
  -4.99999999999999928946e+01
  -4.99999999999999928946e+01
  -4.99999999999999928946e+01
  -4.99999999999999928946e+01
  -4.99999999999999928946e+01
  -4.99999999999999928946e+01
  -4.99999999999999928946e+01
  -4.99999999999999928946e+01
  -4.99999999999999928946e+01
  -4.99999999999999928946e+01
</dep>
<dep _net8.v acfrequency>
  -1.00000000000000000000e+02
  -1.00000000000000000000e+02
  -1.00000000000000000000e+02
  -1.00000000000000000000e+02
  -1.00000000000000000000e+02
  -1.00000000000000000000e+02
  -1.00000000000000000000e+02
  -1.00000000000000000000e+02
  -1.00000000000000000000e+02
  -1.00000000000000000000e+02
</dep>
<dep _net5.v acfrequency>
  -3.74999999999999928946e+01
  -3.74999999999999928946e+01
  -3.74999999999999928946e+01
  -3.74999999999999928946e+01
  -3.74999999999999928946e+01
  -3.74999999999999928946e+01
  -3.74999999999999928946e+01
  -3.74999999999999928946e+01
  -3.74999999999999928946e+01
  -3.74999999999999928946e+01
</dep>
<dep _net1.v acfrequency>
  +4.26666666666666642982e+01
  -6.40000000000000000000e+01
  +1.28000000000000000000e+02-j1.28000000000000000000e+02
  +6.40000000000000000000e+01
  -2.68754448398576499812e+01-j1.63985765124555165073e+01
  +7.04201892744479494013e+01-j4.07015772870662431160e+01
  +6.22908011869436180064e+01+j3.03857566765578646084e+00
  +5.90178461538461505143e+01+j2.55212307692307653895e+01
  +7.00542654607675387979e+01
  +6.98973636448146606881e+01-j2.82480465594325558243e+00
</dep>
<dep _net3.v acfrequency>
  +1.07380192387153705624e+01-j1.74080732811517826519e+01
  -1.05015864513611290931e+02-j3.88963954921810710630e+01
  +2.18517544829353340674e+01-j1.83407852295010769694e+02
  -3.41326304931205726234e+01+j1.68832760738938105760e+01
  -1.02570653742240111228e+02-j4.52242311543653308092e+00
  -7.77214313846641857708e-01-j3.49339784076901054277e+01
  -7.96571933740869297935e+00+j5.73819889207980349255e+00
  -1.10373514175421760797e+01+j2.67764767657618385499e+01
  +4.23766721663270118370e-02+j5.82851439013058469918e-01
  -1.05197569947264923940e-01-j2.55424722557583239180e+00
</dep>
<dep _net2.v acfrequency>
  +1.19332649039727698437e+01+j1.90229255834876553877e+00
  -9.70701674950632309447e+01+j5.86973911376141188612e+00
  +9.98328084676373919137e+01-j1.01261159800918591145e+02
  +6.41963545548917409178e+01+j1.56495440196002224553e+01
  -2.64137227837663708385e+01-j1.07726217927188478996e+01
  +7.05341111202407944347e+01-j3.82563908760941444598e+01
  +6.23159644665304170985e+01+j4.15714340627763689895e+00
  +5.90232956728377615718e+01+j2.60387910532459549984e+01
  +7.00554408305035423155e+01+j2.40067046893860269741e-01
  +6.98976169311384012417e+01-j2.71339171636132769905e+00
</dep>
<dep _net0.v acfrequency>
  +4.43779374462857418848e+01-j4.43868263614711278109e+00
  -5.68362758448524587607e+01-j1.36960579321099658046e+01
  +1.23723446908846057113e+02-j1.90390627131189944521e+02
  -6.45816062808074775603e+00-j3.65156027124005149176e+01
  -9.79527963040706310949e+01-j2.95258041918410683024e+01
  +1.54371634264613533105e-01-j4.64070122460011305066e+01
  -7.76791313209225808833e+00+j4.28584277538135438590e-01
  -1.09948693904676222388e+01+j2.43135901065286503808e+01
  +5.15229313835118274412e-02-j5.60156442752340555380e-01
  -1.03227356607391324017e-01-j3.08476818163442167986e+00
</dep>
<indep Pr1.Ohm 11>
  +3.00000000000000000000e+01
  +3.19286474279512937358e+01+j1.74080732811517826519e+01
  +4.10158645136112909313e+01+j3.88963954921810710630e+01
  +1.06148245517064665933e+02+j5.54078522950107696943e+01
  +9.81326304931205726234e+01-j1.68832760738938105760e+01
  +7.56952089023824612468e+01-j1.18761533970189834264e+01
  +7.11974035882945912590e+01-j5.76759887937613768827e+00
  +7.02565205243523109857e+01-j2.69962322442401703171e+00
  +7.00551975713883336994e+01-j1.25524599653107316044e+00
  +7.00118887886012117860e+01-j5.82851439013058469918e-01
  +7.00025612147619256120e+01-j2.70557430367423190631e-01
</indep>
<indep Pr1.V 1>
  +3.00000000000000000000e+01
</indep>
<indep Zeq1.Ohm 11>
  +1.00000000000000000000e+02
  +1.00000000000000000000e+02
  +1.00000000000000000000e+02
  +1.00000000000000000000e+02
  +1.00000000000000000000e+02
  +1.00000000000000000000e+02
  +1.00000000000000000000e+02
  +1.00000000000000000000e+02
  +1.00000000000000000000e+02
  +1.00000000000000000000e+02
  +1.00000000000000000000e+02
</indep>
<indep Zeq1.V 1>
  +1.00000000000000000000e+02
</indep>
<indep Pr2.Ohm 11>
  +nan-jnan
  +2.50000000000000000000e+01
  +2.50000000000000000000e+01
  +2.50000000000000000000e+01
  +2.50000000000000000000e+01
  +2.50000000000000000000e+01
  +2.50000000000000000000e+01
  +2.50000000000000000000e+01
  +2.50000000000000000000e+01
  +2.50000000000000000000e+01
  +2.50000000000000000000e+01
</indep>
<indep Pr2.V 1>
  +5.00000000000000000000e-01
</indep>
<indep V1.I 1>
  -1.00000000000000002082e-02
</indep>
<indep _net6.V 1>
  -1.99999999999999928946e+01
</indep>
<indep _net9_TEMP_V1.V 1>
  +1.00000000000000000000e+00
</indep>
<indep _net9.V 1>
  +1.00000000000000000000e+00
</indep>
<indep _net10.V 1>
  +5.00000000000000000000e-01
</indep>
<indep _net4.V 1>
  -2.49999999999999928946e+01
</indep>
<indep _net7.V 1>
  -4.99999999999999928946e+01
</indep>
<indep _net8.V 1>
  -1.00000000000000000000e+02
</indep>
<indep _net5.V 1>
  -3.74999999999999928946e+01
</indep>
<indep _net1.V 1>
  +0.00000000000000000000e+00
</indep>
<indep _net3.V 1>
  -3.00000000000000000000e+01
</indep>
<indep _net2.V 1>
  -3.00000000000000000000e+01
</indep>
<indep _net0.V 1>
  +0.00000000000000000000e+00
</indep>
