<Qucs Dataset 0.0.17>
<indep Tstep 1>
  +2.50000000000e-08
</indep>
<indep Tmax 1>
  +5.00000000000e-04
</indep>
<indep Toff 1>
  +1.25000000000e-05
</indep>
<indep Ton 1>
  +1.25000000000e-05
</indep>
<indep Bduty 1>
  +5.00000000000e+01
</indep>
<indep Bperiod 1>
  +2.50000000000e-05
</indep>
<indep Bfreq 1>
  +4.00000000000e+04
</indep>
<indep time 201>
  +0.00000000000e+00
  +2.50000000000e-06
  +5.00000000000e-06
  +7.50000000000e-06
  +1.00000000000e-05
  +1.25000000000e-05
  +1.50000000000e-05
  +1.75000000000e-05
  +2.00000000000e-05
  +2.25000000000e-05
  +2.50000000000e-05
  +2.75000000000e-05
  +3.00000000000e-05
  +3.25000000000e-05
  +3.50000000000e-05
  +3.75000000000e-05
  +4.00000000000e-05
  +4.25000000000e-05
  +4.50000000000e-05
  +4.75000000000e-05
  +5.00000000000e-05
  +5.25000000000e-05
  +5.50000000000e-05
  +5.75000000000e-05
  +6.00000000000e-05
  +6.25000000000e-05
  +6.50000000000e-05
  +6.75000000000e-05
  +7.00000000000e-05
  +7.25000000000e-05
  +7.50000000000e-05
  +7.75000000000e-05
  +8.00000000000e-05
  +8.25000000000e-05
  +8.50000000000e-05
  +8.75000000000e-05
  +9.00000000000e-05
  +9.25000000000e-05
  +9.50000000000e-05
  +9.75000000000e-05
  +1.00000000000e-04
  +1.02500000000e-04
  +1.05000000000e-04
  +1.07500000000e-04
  +1.10000000000e-04
  +1.12500000000e-04
  +1.15000000000e-04
  +1.17500000000e-04
  +1.20000000000e-04
  +1.22500000000e-04
  +1.25000000000e-04
  +1.27500000000e-04
  +1.30000000000e-04
  +1.32500000000e-04
  +1.35000000000e-04
  +1.37500000000e-04
  +1.40000000000e-04
  +1.42500000000e-04
  +1.45000000000e-04
  +1.47500000000e-04
  +1.50000000000e-04
  +1.52500000000e-04
  +1.55000000000e-04
  +1.57500000000e-04
  +1.60000000000e-04
  +1.62500000000e-04
  +1.65000000000e-04
  +1.67500000000e-04
  +1.70000000000e-04
  +1.72500000000e-04
  +1.75000000000e-04
  +1.77500000000e-04
  +1.80000000000e-04
  +1.82500000000e-04
  +1.85000000000e-04
  +1.87500000000e-04
  +1.90000000000e-04
  +1.92500000000e-04
  +1.95000000000e-04
  +1.97500000000e-04
  +2.00000000000e-04
  +2.02500000000e-04
  +2.05000000000e-04
  +2.07500000000e-04
  +2.10000000000e-04
  +2.12500000000e-04
  +2.15000000000e-04
  +2.17500000000e-04
  +2.20000000000e-04
  +2.22500000000e-04
  +2.25000000000e-04
  +2.27500000000e-04
  +2.30000000000e-04
  +2.32500000000e-04
  +2.35000000000e-04
  +2.37500000000e-04
  +2.40000000000e-04
  +2.42500000000e-04
  +2.45000000000e-04
  +2.47500000000e-04
  +2.50000000000e-04
  +2.52500000000e-04
  +2.55000000000e-04
  +2.57500000000e-04
  +2.60000000000e-04
  +2.62500000000e-04
  +2.65000000000e-04
  +2.67500000000e-04
  +2.70000000000e-04
  +2.72500000000e-04
  +2.75000000000e-04
  +2.77500000000e-04
  +2.80000000000e-04
  +2.82500000000e-04
  +2.85000000000e-04
  +2.87500000000e-04
  +2.90000000000e-04
  +2.92500000000e-04
  +2.95000000000e-04
  +2.97500000000e-04
  +3.00000000000e-04
  +3.02500000000e-04
  +3.05000000000e-04
  +3.07500000000e-04
  +3.10000000000e-04
  +3.12500000000e-04
  +3.15000000000e-04
  +3.17500000000e-04
  +3.20000000000e-04
  +3.22500000000e-04
  +3.25000000000e-04
  +3.27500000000e-04
  +3.30000000000e-04
  +3.32500000000e-04
  +3.35000000000e-04
  +3.37500000000e-04
  +3.40000000000e-04
  +3.42500000000e-04
  +3.45000000000e-04
  +3.47500000000e-04
  +3.50000000000e-04
  +3.52500000000e-04
  +3.55000000000e-04
  +3.57500000000e-04
  +3.60000000000e-04
  +3.62500000000e-04
  +3.65000000000e-04
  +3.67500000000e-04
  +3.70000000000e-04
  +3.72500000000e-04
  +3.75000000000e-04
  +3.77500000000e-04
  +3.80000000000e-04
  +3.82500000000e-04
  +3.85000000000e-04
  +3.87500000000e-04
  +3.90000000000e-04
  +3.92500000000e-04
  +3.95000000000e-04
  +3.97500000000e-04
  +4.00000000000e-04
  +4.02500000000e-04
  +4.05000000000e-04
  +4.07500000000e-04
  +4.10000000000e-04
  +4.12500000000e-04
  +4.15000000000e-04
  +4.17500000000e-04
  +4.20000000000e-04
  +4.22500000000e-04
  +4.25000000000e-04
  +4.27500000000e-04
  +4.30000000000e-04
  +4.32500000000e-04
  +4.35000000000e-04
  +4.37500000000e-04
  +4.40000000000e-04
  +4.42500000000e-04
  +4.45000000000e-04
  +4.47500000000e-04
  +4.50000000000e-04
  +4.52500000000e-04
  +4.55000000000e-04
  +4.57500000000e-04
  +4.60000000000e-04
  +4.62500000000e-04
  +4.65000000000e-04
  +4.67500000000e-04
  +4.70000000000e-04
  +4.72500000000e-04
  +4.75000000000e-04
  +4.77500000000e-04
  +4.80000000000e-04
  +4.82500000000e-04
  +4.85000000000e-04
  +4.87500000000e-04
  +4.90000000000e-04
  +4.92500000000e-04
  +4.95000000000e-04
  +4.97500000000e-04
  +5.00000000000e-04
</indep>
<dep V2.It time>
  -6.10479773054e-04
  -6.22875940803e-01
  -1.22535761451e+00
  -1.82518777304e+00
  -2.42284115569e+00
  -3.01786498888e+00
  -3.60868712402e+00
  -4.19453645536e+00
  -4.77469309369e+00
  -5.34844018930e+00
  -5.91506952613e+00
  -6.47521994667e+00
  -7.02887877237e+00
  -7.57552574627e+00
  -8.11466296317e+00
  -8.64581341575e+00
  -9.16670681386e+00
  -9.67574562384e+00
  -1.01723192388e+01
  -1.06558360780e+01
  -1.11257268857e+01
  -1.15841665699e+01
  -1.20325004232e+01
  -1.24704435138e+01
  -1.28977326431e+01
  -1.33141232839e+01
  -1.37159495620e+01
  -1.41005163617e+01
  -1.44674022899e+01
  -1.48162113693e+01
  -1.51465770823e+01
  -1.54628747476e+01
  -1.57682146519e+01
  -1.60625225573e+01
  -1.63457407898e+01
  -1.66178238490e+01
  -1.68732648446e+01
  -1.71080068343e+01
  -1.73218435587e+01
  -1.75145974670e+01
  -1.76861249678e+01
  -1.78433169500e+01
  -1.79911546700e+01
  -1.81297221754e+01
  -1.82591131497e+01
  -1.83794249236e+01
  -1.84830992088e+01
  -1.85647086986e+01
  -1.86242568320e+01
  -1.86617762792e+01
  -1.86773361076e+01
  -1.86804065981e+01
  -1.86776018374e+01
  -1.86691001350e+01
  -1.86550819903e+01
  -1.86357218377e+01
  -1.86013574087e+01
  -1.85454699690e+01
  -1.84682426060e+01
  -1.83698858081e+01
  -1.82506482195e+01
  -1.81225865172e+01
  -1.79932929774e+01
  -1.78629749450e+01
  -1.77318350061e+01
  -1.76000584826e+01
  -1.74557485775e+01
  -1.72919926773e+01
  -1.71091066719e+01
  -1.69074302792e+01
  -1.66873515226e+01
  -1.64651884185e+01
  -1.62472982573e+01
  -1.60341814139e+01
  -1.58270603782e+01
  -1.56288151991e+01
  -1.54107119921e+01
  -1.51762521052e+01
  -1.49258299643e+01
  -1.46598592519e+01
  -1.43795818831e+01
  -1.42563157914e+01
  -1.41394350774e+01
  -1.40286089686e+01
  -1.39235238270e+01
  -1.38230344020e+01
  -1.35494998722e+01
  -1.32623628171e+01
  -1.29620740616e+01
  -1.26490997081e+01
  -1.23254894750e+01
  -1.23086286072e+01
  -1.22926411590e+01
  -1.22774818857e+01
  -1.22631078867e+01
  -1.22480038378e+01
  -1.19340197715e+01
  -1.16087867990e+01
  -1.12727949080e+01
  -1.09265460380e+01
  -1.05727364143e+01
  -1.06466709174e+01
  -1.07167754967e+01
  -1.07832485484e+01
  -1.08462781912e+01
  -1.09040664011e+01
  -1.05621660790e+01
  -1.02109847138e+01
  -9.85103736831e+00
  -9.48284834661e+00
  -9.10961705840e+00
  -9.25934345004e+00
  -9.40131377863e+00
  -9.53592982045e+00
  -9.66357253914e+00
  -9.78223616935e+00
  -9.42266649781e+00
  -9.05542393880e+00
  -8.68103738596e+00
  -8.30004282900e+00
  -7.91601836330e+00
  -8.12757504846e+00
  -8.32817276392e+00
  -8.51837920158e+00
  -8.69873264600e+00
  -8.86708250030e+00
  -8.49801367776e+00
  -8.12255363301e+00
  -7.74123634902e+00
  -7.35460126074e+00
  -6.96649932957e+00
  -7.22724259713e+00
  -7.47447895250e+00
  -7.70890807502e+00
  -7.93119339952e+00
  -8.13909110875e+00
  -7.76685275044e+00
  -7.38921548513e+00
  -7.00671179284e+00
  -6.61987839112e+00
  -6.23275110439e+00
  -6.53150368641e+00
  -6.81478041384e+00
  -7.08338296035e+00
  -7.33807147162e+00
  -7.57655022267e+00
  -7.20587746655e+00
  -6.83054733515e+00
  -6.45108602359e+00
  -6.06802310472e+00
  -5.68550773759e+00
  -6.01260838847e+00
  -6.32276471012e+00
  -6.61685444549e+00
  -6.89570986909e+00
  -7.15701550527e+00
  -6.79129258297e+00
  -6.42144116310e+00
  -6.04797787598e+00
  -5.67142215205e+00
  -5.29597980519e+00
  -5.64325861686e+00
  -5.97254783877e+00
  -6.28477936003e+00
  -6.58083679641e+00
  -6.85840912424e+00
  -6.49990125610e+00
  -6.13761745731e+00
  -5.77206274406e+00
  -5.40374457330e+00
  -5.03688182034e+00
  -5.39758231596e+00
  -5.73959795745e+00
  -6.06389664969e+00
  -6.37139615858e+00
  -6.65980735526e+00
  -6.30987468956e+00
  -5.95637596786e+00
  -5.59980353538e+00
  -5.24065198512e+00
  -4.88312095268e+00
  -5.25178650358e+00
  -5.60135459792e+00
  -5.93281451406e+00
  -6.24710428416e+00
  -6.54196849872e+00
  -6.20125821855e+00
  -5.85707935205e+00
  -5.50991129815e+00
  -5.16023563671e+00
  -4.81220999887e+00
  -5.18454884893e+00
  -5.53759995975e+00
  -5.87236246663e+00
  -6.18978374805e+00
  -6.48764937625e+00
  -6.15626406556e+00
  -5.82142185870e+00
  -5.48358952561e+00
  -5.14323604556e+00
  -4.80446215054e+00
</dep>
<dep V1.It time>
  +0.00000000000e+00
  +0.00000000000e+00
  +0.00000000000e+00
  +0.00000000000e+00
  +0.00000000000e+00
  +0.00000000000e+00
  +0.00000000000e+00
  +0.00000000000e+00
  +0.00000000000e+00
  +0.00000000000e+00
  +0.00000000000e+00
  +0.00000000000e+00
  +0.00000000000e+00
  +0.00000000000e+00
  +0.00000000000e+00
  +0.00000000000e+00
  +0.00000000000e+00
  +0.00000000000e+00
  +0.00000000000e+00
  +0.00000000000e+00
  +0.00000000000e+00
  +0.00000000000e+00
  +0.00000000000e+00
  +0.00000000000e+00
  +0.00000000000e+00
  +0.00000000000e+00
  +0.00000000000e+00
  +0.00000000000e+00
  +0.00000000000e+00
  +0.00000000000e+00
  +0.00000000000e+00
  +0.00000000000e+00
  +0.00000000000e+00
  +0.00000000000e+00
  +0.00000000000e+00
  +0.00000000000e+00
  +0.00000000000e+00
  +0.00000000000e+00
  +0.00000000000e+00
  +0.00000000000e+00
  +0.00000000000e+00
  +0.00000000000e+00
  +0.00000000000e+00
  +0.00000000000e+00
  +0.00000000000e+00
  +0.00000000000e+00
  +0.00000000000e+00
  +0.00000000000e+00
  +0.00000000000e+00
  +0.00000000000e+00
  +0.00000000000e+00
  +0.00000000000e+00
  +0.00000000000e+00
  +0.00000000000e+00
  +0.00000000000e+00
  +0.00000000000e+00
  +0.00000000000e+00
  +0.00000000000e+00
  +0.00000000000e+00
  +0.00000000000e+00
  +0.00000000000e+00
  +0.00000000000e+00
  +0.00000000000e+00
  +0.00000000000e+00
  +0.00000000000e+00
  +0.00000000000e+00
  +0.00000000000e+00
  +0.00000000000e+00
  +0.00000000000e+00
  +0.00000000000e+00
  +0.00000000000e+00
  +0.00000000000e+00
  +0.00000000000e+00
  +0.00000000000e+00
  +0.00000000000e+00
  +0.00000000000e+00
  +0.00000000000e+00
  +0.00000000000e+00
  +0.00000000000e+00
  +0.00000000000e+00
  +0.00000000000e+00
  +0.00000000000e+00
  +0.00000000000e+00
  +0.00000000000e+00
  +0.00000000000e+00
  +0.00000000000e+00
  +0.00000000000e+00
  +0.00000000000e+00
  +0.00000000000e+00
  +0.00000000000e+00
  +0.00000000000e+00
  +0.00000000000e+00
  +0.00000000000e+00
  +0.00000000000e+00
  +0.00000000000e+00
  +0.00000000000e+00
  +0.00000000000e+00
  +0.00000000000e+00
  +0.00000000000e+00
  +0.00000000000e+00
  +0.00000000000e+00
  +0.00000000000e+00
  +0.00000000000e+00
  +0.00000000000e+00
  +0.00000000000e+00
  +0.00000000000e+00
  +0.00000000000e+00
  +0.00000000000e+00
  +0.00000000000e+00
  +0.00000000000e+00
  +0.00000000000e+00
  +0.00000000000e+00
  +0.00000000000e+00
  +0.00000000000e+00
  +0.00000000000e+00
  +0.00000000000e+00
  +0.00000000000e+00
  +0.00000000000e+00
  +0.00000000000e+00
  +0.00000000000e+00
  +0.00000000000e+00
  +0.00000000000e+00
  +0.00000000000e+00
  +0.00000000000e+00
  +0.00000000000e+00
  +0.00000000000e+00
  +0.00000000000e+00
  +0.00000000000e+00
  +0.00000000000e+00
  +0.00000000000e+00
  +0.00000000000e+00
  +0.00000000000e+00
  +0.00000000000e+00
  +0.00000000000e+00
  +0.00000000000e+00
  +0.00000000000e+00
  +0.00000000000e+00
  +0.00000000000e+00
  +0.00000000000e+00
  +0.00000000000e+00
  +0.00000000000e+00
  +0.00000000000e+00
  +0.00000000000e+00
  +0.00000000000e+00
  +0.00000000000e+00
  +0.00000000000e+00
  +0.00000000000e+00
  +0.00000000000e+00
  +0.00000000000e+00
  +0.00000000000e+00
  +0.00000000000e+00
  +0.00000000000e+00
  +0.00000000000e+00
  +0.00000000000e+00
  +0.00000000000e+00
  +0.00000000000e+00
  +0.00000000000e+00
  +0.00000000000e+00
  +0.00000000000e+00
  +0.00000000000e+00
  +0.00000000000e+00
  +0.00000000000e+00
  +0.00000000000e+00
  +0.00000000000e+00
  +0.00000000000e+00
  +0.00000000000e+00
  +0.00000000000e+00
  +0.00000000000e+00
  +0.00000000000e+00
  +0.00000000000e+00
  +0.00000000000e+00
  +0.00000000000e+00
  +0.00000000000e+00
  +0.00000000000e+00
  +0.00000000000e+00
  +0.00000000000e+00
  +0.00000000000e+00
  +0.00000000000e+00
  +0.00000000000e+00
  +0.00000000000e+00
  +0.00000000000e+00
  +0.00000000000e+00
  +0.00000000000e+00
  +0.00000000000e+00
  +0.00000000000e+00
  +0.00000000000e+00
  +0.00000000000e+00
  +0.00000000000e+00
  +0.00000000000e+00
  +0.00000000000e+00
  +0.00000000000e+00
  +0.00000000000e+00
  +0.00000000000e+00
  +0.00000000000e+00
  +0.00000000000e+00
  +0.00000000000e+00
  +0.00000000000e+00
  +0.00000000000e+00
  +0.00000000000e+00
  +0.00000000000e+00
  +0.00000000000e+00
</dep>
<dep out.Vt time>
  +1.52619180037e-08
  +2.19823640651e-05
  +6.28978578665e-03
  +2.62704519969e-02
  +6.00626830746e-02
  +1.07432134407e-01
  +1.89537204884e-01
  +2.85905902269e-01
  +3.96334091638e-01
  +5.20600732445e-01
  +6.58291653114e-01
  +7.72880382445e-01
  +8.97742963043e-01
  +1.03241582473e+00
  +1.17643549225e+00
  +1.32960091891e+00
  +1.54509969330e+00
  +1.77236684873e+00
  +2.01104040654e+00
  +2.26074520217e+00
  +2.52068241731e+00
  +2.70697676693e+00
  +2.89891091534e+00
  +3.09606753823e+00
  +3.29803474787e+00
  +3.50494092560e+00
  +3.82453217120e+00
  +4.15233555082e+00
  +4.48787438525e+00
  +4.83066418042e+00
  +5.17946943137e+00
  +5.38436137312e+00
  +5.59084523586e+00
  +5.79860405679e+00
  +6.00732857580e+00
  +6.21759109028e+00
  +6.60421991156e+00
  +6.99503265142e+00
  +7.38948962539e+00
  +7.78704905509e+00
  +8.18604827693e+00
  +8.36269367473e+00
  +8.53787562848e+00
  +8.71140859841e+00
  +8.88311470458e+00
  +9.05405153232e+00
  +9.46857268770e+00
  +9.88333647097e+00
  +1.02977914109e+01
  +1.07113892376e+01
  +1.11220998888e+01
  +1.12346340212e+01
  +1.13438553299e+01
  +1.14497196402e+01
  +1.15521884986e+01
  +1.16527806162e+01
  +1.20590084375e+01
  +1.24620842811e+01
  +1.28614893626e+01
  +1.32567123938e+01
  +1.36454509369e+01
  +1.36716357891e+01
  +1.36939032060e+01
  +1.37123418122e+01
  +1.37270426705e+01
  +1.37399092716e+01
  +1.41085243263e+01
  +1.44714588610e+01
  +1.48282601626e+01
  +1.51784859524e+01
  +1.55196781461e+01
  +1.54522285748e+01
  +1.53816310692e+01
  +1.53082481779e+01
  +1.52327985906e+01
  +1.51588204354e+01
  +1.54702733412e+01
  +1.57745289803e+01
  +1.60712202344e+01
  +1.63599918938e+01
  +1.66387037683e+01
  +1.65557178870e+01
  +1.64731458995e+01
  +1.63909857416e+01
  +1.63092353591e+01
  +1.62296205447e+01
  +1.64900035663e+01
  +1.67420959573e+01
  +1.69856054466e+01
  +1.72202526552e+01
  +1.74442309527e+01
  +1.73572274878e+01
  +1.72706579546e+01
  +1.71845201887e+01
  +1.70988120366e+01
  +1.70150623183e+01
  +1.72317408188e+01
  +1.74393672379e+01
  +1.76377122914e+01
  +1.78265602083e+01
  +1.80043876662e+01
  +1.79145904081e+01
  +1.78252410157e+01
  +1.77363372552e+01
  +1.76478769041e+01
  +1.75612207255e+01
  +1.77413082363e+01
  +1.79118545020e+01
  +1.80726820703e+01
  +1.82236273354e+01
  +1.83634023492e+01
  +1.82718144979e+01
  +1.81806834428e+01
  +1.80900069059e+01
  +1.79997826200e+01
  +1.79112310791e+01
  +1.80613733229e+01
  +1.82017030804e+01
  +1.83320845329e+01
  +1.84523958184e+01
  +1.85615400314e+01
  +1.84689639643e+01
  +1.83768496222e+01
  +1.82851947023e+01
  +1.81939969133e+01
  +1.81043623333e+01
  +1.82305983925e+01
  +1.83469202939e+01
  +1.84532247543e+01
  +1.85494223915e+01
  +1.86345674043e+01
  +1.85416271117e+01
  +1.84491503606e+01
  +1.83571348393e+01
  +1.82655782473e+01
  +1.81754956573e+01
  +1.82831809606e+01
  +1.83809779728e+01
  +1.84688080116e+01
  +1.85466061201e+01
  +1.86135424578e+01
  +1.85207070275e+01
  +1.84283346158e+01
  +1.83364229135e+01
  +1.82449696227e+01
  +1.81549195028e+01
  +1.82486969989e+01
  +1.83327038775e+01
  +1.84068792850e+01
  +1.84711758365e+01
  +1.85248494062e+01
  +1.84324563344e+01
  +1.83405240748e+01
  +1.82490503294e+01
  +1.81580328112e+01
  +1.80683638500e+01
  +1.81521715149e+01
  +1.82263883434e+01
  +1.82909656558e+01
  +1.83458679350e+01
  +1.83904113020e+01
  +1.82986887429e+01
  +1.82074236521e+01
  +1.81166137477e+01
  +1.80262567597e+01
  +1.79372077095e+01
  +1.80143122843e+01
  +1.80820438042e+01
  +1.81403611513e+01
  +1.81892360384e+01
  +1.82280238670e+01
  +1.81371112187e+01
  +1.80466519991e+01
  +1.79566439467e+01
  +1.78670848114e+01
  +1.77788048101e+01
  +1.78518533329e+01
  +1.79157655205e+01
  +1.79705041506e+01
  +1.80160444935e+01
  +1.80517643864e+01
  +1.79617308359e+01
  +1.78721463297e+01
  +1.77830086280e+01
  +1.76943155024e+01
  +1.76068824621e+01
  +1.76779647044e+01
  +1.77401516458e+01
  +1.77934071310e+01
  +1.78377071684e+01
  +1.78724388643e+01
  +1.77832997036e+01
  +1.76946051263e+01
  +1.76063529150e+01
  +1.75185408635e+01
  +1.74319777132e+01
  +1.75026940385e+01
  +1.75647496024e+01
  +1.76181072138e+01
  +1.76627415357e+01
  +1.76980389849e+01
</dep>
<dep dio.Vt time>
  +5.22980266586e-01
  +6.07089739553e-01
  +7.03780722603e-01
  +7.42638976188e-01
  +7.87102313473e-01
  +8.50304970488e-01
  +9.37032239293e-01
  +1.03729008521e+00
  +1.15106732400e+00
  +1.27826753081e+00
  +1.41151351412e+00
  +1.52852849909e+00
  +1.65552987980e+00
  +1.79210400731e+00
  +1.93782502217e+00
  +2.09968367795e+00
  +2.31669487082e+00
  +2.54535917872e+00
  +2.78532657708e+00
  +3.03623187634e+00
  +3.28822766010e+00
  +3.47540164466e+00
  +3.66813809878e+00
  +3.86602622063e+00
  +4.06865974835e+00
  +4.28618530292e+00
  +4.60654523238e+00
  +4.93506347392e+00
  +5.27126635864e+00
  +5.61467205111e+00
  +5.95114549217e+00
  +6.15634789538e+00
  +6.36310416727e+00
  +6.57109915634e+00
  +6.78002523893e+00
  +7.00456558227e+00
  +7.39158876495e+00
  +7.78275868117e+00
  +8.17753678256e+00
  +8.57538229950e+00
  +8.95638078891e+00
  +9.13296868428e+00
  +9.30806959487e+00
  +9.48149856333e+00
  +9.65307824668e+00
  +9.84363077100e+00
  +1.02582973422e+01
  +1.06731750202e+01
  +1.10877127504e+01
  +1.15013626049e+01
  +1.18859414796e+01
  +1.19980571535e+01
  +1.21068431056e+01
  +1.22122553019e+01
  +1.23142554204e+01
  +1.24427178652e+01
  +1.28488979711e+01
  +1.32518960258e+01
  +1.36511932291e+01
  +1.40462782115e+01
  +1.43946595325e+01
  +1.44197963227e+01
  +1.44409911173e+01
  +1.44583321555e+01
  +1.44719101084e+01
  +1.45283683521e+01
  +1.48967705619e+01
  +1.52594614287e+01
  +1.56159878543e+01
  +1.59659070987e+01
  +1.62146267162e+01
  +1.61376887697e+01
  +1.60535242678e+01
  +1.59565080059e+01
  +1.58197972434e+01
  +1.59442086590e+01
  +1.62552982536e+01
  +1.65591575551e+01
  +1.68554186682e+01
  +1.71437255036e+01
  +1.43795836691e+01
  +1.42563175772e+01
  +1.41394368631e+01
  +1.40286107542e+01
  +1.39235256124e+01
  +1.70118346565e+01
  +1.72717009806e+01
  +1.75232396347e+01
  +1.77661570492e+01
  +1.80001723910e+01
  +1.23254921255e+01
  +1.23086312576e+01
  +1.22926438092e+01
  +1.22774845358e+01
  +1.22631105366e+01
  +1.77941490225e+01
  +1.80101561498e+01
  +1.82170682558e+01
  +1.84146540351e+01
  +1.86026954449e+01
  +1.05727397452e+01
  +1.06466742482e+01
  +1.07167788274e+01
  +1.07832518789e+01
  +1.08462815215e+01
  +1.83373027213e+01
  +1.85165666535e+01
  +1.86862387508e+01
  +1.88461385593e+01
  +1.89960990679e+01
  +9.10962097337e+00
  +9.25934736485e+00
  +9.40131769328e+00
  +9.53593373493e+00
  +9.66357645346e+00
  +1.86845063806e+01
  +1.88336804662e+01
  +1.89729824967e+01
  +1.91022724023e+01
  +1.92214234393e+01
  +7.91602279970e+00
  +8.12757948470e+00
  +8.32817719999e+00
  +8.51838363747e+00
  +8.69873708171e+00
  +1.88750983903e+01
