<Qucs Dataset 0.0.20>
<indep frequency 150>
  +5.00000000000000000000e+09
  +5.06711409395973110199e+09
  +5.13422818791946315765e+09
  +5.20134228187919425964e+09
  +5.26845637583892631531e+09
  +5.33557046979865741730e+09
  +5.40268456375838947296e+09
  +5.46979865771812057495e+09
  +5.53691275167785263062e+09
  +5.60402684563758373260e+09
  +5.67114093959731578827e+09
  +5.73825503355704689026e+09
  +5.80536912751677894592e+09
  +5.87248322147651004791e+09
  +5.93959731543624114990e+09
  +6.00671140939597320557e+09
  +6.07382550335570526123e+09
  +6.14093959731543636322e+09
  +6.20805369127516746521e+09
  +6.27516778523489952087e+09
  +6.34228187919463157654e+09
  +6.40939597315436267853e+09
  +6.47651006711409378052e+09
  +6.54362416107382583618e+09
  +6.61073825503355693817e+09
  +6.67785234899328899384e+09
  +6.74496644295302009583e+09
  +6.81208053691275215149e+09
  +6.87919463087248325348e+09
  +6.94630872483221435547e+09
  +7.01342281879194641113e+09
  +7.08053691275167846680e+09
  +7.14765100671140956879e+09
  +7.21476510067114067078e+09
  +7.28187919463087272644e+09
  +7.34899328859060478210e+09
  +7.41610738255033588409e+09
  +7.48322147651006698608e+09
  +7.55033557046979904175e+09
  +7.61744966442953109741e+09
  +7.68456375838926219940e+09
  +7.75167785234899330139e+09
  +7.81879194630872535706e+09
  +7.88590604026845645905e+09
  +7.95302013422818756104e+09
  +8.02013422818791961670e+09
  +8.08724832214765167236e+09
  +8.15436241610738277435e+09
  +8.22147651006711387634e+09
  +8.28859060402684593201e+09
  +8.35570469798657798767e+09
  +8.42281879194630908966e+09
  +8.48993288590604019165e+09
  +8.55704697986577224731e+09
  +8.62416107382550430298e+09
  +8.69127516778523635864e+09
  +8.75838926174496650696e+09
  +8.82550335570469856262e+09
  +8.89261744966442871094e+09
  +8.95973154362416076660e+09
  +9.02684563758389282227e+09
  +9.09395973154362487793e+09
  +9.16107382550335693359e+09
  +9.22818791946308708191e+09
  +9.29530201342281913757e+09
  +9.36241610738254928589e+09
  +9.42953020134228134155e+09
  +9.49664429530201339722e+09
  +9.56375838926174545288e+09
  +9.63087248322147750854e+09
  +9.69798657718120956421e+09
  +9.76510067114093971252e+09
  +9.83221476510067176819e+09
  +9.89932885906040191650e+09
  +9.96644295302013397217e+09
  +1.00335570469798660278e+10
  +1.01006711409395980835e+10
  +1.01677852348993301392e+10
  +1.02348993288590621948e+10
  +1.03020134228187923431e+10
  +1.03691275167785243988e+10
  +1.04362416107382545471e+10
  +1.05033557046979866028e+10
  +1.05704697986577186584e+10
  +1.06375838926174507141e+10
  +1.07046979865771827698e+10
  +1.07718120805369129181e+10
  +1.08389261744966449738e+10
  +1.09060402684563751221e+10
  +1.09731543624161071777e+10
  +1.10402684563758392334e+10
  +1.11073825503355712891e+10
  +1.11744966442953033447e+10
  +1.12416107382550354004e+10
  +1.13087248322147655487e+10
  +1.13758389261744976044e+10
  +1.14429530201342277527e+10
  +1.15100671140939598083e+10
  +1.15771812080536918640e+10
  +1.16442953020134239197e+10
  +1.17114093959731559753e+10
  +1.17785234899328861237e+10
  +1.18456375838926181793e+10
  +1.19127516778523483276e+10
  +1.19798657718120803833e+10
  +1.20469798657718124390e+10
  +1.21140939597315444946e+10
  +1.21812080536912765503e+10
  +1.22483221476510086060e+10
  +1.23154362416107387543e+10
  +1.23825503355704708099e+10
  +1.24496644295302009583e+10
  +1.25167785234899330139e+10
  +1.25838926174496650696e+10
  +1.26510067114093971252e+10
  +1.27181208053691291809e+10
  +1.27852348993288593292e+10
  +1.28523489932885913849e+10
  +1.29194630872483215332e+10
  +1.29865771812080535889e+10
  +1.30536912751677856445e+10
  +1.31208053691275177002e+10
  +1.31879194630872497559e+10
  +1.32550335570469818115e+10
  +1.33221476510067119598e+10
  +1.33892617449664440155e+10
  +1.34563758389261741638e+10
  +1.35234899328859062195e+10
  +1.35906040268456382751e+10
  +1.36577181208053703308e+10
  +1.37248322147651004791e+10
  +1.37919463087248325348e+10
  +1.38590604026845645905e+10
  +1.39261744966442966461e+10
  +1.39932885906040267944e+10
  +1.40604026845637588501e+10
  +1.41275167785234909058e+10
  +1.41946308724832229614e+10
  +1.42617449664429531097e+10
  +1.43288590604026851654e+10
  +1.43959731543624172211e+10
  +1.44630872483221492767e+10
  +1.45302013422818794250e+10
  +1.45973154362416114807e+10
  +1.46644295302013435364e+10
  +1.47315436241610736847e+10
  +1.47986577181208057404e+10
  +1.48657718120805377960e+10
  +1.49328859060402698517e+10
  +1.50000000000000000000e+10
</indep>
<dep dB_S11 frequency>
  -5.71449261990554235879e-02
  -5.86989265340097099433e-02
  -6.03101224753104583898e-02
  -6.19813570947286007762e-02
  -6.37156389825334207311e-02
  -6.55161537992294401578e-02
  -6.73862767518257632648e-02
  -6.93295860821251247463e-02
  -7.13498776646278309865e-02
  -7.34511808230778884266e-02
  -7.56377754876412095042e-02
  -7.79142108298823132806e-02
  -8.02853255301341911521e-02
  -8.27562698521569634069e-02
  -8.53325297236105645426e-02
  -8.80199530486823616959e-02
  -9.08247785118733719223e-02
  -9.37536671708189689456e-02
  -9.68137371822825054668e-02
  -1.00012602060268337989e-01
  -1.03358412932383653127e-01
  -1.06859905340487920666e-01
  -1.10526451229511227248e-01
  -1.14368116888389159680e-01
  -1.18395727753061452692e-01
  -1.22620941164117897015e-01
  -1.27056328396721818219e-01
  -1.31715467562077831465e-01
  -1.36613049334879665953e-01
  -1.41764997907367490404e-01
  -1.47188610140346509692e-01
  -1.52902716607889510581e-01
  -1.58927869168385138554e-01
  -1.65286560905677087918e-01
  -1.72003485864378968806e-01
  -1.79105848078758705944e-01
  -1.86623732145476339817e-01
  -1.94590551262794508869e-01
  -2.03043593616173578820e-01
  -2.12024694744815139780e-01
  -2.21581072837668785480e-01
  -2.31766376913437294194e-01
  -2.42642016250972758495e-01
  -2.54278865905973372463e-01
  -2.66759481833199418865e-01
  -2.80181016701360141585e-01
  -2.94659114834175395181e-01
  -3.10333200030256717294e-01
  -3.27373784331275230475e-01
  -3.45992773241378948068e-01
  -3.66458320009450222443e-01
  -3.89116764797056424730e-01
  -4.14425914034195708169e-01
  -4.43007004344205923552e-01
  -4.75728399556236192236e-01
  -5.13844899037132707420e-01
  -5.59237672450189182705e-01
  -6.14842198465985090294e-01
  -6.85438505744605408587e-01
  -7.79159327362898501690e-01
  -9.10450304461419945845e-01
  -1.10597900574177021582e+00
  -1.41633499360484549356e+00
  -1.93774321630150048179e+00
  -2.84485790863037646403e+00
  -4.41438512559088636067e+00
  -6.98343602463001467129e+00
  -1.08548320197172039059e+01
  -1.64219002181522597539e+01
  -2.51828123258133160789e+01
  -3.48466162920980195850e+01
  -2.60639477455591972443e+01
  -2.28622051016704475046e+01
  -2.11518435992709541438e+01
  -1.98463224763045786858e+01
  -1.85876355009941569563e+01
  -1.73081143858442132455e+01
  -1.60744644484410983409e+01
  -1.50002887128322583976e+01
  -1.42101399863984312333e+01
  -1.38483777573643234149e+01
  -1.41361939263639406761e+01
  -1.55392010533287727725e+01
  -1.93952657989796470872e+01
  -2.55946318645676385017e+01
  -1.47705252286080934709e+01
  -8.60698882515155538897e+00
  -5.15086301517701095065e+00
  -3.21448135551120328657e+00
  -2.14644352760949574943e+00
  -1.54707306627999807702e+00
  -1.19505908309752229002e+00
  -9.75819223445127503780e-01
  -8.30655479517137695922e-01
  -7.28820940209425782719e-01
  -6.53606008778604863352e-01
  -5.95543041506881865033e-01
  -5.49036883005938114444e-01
  -5.10643917573147865241e-01
  -4.78162022659442409456e-01
  -4.50131852984179681165e-01
  -4.25553870831598735069e-01
  -4.03722388729282954944e-01
  -3.84125158668230604064e-01
  -3.66380821611911544622e-01
  -3.50198866167130473670e-01
  -3.35353337296753206687e-01
  -3.21665160432268726343e-01
  -3.08989993605421175982e-01
  -2.97209706361683256848e-01
  -2.86226288104909243337e-01
  -2.75957415751113155356e-01
  -2.66333175456265391912e-01
  -2.57293600737181549221e-01
  -2.48786797318392011169e-01
  -2.40767495920052754244e-01
  -2.33195921507790310256e-01
  -2.26036899602179874869e-01
  -2.19259142322903055611e-01
  -2.12834672254408913128e-01
  -2.06738353121537821178e-01
  -2.00947504072976679268e-01
  -1.95441580029352135472e-01
  -1.90201904700623175559e-01
  -1.85211445948851360921e-01
  -1.80454625468665474930e-01
  -1.75917156491909060234e-01
  -1.71585904542389644512e-01
  -1.67448767280665988810e-01
  -1.63494570262466526467e-01
  -1.59712976046207599801e-01
  -1.56094404564829314364e-01
  -1.52629963056708672919e-01
  -1.49311384152669562875e-01
  -1.46130970957446593150e-01
  -1.43081548158963955952e-01
  -1.40156418356405632064e-01
  -1.37349322926861749927e-01
  -1.34654406855095637452e-01
  -1.32066187038058169279e-01
  -1.29579523647311678491e-01
  -1.27189594192059940436e-01
  -1.24891869975470706788e-01
  -1.22682094678679048938e-01
  -1.20556264841984811520e-01
  -1.18510612042904750485e-01
  -1.16541586595794582903e-01
  -1.14645842619570587084e-01
  -1.12820224338722019386e-01
  -1.11061753498551379904e-01
</dep>
<dep dB_S21 frequency>
  -9.28119324105952330228e+01
  -9.21086589848472669928e+01
  -9.13958624214073154235e+01
  -9.06733117729024939990e+01
  -8.99407703805553921939e+01
  -8.91979954579462486208e+01
  -8.84447376584388678111e+01
  -8.76807406241838549477e+01
  -8.69057405144675811925e+01
  -8.61194655110016356048e+01
  -8.53216352975249208157e+01
  -8.45119605108671265725e+01
  -8.36901421603229920265e+01
  -8.28558710118617796070e+01
  -8.20088269333314485721e+01
  -8.11486781963606063073e+01
  -8.02750807301614486278e+01
  -7.93876773218425455525e+01
  -7.84860967571591459091e+01
  -7.75699528948216681101e+01
  -7.66388436665617831522e+01
  -7.56923499940682660281e+01
  -7.47300346126275059078e+01
  -7.37514407898304256150e+01
  -7.27560909259478023614e+01
  -7.17434850205409020418e+01
  -7.07130989874376609805e+01
  -6.96643827973672955522e+01
  -6.85967584241641361587e+01
  -6.75096175664472752942e+01
  -6.64023191119540143745e+01
  -6.52741863060374640781e+01
  -6.41245035791418018789e+01
  -6.29525129800373335343e+01
  -6.17574101520363782925e+01
  -6.05383397779648717574e+01
  -5.92943904059584454558e+01
  -5.80245885517886250682e+01
  -5.67278919537733727907e+01
  -5.54031818328743952407e+01
  -5.40492539825754505500e+01
  -5.26648084798409286122e+01
  -5.12484377691117174436e+01
  -4.97986128253150468481e+01
  -4.83136670491057316212e+01
  -4.67917774887527642136e+01
  -4.52309429212504809925e+01
  -4.36289582673996250151e+01
  -4.19833847771211594591e+01
  -4.02915154339422656449e+01
  -3.85503351549902362194e+01
  -3.67564757324846098641e+01
  -3.49061663298852806747e+01
  -3.29951822265837080295e+01
  -3.10187984562297671687e+01
  -2.89717632035405188162e+01
  -2.68483229594747143665e+01
  -2.46423674557821854592e+01
  -2.23478388927350835047e+01
  -1.99597134119010490849e+01
  -1.74762091897248055261e+01
  -1.49035774081910474820e+01
  -1.22660558123100287276e+01
  -9.62468222060147837738e+00
  -7.10489860645390614025e+00
  -4.90998412608569978488e+00
  -3.25691953962708513615e+00
  -2.22369590586064713733e+00
  -1.68620955837689390222e+00
  -1.44217277505506946689e+00
  -1.33788060305528855309e+00
  -1.29190971818318978137e+00
  -1.27011660408918092280e+00
  -1.26114415097276189037e+00
  -1.26272107384183729373e+00
  -1.27550434394787504111e+00
  -1.30040760703360813721e+00
  -1.33700428577534546903e+00
  -1.38212309724820925361e+00
  -1.42886782424322378304e+00
  -1.46705086611674162533e+00
  -1.48663300412962029462e+00
  -1.48668419099292359320e+00
  -1.49398294560763700289e+00
  -1.59504463528476936318e+00
  -1.96883753507755887568e+00
  -2.85418700095032074060e+00
  -4.38261701671561176852e+00
  -6.43850650794402046273e+00
  -8.76927091541577397038e+00
  -1.11659317973815817027e+01
  -1.35138130096958875015e+01
  -1.57645254146226605485e+01
  -1.79036283784562364474e+01
  -1.99316471957122551828e+01
  -2.18549289369709214270e+01
  -2.36815859619077926368e+01
  -2.54197956437974603716e+01
  -2.70771472728577400346e+01
  -2.86604432310534207318e+01
  -3.01756902952910301963e+01
  -3.16281641543442120224e+01
  -3.30224960366926936217e+01
  -3.43627598743704183448e+01
  -3.56525516719859183468e+01
  -3.68950586141761434078e+01
  -3.80931179419495364868e+01
  -3.92492665918935230707e+01
  -4.03657828684836417210e+01
  -4.14447214016083762544e+01
  -4.24879425102463486041e+01
  -4.34971369311150368731e+01
  -4.44738467132935184623e+01
  -4.54194829396943262623e+01
  -4.63353408173158882732e+01
  -4.72226125795737416979e+01
  -4.80823985632859347561e+01
  -4.89157167572433237979e+01
  -4.97235110660962078555e+01
  -5.05066584901681565611e+01
  -5.12659753868477352512e+01
  -5.20022229508015811916e+01
  -5.27161120271176883989e+01
  -5.34083073525751927946e+01
  -5.40794313047560422092e+01
  -5.47300672259636939998e+01
  -5.53607623784102855780e+01
  -5.59720305784208704836e+01
  -5.65643545501785709462e+01
  -5.71381880334958154322e+01
  -5.76939576750577600706e+01
  -5.82320647283368160174e+01
  -5.87528865838146074907e+01
  -5.92567781481239848063e+01
  -5.97440730881580890355e+01
  -6.02150849540201349441e+01
  -6.06701081928079730687e+01
  -6.11094190636390450777e+01
  -6.15332764629344168839e+01
  -6.19419226677857750474e+01
  -6.23355840041965052478e+01
  -6.27144714460770558162e+01
  -6.30787811500785338126e+01
  -6.34286949306460883236e+01
  -6.37643806790485285774e+01
  -6.40859927295753237786e+01
  -6.43936721755895433716e+01
  -6.46875471376616530961e+01
  -6.49677329855802980774e+01
  -6.52343325156440840829e+01
</dep>
<dep S[2,2] frequency>
  +6.32975766626833413753e-01-j7.65682546992547008458e-01
  +6.18926847654978962154e-01-j7.76855559256360739262e-01
  +6.04401530245794904594e-01-j7.87977061723601934773e-01
  +5.89382398795118556123e-01-j7.99035676018289064970e-01
  +5.73851374806844005683e-01-j8.10018905534927169398e-01
  +5.57789705132710866842e-01-j8.20913035190931172913e-01
  +5.41177952724763211556e-01-j8.31703022044020356951e-01
  +5.23995990511207487828e-01-j8.42372375937034068016e-01
  +5.06222999113011162819e-01-j8.52903029259536427098e-01
  +4.87837469242636156963e-01-j8.63275194837456516517e-01
  +4.68817209770510778810e-01-j8.73467210878935751417e-01
  +4.49139362612464621005e-01-j8.83455371816764811754e-01
  +4.28780425786164431923e-01-j8.93213743795551518012e-01
  +4.07716286210999256934e-01-j9.02713963455846202244e-01
  +3.85922264088907507329e-01-j9.11925018568652046014e-01
  +3.63373171009361173311e-01-j9.20813008973485613851e-01
  +3.40043384276807358901e-01-j9.29340886173326552466e-01
  +3.15906940371640854170e-01-j9.37468169842730070229e-01
  +2.90937650935143843345e-01-j9.45150639414724658138e-01
  +2.65109245226189671474e-01-j9.52339998832029022147e-01
  +2.38395543644895402391e-01-j9.58983512484464228898e-01
  +2.10770667671192374337e-01-j9.65023610314671098642e-01
  +1.82209292441179837585e-01-j9.70397460067898842695e-01
  +1.52686949201598032300e-01-j9.75036504700808825952e-01
  +1.22180386066232632425e-01-j9.78865963064816879680e-01
  +9.06679968751547826766e-02-j9.81804292160796121536e-01
  +5.81303295608762357616e-02-j9.83762609549533428854e-01
  +2.45506872933286268701e-02-j9.84644074927675805320e-01
  -1.00841621471821404205e-02-j9.84343230482194520015e-01
  -4.57831507785934829768e-02-j9.82745300469076932259e-01
  -8.25499276478104115906e-02-j9.79725451588254303559e-01
  -1.20381704449337226248e-01-j9.75148017229598873534e-01
  -1.59267901023752073142e-01-j9.68865690649174937654e-01
  -1.99188557440352714822e-01-j9.60718694736131362255e-01
  -2.40112473725836134131e-01-j9.50533939422906981598e-01
  -2.81995031628087700071e-01-j9.38124182201779954760e-01
  -3.24775644880440694795e-01-j9.23287212936023893306e-01
  -3.68374774975721852588e-01-j9.05805091588290589577e-01
  -4.12690438110883517364e-01-j8.85443477158400771287e-01
  -4.57594115251297117730e-01-j8.61951098742409382858e-01
  -5.02925960572449315400e-01-j8.35059436175879077346e-01
  -5.48489183045837047636e-01-j8.04482699575410742376e-01
  -5.94043450548023099778e-01-j7.69918226183122111905e-01
  -6.39297134107360665034e-01-j7.31047452040105349980e-01
  -6.83898169753476947719e-01-j6.87537669258092676294e-01
  -7.27423264171938810385e-01-j6.39044853121554345954e-01
  -7.69365104282080825016e-01-j5.85217946203398842187e-01
  -8.09117144955647460414e-01-j5.25705133469399621404e-01
  -8.45955436771980373578e-01-j4.60162855676486459711e-01
  -8.79016808591413623120e-01-j3.88268624898890357677e-01
  -9.07272528194883354224e-01-j3.09739186321030035565e-01
  -9.29496319964330686147e-01-j2.24356316985899001404e-01
  -9.44225322868773586649e-01-j1.32003742525296507981e-01
  -9.49712259650126067179e-01-j3.27206019360025829323e-02
  -9.43866892695501613630e-01+j7.32198312373717463686e-02
  -9.24185172667272181179e-01+j1.85191805102977918862e-01
  -8.87666503149091012936e-01+j3.02034776966854323632e-01
  -8.30726449143577294620e-01+j4.21764960650994280567e-01
  -7.49132736460666026623e-01+j5.41106975064987949509e-01
  -6.38050054153048606942e-01+j6.54718956235160742807e-01
  -4.92435528402338285048e-01+j7.53912612256789294030e-01
  -3.08428642558709609212e-01+j8.24652018616462534339e-01
  -8.72838467481869273445e-02+j8.45043080523658174386e-01
  +1.55314911584620379825e-01+j7.84821402776330168116e-01
  +3.73657783914387253699e-01+j6.16274717822208550899e-01
  +4.87872912420858229066e-01+j3.51933861770257538915e-01
  +4.39333131288409450832e-01+j8.52940596459864919243e-02
  +2.78639973428825571400e-01-j6.70268396714121250657e-02
  +1.23511127732248954247e-01-j8.68242292690212247308e-02
  +3.73211793228186428095e-02-j4.04852659819852078726e-02
  +1.43914298328092771229e-02+j1.09764557930083356263e-02
  +2.70045157979091066114e-02+j4.17842940080094815691e-02
  +5.27403044914253674169e-02+j4.89070665047479091747e-02
  +7.92930016698171480360e-02+j3.71884120080370750294e-02
  +1.01113432431566452330e-01+j1.16732407413170646837e-02
  +1.15100614982607041270e-01-j2.43935861107714355156e-02
  +1.17917872843644050418e-01-j6.84213983897097033360e-02
  +1.05662195342049652913e-01-j1.16307120243272055227e-01
  +7.55782644349725224453e-02-j1.60961487254159707483e-01
  +2.87669356357963812432e-02-j1.92620713535573362396e-01
  -2.74375162250986570633e-02-j2.01177361500201989930e-01
  -7.83968878772138833000e-02-j1.80098753826976820669e-01
  -1.02903255007359500928e-01-j1.31687115074746036170e-01
  -7.72102871404487800522e-02-j7.43816543744753033707e-02
  +1.15864408005726948758e-02-j5.12190353930094821600e-02
  +1.33878791368100436010e-01-j1.24157473950358088199e-01
  +1.93075236621720630614e-01-j3.17077942522136502213e-01
  +9.88384836101336289316e-02-j5.43748439225722912660e-01
  -1.18199180866800757084e-01-j6.80489333636289939200e-01
  -3.58930864910644686905e-01-j6.93689332880136233506e-01
  -5.61321172838323279031e-01-j6.20670891365781685067e-01
  -7.10589511774266546773e-01-j5.04483534542293776681e-01
  -8.12442078980508464170e-01-j3.72425996022330230151e-01
  -8.76882935573160993137e-01-j2.38724951766091875172e-01
  -9.12891597572430102403e-01-j1.10169373800751660419e-01
  -9.27455814672932810083e-01+j1.02403799785829412172e-02
  -9.25810861147576713570e-01+j1.21375972935878068126e-01
  -9.11867335169854631438e-01+j2.23029693777453602577e-01
  -8.88574218111908065154e-01+j3.15444364208415428674e-01
  -8.58184645482804375760e-01+j3.99077545414972867377e-01
  -8.22442561303868280298e-01+j4.74480768243355832681e-01
  -7.82713182083455638605e-01+j5.42236481863334507381e-01
  -7.40075137713863018263e-01+j6.02924762848147000049e-01
  -6.95386643210970434303e-01+j6.57105809649435324005e-01
  -6.49333923561595471874e-01+j7.05311038142560242648e-01
  -6.02467323101087193216e-01+j7.48038974648443044657e-01
  -5.55228710372267397766e-01+j7.85753872567329758603e-01
  -5.07972611233957871413e-01+j8.18885889151845569600e-01
  -4.60982736797144909691e-01+j8.47832151939244105243e-01
