<Qucs Dataset 0.0.17>
<indep time 100>
  +0.00000000000e+00
  +2.12121212121e-06
  +4.24242424242e-06
  +6.36363636364e-06
  +8.48484848485e-06
  +1.06060606061e-05
  +1.27272727273e-05
  +1.48484848485e-05
  +1.69696969697e-05
  +1.90909090909e-05
  +2.12121212121e-05
  +2.33333333333e-05
  +2.54545454545e-05
  +2.75757575758e-05
  +2.96969696970e-05
  +3.18181818182e-05
  +3.39393939394e-05
  +3.60606060606e-05
  +3.81818181818e-05
  +4.03030303030e-05
  +4.24242424242e-05
  +4.45454545455e-05
  +4.66666666667e-05
  +4.87878787879e-05
  +5.09090909091e-05
  +5.30303030303e-05
  +5.51515151515e-05
  +5.72727272727e-05
  +5.93939393939e-05
  +6.15151515152e-05
  +6.36363636364e-05
  +6.57575757576e-05
  +6.78787878788e-05
  +7.00000000000e-05
  +7.21212121212e-05
  +7.42424242424e-05
  +7.63636363636e-05
  +7.84848484848e-05
  +8.06060606061e-05
  +8.27272727273e-05
  +8.48484848485e-05
  +8.69696969697e-05
  +8.90909090909e-05
  +9.12121212121e-05
  +9.33333333333e-05
  +9.54545454545e-05
  +9.75757575758e-05
  +9.96969696970e-05
  +1.01818181818e-04
  +1.03939393939e-04
  +1.06060606061e-04
  +1.08181818182e-04
  +1.10303030303e-04
  +1.12424242424e-04
  +1.14545454545e-04
  +1.16666666667e-04
  +1.18787878788e-04
  +1.20909090909e-04
  +1.23030303030e-04
  +1.25151515152e-04
  +1.27272727273e-04
  +1.29393939394e-04
  +1.31515151515e-04
  +1.33636363636e-04
  +1.35757575758e-04
  +1.37878787879e-04
  +1.40000000000e-04
  +1.42121212121e-04
  +1.44242424242e-04
  +1.46363636364e-04
  +1.48484848485e-04
  +1.50606060606e-04
  +1.52727272727e-04
  +1.54848484848e-04
  +1.56969696970e-04
  +1.59090909091e-04
  +1.61212121212e-04
  +1.63333333333e-04
  +1.65454545455e-04
  +1.67575757576e-04
  +1.69696969697e-04
  +1.71818181818e-04
  +1.73939393939e-04
  +1.76060606061e-04
  +1.78181818182e-04
  +1.80303030303e-04
  +1.82424242424e-04
  +1.84545454545e-04
  +1.86666666667e-04
  +1.88787878788e-04
  +1.90909090909e-04
  +1.93030303030e-04
  +1.95151515152e-04
  +1.97272727273e-04
  +1.99393939394e-04
  +2.01515151515e-04
  +2.03636363636e-04
  +2.05757575758e-04
  +2.07878787879e-04
  +2.10000000000e-04
</indep>
<dep Ve.It time>
  +5.35078322092e-05
  +5.12369820350e-05
  +4.89804622027e-05
  +4.67239496679e-05
  +4.44674287415e-05
  +4.22109016568e-05
  +3.99543683152e-05
  +3.76978283079e-05
  +3.54412811419e-05
  +3.31847262659e-05
  +3.09281630609e-05
  +2.86715908351e-05
  +2.64150088071e-05
  +2.41584160950e-05
  +2.19018116947e-05
  +1.96451944611e-05
  +1.73885630769e-05
  +1.51319160218e-05
  +1.28752515255e-05
  +1.06185675154e-05
  +8.36186154267e-06
  +6.10513069099e-06
  +3.84837145088e-06
  +1.59157955553e-06
  -6.65250249562e-07
  -2.92212452312e-06
  -5.17905160209e-06
  -7.43604325026e-06
  -9.69317498890e-06
  -1.19541418608e-05
  -1.43796864077e-05
  -1.77769017675e-05
  -2.18048649056e-05
  -2.59700410956e-05
  -3.04792634465e-05
  -3.49885203691e-05
  -3.94978071320e-05
  -4.40071273453e-05
  -4.85164770179e-05
  -5.30258577130e-05
  -5.75352671096e-05
  -6.20447058437e-05
  -6.65541723205e-05
  -7.10636668164e-05
  -7.55731880763e-05
  -8.00827362406e-05
  -8.45923102322e-05
  -8.91019101426e-05
  -8.97461402794e-05
  -8.97461400546e-05
  -8.97461402748e-05
  -8.97461400632e-05
  -8.91019089040e-05
  -8.45923091092e-05
  -8.00827352216e-05
  -7.55731869321e-05
  -7.10636657264e-05
  -6.65541711707e-05
  -6.20447046619e-05
  -5.75352659711e-05
  -5.30258563997e-05
  -4.85164759369e-05
  -4.40071258098e-05
  -3.94978062329e-05
  -3.49885183925e-05
  -3.04792627402e-05
  -2.59700404661e-05
  -2.14608522815e-05
  -1.69516994405e-05
  -1.24425829571e-05
  -7.93350423412e-06
  -3.42446466700e-06
  +1.08453406322e-06
  +5.59349003768e-06
  +1.01024010811e-05
  +1.46112644846e-05
  +1.91200771835e-05
  +2.36288351496e-05
  +2.81375336155e-05
  +3.26461660679e-05
  +3.71547241490e-05
  +4.16631958012e-05
  +4.61715637755e-05
  +5.06798004955e-05
  +5.51878590963e-05
  +5.96956470577e-05
  +6.42029365953e-05
  +6.87088135663e-05
  +7.31724923829e-05
  +3.09598842682e-05
  +3.32161166376e-05
  +3.54723105583e-05
  +3.77285225352e-05
  +3.99847428705e-05
  +4.22409697413e-05
  +4.44972025214e-05
  +4.67534407724e-05
  +4.90096841285e-05
  +5.12659322477e-05
  +5.35221848298e-05
</dep>
<dep Vdd.It time>
  -1.95114767386e-03
  -1.95113867992e-03
  -1.95112968328e-03
  -1.95112069368e-03
  -1.95111171113e-03
  -1.95110273562e-03
  -1.95109376715e-03
  -1.95108480568e-03
  -1.95107585123e-03
  -1.95106690377e-03
  -1.95105796330e-03
  -1.95104902981e-03
  -1.95104010328e-03
  -1.95103118371e-03
  -1.95102227108e-03
  -1.95101336539e-03
  -1.95100446663e-03
  -1.95099557478e-03
  -1.95098668985e-03
  -1.95097781181e-03
  -1.95096894067e-03
  -1.95096007641e-03
  -1.95095121903e-03
  -1.95094236852e-03
  -1.95093352488e-03
  -1.95092468810e-03
  -1.95091585818e-03
  -1.95090703545e-03
  -1.95089823909e-03
  -1.95089061389e-03
  -1.95093290249e-03
  -1.95117673754e-03
  -1.95019396952e-03
  -1.13134852729e-03
  -1.13155416786e-03
  -1.13174658891e-03
  -1.13193466488e-03
  -1.13211018028e-03
  -1.13228002048e-03
  -1.13244086384e-03
  -1.13259575391e-03
  -1.13274360525e-03
  -1.13288585079e-03
  -1.13302227207e-03
  -1.13315361004e-03
  -1.13327996517e-03
  -1.13340176825e-03
  -1.13351922240e-03
  -1.13353557305e-03
  -1.13353556032e-03
  -1.13353557055e-03
  -1.13353556383e-03
  -1.13351900395e-03
  -1.13340154552e-03
  -1.13327977377e-03
  -1.13315337391e-03
  -1.13302207036e-03
  -1.13288557623e-03
  -1.13274343813e-03
  -1.13259537851e-03
  -1.13244081738e-03
  -1.13227940952e-03
  -1.13211045773e-03
  -1.13193349641e-03
  -1.13174768824e-03
  -1.13155239441e-03
  -1.13134658853e-03
  -1.13112938919e-03
  -1.13089950045e-03
  -1.13065569464e-03
  -1.13039627659e-03
  -1.13011950619e-03
  -1.12982307348e-03
  -1.12950444327e-03
  -1.12916031237e-03
  -1.12878683694e-03
  -1.12837900682e-03
  -1.12793065556e-03
  -1.12743357923e-03
  -1.12687706214e-03
  -1.12624619080e-03
  -1.12551994022e-03
  -1.12466664738e-03
  -1.12363612665e-03
  -1.12234079753e-03
  -1.12060689037e-03
  -1.11800344573e-03
  -1.11278700174e-03
  -1.02989926090e-03
  -1.95105793859e-03
  -1.95106687963e-03
  -1.95107582765e-03
  -1.95108478266e-03
  -1.95109374464e-03
  -1.95110271365e-03
  -1.95111168965e-03
  -1.95112067269e-03
  -1.95112966275e-03
  -1.95113865988e-03
  -1.95114766405e-03
</dep>
<dep _net1.Vt time>
  +5.00000000000e+00
  +5.00000000000e+00
  +5.00000000000e+00
  +5.00000000000e+00
  +5.00000000000e+00
  +5.00000000000e+00
  +5.00000000000e+00
  +5.00000000000e+00
  +5.00000000000e+00
  +5.00000000000e+00
  +5.00000000000e+00
  +5.00000000000e+00
  +5.00000000000e+00
  +5.00000000000e+00
  +5.00000000000e+00
  +5.00000000000e+00
  +5.00000000000e+00
  +5.00000000000e+00
  +5.00000000000e+00
  +5.00000000000e+00
  +5.00000000000e+00
  +5.00000000000e+00
  +5.00000000000e+00
  +5.00000000000e+00
  +5.00000000000e+00
  +5.00000000000e+00
  +5.00000000000e+00
  +5.00000000000e+00
  +5.00000000000e+00
  +5.00000000000e+00
  +5.00000000000e+00
  +5.00000000000e+00
  +5.00000000000e+00
  +5.00000000000e+00
  +5.00000000000e+00
  +5.00000000000e+00
  +5.00000000000e+00
  +5.00000000000e+00
  +5.00000000000e+00
  +5.00000000000e+00
  +5.00000000000e+00
  +5.00000000000e+00
  +5.00000000000e+00
  +5.00000000000e+00
  +5.00000000000e+00
  +5.00000000000e+00
  +5.00000000000e+00
  +5.00000000000e+00
  +5.00000000000e+00
  +5.00000000000e+00
  +5.00000000000e+00
  +5.00000000000e+00
  +5.00000000000e+00
  +5.00000000000e+00
  +5.00000000000e+00
  +5.00000000000e+00
  +5.00000000000e+00
  +5.00000000000e+00
  +5.00000000000e+00
  +5.00000000000e+00
  +5.00000000000e+00
  +5.00000000000e+00
  +5.00000000000e+00
  +5.00000000000e+00
  +5.00000000000e+00
  +5.00000000000e+00
  +5.00000000000e+00
  +5.00000000000e+00
  +5.00000000000e+00
  +5.00000000000e+00
  +5.00000000000e+00
  +5.00000000000e+00
  +5.00000000000e+00
  +5.00000000000e+00
  +5.00000000000e+00
  +5.00000000000e+00
  +5.00000000000e+00
  +5.00000000000e+00
  +5.00000000000e+00
  +5.00000000000e+00
  +5.00000000000e+00
  +5.00000000000e+00
  +5.00000000000e+00
  +5.00000000000e+00
  +5.00000000000e+00
  +5.00000000000e+00
  +5.00000000000e+00
  +5.00000000000e+00
  +5.00000000000e+00
  +5.00000000000e+00
  +5.00000000000e+00
  +5.00000000000e+00
  +5.00000000000e+00
  +5.00000000000e+00
  +5.00000000000e+00
  +5.00000000000e+00
  +5.00000000000e+00
  +5.00000000000e+00
  +5.00000000000e+00
  +5.00000000000e+00
</dep>
<dep _net0.Vt time>
  +7.99869705223e-01
  +7.99890869529e-01
  +7.99911621763e-01
  +7.99932357272e-01
  +7.99953076458e-01
  +7.99973779347e-01
  +7.99994465907e-01
  +8.00015136233e-01
  +8.00035790308e-01
  +8.00056428226e-01
  +8.00077049980e-01
  +8.00097655661e-01
  +8.00118245271e-01
  +8.00138818901e-01
  +8.00159376565e-01
  +8.00179918356e-01
  +8.00200444299e-01
  +8.00220954495e-01
  +8.00241448984e-01
  +8.00261927878e-01
  +8.00282391237e-01
  +8.00302839194e-01
  +8.00323271841e-01
  +8.00343689344e-01
  +8.00364091843e-01
  +8.00384479563e-01
  +8.00404852664e-01
  +8.00425207656e-01
  +8.00445313775e-01
  +8.00451309715e-01
  +7.99829838835e-01
  +7.95041650366e-01
  +7.84580510522e-01
  +6.63607963676e-02
  +6.53765916009e-02
  +6.44414764007e-02
  +6.35516831660e-02
  +6.27030587064e-02
  +6.18927073107e-02
  +6.11174777318e-02
  +6.03749920615e-02
  +5.96627746799e-02
  +5.89788844917e-02
  +5.83213206557e-02
  +5.76884937772e-02
  +5.70787538008e-02
  +5.64907906781e-02
  +5.59232226820e-02
  +5.58436195997e-02
  +5.58436163954e-02
  +5.58436184615e-02
  +5.58436183562e-02
  +5.59228988781e-02
  +5.64904303746e-02
  +5.70785217052e-02
  +5.76881016830e-02
  +5.83210499465e-02
  +5.89784572918e-02
  +5.96624605552e-02
  +6.03745195327e-02
  +6.11171151241e-02
  +6.18921739640e-02
  +6.27026448035e-02
  +6.35510621576e-02
  +6.44410177105e-02
  +6.53758603489e-02
  +6.63600806986e-02
  +6.73981521914e-02
  +6.84958525791e-02
  +6.96592615101e-02
  +7.08960564525e-02
  +7.22147031084e-02
  +7.36257924547e-02
  +7.51415051944e-02
  +7.67771240310e-02
  +7.85509596560e-02
  +8.04863438113e-02
  +8.26124789530e-02
  +8.49677266044e-02
  +8.76026687676e-02
  +9.05872020489e-02
  +9.40203704161e-02
  +9.80507640719e-02
  +1.02914498275e-01
  +1.09022914469e-01
  +1.17192537008e-01
  +1.29447546075e-01
  +1.53968878373e-01
  +5.42627764942e-01
  +8.00076181153e-01
  +8.00055567699e-01
  +8.00034939153e-01
  +8.00014293545e-01
  +7.99993631469e-01
  +7.99972952615e-01
  +7.99952257295e-01
  +7.99931545186e-01
  +7.99910816568e-01
  +7.99890071139e-01
  +7.99869309154e-01
</dep>
<dep Output.Vt time>
  +2.97362276352e-02
  +2.97573348289e-02
  +2.97788668436e-02
  +2.98003824545e-02
  +2.98218812273e-02
  +2.98433632292e-02
  +2.98648285101e-02
  +2.98862770580e-02
  +2.99077089067e-02
  +2.99291240428e-02
  +2.99505224930e-02
  +2.99719042422e-02
  +2.99932693088e-02
  +3.00146176745e-02
  +3.00359493478e-02
  +3.00572643042e-02
  +3.00785625398e-02
  +3.00998440204e-02
  +3.01211087253e-02
  +3.01423566047e-02
  +3.01635876140e-02
  +3.01848016785e-02
  +3.02059987178e-02
  +3.02271786158e-02
  +3.02483412348e-02
  +3.02694863878e-02
  +3.02906138764e-02
  +3.03117257114e-02
  +3.03329625235e-02
  +3.03628049971e-02
  +3.07855194728e-02
  +3.44276831961e-02
  +4.95078327300e-02
  +4.61630112538e+00
  +4.61631881946e+00
  +4.61634955570e+00
  +4.61635539188e+00
  +4.61637909396e+00
  +4.61639119644e+00
  +4.61641046221e+00
  +4.61642496454e+00
  +4.61644228065e+00
  +4.61645761679e+00
  +4.61647400064e+00
  +4.61648953902e+00
  +4.61650540991e+00
  +4.61652089856e+00
  +4.61653643202e+00
  +4.61653918706e+00
  +4.61653925008e+00
  +4.61653919995e+00
  +4.61653923162e+00
  +4.61653778254e+00
  +4.61652230570e+00
  +4.61650654158e+00
  +4.61649104092e+00
  +4.61647521936e+00
  +4.61645933443e+00
  +4.61644338025e+00
  +4.61642720149e+00
  +4.61641104317e+00
  +4.61639460127e+00
  +4.61637820386e+00
  +4.61636150472e+00
  +4.61634484756e+00
  +4.61632788593e+00
  +4.61631095323e+00
  +4.61629371860e+00
  +4.61627649531e+00
  +4.61625897368e+00
  +4.61624144360e+00
  +4.61622361780e+00
  +4.61620576220e+00
  +4.61618761145e+00
  +4.61616940784e+00
  +4.61615090671e+00
  +4.61613232415e+00
  +4.61611343990e+00
  +4.61609445102e+00
  +4.61607513917e+00
  +4.61605570121e+00
  +4.61603591055e+00
  +4.61601599324e+00
  +4.61599570645e+00
  +4.61597533715e+00
  +4.61595507825e+00
  +4.61593625900e+00
  +4.61593221344e+00
  +4.61684570882e+00
  +2.99515074595e-02
  +2.99300980427e-02
  +2.99086708855e-02
  +2.98872279480e-02
  +2.98657687011e-02
  +2.98442932470e-02
  +2.98228013646e-02
  +2.98012931780e-02
  +2.97797684949e-02
  +2.97582274224e-02
  +2.97366697893e-02
</dep>
<dep _net2.Vt time>
  -2.48513188617e+00
  -2.37974063223e+00
  -2.27367585223e+00
  -2.16761072924e+00
  -2.06154600066e+00
  -1.95548156153e+00
  -1.84941741646e+00
  -1.74335358468e+00
  -1.63729008936e+00
  -1.53122695641e+00
  -1.42516421492e+00
  -1.31910189742e+00
  -1.21304004061e+00
  -1.10697868596e+00
  -1.00091788065e+00
  -8.94857678512e-01
  -7.88798141445e-01
  -6.82739340914e-01
  -5.76681360120e-01
  -4.70624296471e-01
  -3.64568265070e-01
  -2.58513402978e-01
  -1.52459875142e-01
  -4.64078821022e-02
  +5.96423291797e-02
  +1.65690450443e-01
  +2.71736089853e-01
  +3.77778694511e-01
  +4.83814714916e-01
  +5.89670484058e-01
  +6.87791102475e-01
  +7.40243192684e-01
  +7.63050137318e-01
  +7.79408068507e-01
  +7.79595830137e-01
  +7.79781966894e-01
  +7.79966701159e-01
  +7.80149863256e-01
  +7.80331640767e-01
  +7.80511960217e-01
  +7.80690930697e-01
  +7.80868522315e-01
  +7.81044810028e-01
  +7.81219780840e-01
  +7.81393493749e-01
  +7.81565942149e-01
  +7.81737176662e-01
  +7.81907192996e-01
  +7.81931406868e-01
  +7.81931417433e-01
  +7.81931407086e-01
  +7.81931417031e-01
  +7.81907251207e-01
  +7.81737229443e-01
  +7.81565990038e-01
  +7.81393547526e-01
  +7.81219832070e-01
  +7.81044864070e-01
  +7.80868577861e-01
  +7.80690984209e-01
  +7.80512021941e-01
  +7.80331691571e-01
  +7.80149935424e-01
  +7.79966743418e-01
  +7.79782059793e-01
  +7.79595863331e-01
  +7.79408098092e-01
  +7.79218730646e-01
  +7.79027702056e-01
  +7.78834964652e-01
  +7.78640452512e-01
  +7.78444100045e-01
  +7.78245828244e-01
  +7.78045546922e-01
  +7.77843153841e-01
  +7.77638521685e-01
  +7.77431506411e-01
  +7.77221918697e-01
  +7.77009534475e-01
  +7.76794047616e-01
  +7.76575065308e-01
  +7.76352020841e-01
  +7.76124103510e-01
  +7.75890017229e-01
  +7.75647559344e-01
  +7.75392381409e-01
  +7.75113777557e-01
  +7.74768783069e-01
  +7.72440475330e-01
  -1.42367331818e+00
  -1.52975160894e+00
  -1.63583170679e+00
  -1.74191095600e+00
  -1.84798981236e+00
  -1.95406836155e+00
  -2.06014663301e+00
  -2.16622464733e+00
  -2.27230242172e+00
  -2.37837997224e+00
  -2.48445731300e+00
</dep>
<dep Input.Vt time>
  -5.00000000000e+00
  -4.78787878788e+00
  -4.57575757576e+00
  -4.36363636364e+00
  -4.15151515152e+00
  -3.93939393939e+00
  -3.72727272727e+00
  -3.51515151515e+00
  -3.30303030303e+00
  -3.09090909091e+00
  -2.87878787879e+00
  -2.66666666667e+00
  -2.45454545455e+00
  -2.24242424242e+00
  -2.03030303030e+00
  -1.81818181818e+00
  -1.60606060606e+00
  -1.39393939394e+00
  -1.18181818182e+00
  -9.69696969697e-01
  -7.57575757576e-01
  -5.45454545455e-01
  -3.33333333333e-01
  -1.21212121212e-01
  +9.09090909091e-02
  +3.03030303030e-01
  +5.15151515152e-01
  +7.27272727273e-01
  +9.39393939394e-01
  +1.15151515152e+00
  +1.36363636364e+00
  +1.57575757576e+00
  +1.78787878788e+00
  +2.00000000000e+00
  +2.21212121212e+00
  +2.42424242424e+00
  +2.63636363636e+00
  +2.84848484848e+00
  +3.06060606061e+00
  +3.27272727273e+00
  +3.48484848485e+00
  +3.69696969697e+00
  +3.90909090909e+00
  +4.12121212121e+00
  +4.33333333333e+00
  +4.54545454545e+00
  +4.75757575758e+00
  +4.96969696970e+00
  +5.00000000000e+00
  +5.00000000000e+00
  +5.00000000000e+00
  +5.00000000000e+00
  +4.96969696970e+00
  +4.75757575758e+00
  +4.54545454545e+00
  +4.33333333333e+00
  +4.12121212121e+00
  +3.90909090909e+00
  +3.69696969697e+00
  +3.48484848485e+00
  +3.27272727273e+00
  +3.06060606061e+00
  +2.84848484848e+00
  +2.63636363636e+00
  +2.42424242424e+00
  +2.21212121212e+00
  +2.00000000000e+00
  +1.78787878788e+00
  +1.57575757576e+00
  +1.36363636364e+00
  +1.15151515152e+00
  +9.39393939394e-01
  +7.27272727273e-01
  +5.15151515152e-01
  +3.03030303030e-01
  +9.09090909091e-02
  -1.21212121212e-01
  -3.33333333333e-01
  -5.45454545455e-01
  -7.57575757576e-01
  -9.69696969697e-01
  -1.18181818182e+00
  -1.39393939394e+00
  -1.60606060606e+00
  -1.81818181818e+00
  -2.03030303030e+00
  -2.24242424242e+00
  -2.45454545455e+00
  -2.66666666667e+00
  -2.87878787879e+00
  -3.09090909091e+00
  -3.30303030303e+00
  -3.51515151515e+00
  -3.72727272727e+00
  -3.93939393939e+00
  -4.15151515152e+00
  -4.36363636364e+00
  -4.57575757576e+00
  -4.78787878788e+00
  -5.00000000000e+00
</dep>
