<Qucs Dataset 0.0.19>
<indep time 101>
  +0.00000000000000000000e+00
  +5.00000000000000023961e-05
  +1.00000000000000004792e-04
  +1.50000000000000013965e-04
  +2.00000000000000009584e-04
  +2.50000000000000005204e-04
  +3.00000000000000027929e-04
  +3.49999999999999996444e-04
  +4.00000000000000019169e-04
  +4.50000000000000041894e-04
  +5.00000000000000010408e-04
  +5.50000000000000033133e-04
  +6.00000000000000055858e-04
  +6.50000000000000078583e-04
  +6.99999999999999992888e-04
  +7.50000000000000015613e-04
  +8.00000000000000038337e-04
  +8.50000000000000061062e-04
  +9.00000000000000083787e-04
  +9.49999999999999998092e-04
  +1.00000000000000002082e-03
  +1.05000000000000015196e-03
  +1.10000000000000006627e-03
  +1.14999999999999998057e-03
  +1.20000000000000011172e-03
  +1.25000000000000002602e-03
  +1.30000000000000015717e-03
  +1.35000000000000007147e-03
  +1.39999999999999998578e-03
  +1.45000000000000011692e-03
  +1.50000000000000003123e-03
  +1.55000000000000016237e-03
  +1.60000000000000007667e-03
  +1.64999999999999999098e-03
  +1.70000000000000012212e-03
  +1.75000000000000003643e-03
  +1.80000000000000016757e-03
  +1.85000000000000008188e-03
  +1.89999999999999999618e-03
  +1.95000000000000012733e-03
  +2.00000000000000004163e-03
  +2.05000000000000017278e-03
  +2.10000000000000030392e-03
  +2.15000000000000000139e-03
  +2.20000000000000013253e-03
  +2.25000000000000026368e-03
  +2.29999999999999996114e-03
  +2.35000000000000009229e-03
  +2.40000000000000022343e-03
  +2.44999999999999992090e-03
  +2.50000000000000005204e-03
  +2.55000000000000018319e-03
  +2.60000000000000031433e-03
  +2.65000000000000001180e-03
  +2.70000000000000014294e-03
  +2.75000000000000027409e-03
  +2.79999999999999997155e-03
  +2.85000000000000010270e-03
  +2.90000000000000023384e-03
  +2.94999999999999993130e-03
  +3.00000000000000006245e-03
  +3.05000000000000019360e-03
  +3.10000000000000032474e-03
  +3.15000000000000002220e-03
  +3.20000000000000015335e-03
  +3.25000000000000028449e-03
  +3.29999999999999998196e-03
  +3.35000000000000011310e-03
  +3.40000000000000024425e-03
  +3.45000000000000037539e-03
  +3.50000000000000007286e-03
  +3.55000000000000020400e-03
  +3.60000000000000033515e-03
  +3.65000000000000003261e-03
  +3.70000000000000016376e-03
  +3.75000000000000029490e-03
  +3.79999999999999999237e-03
  +3.85000000000000012351e-03
  +3.90000000000000025466e-03
  +3.95000000000000038580e-03
  +4.00000000000000008327e-03
  +4.04999999999999978073e-03
  +4.10000000000000034556e-03
  +4.15000000000000004302e-03
  +4.20000000000000060785e-03
  +4.25000000000000030531e-03
  +4.30000000000000000278e-03
  +4.35000000000000056760e-03
  +4.40000000000000026507e-03
  +4.44999999999999996253e-03
  +4.50000000000000052736e-03
  +4.55000000000000022482e-03
  +4.59999999999999992228e-03
  +4.65000000000000048711e-03
  +4.70000000000000018457e-03
  +4.74999999999999988204e-03
  +4.80000000000000044686e-03
  +4.85000000000000014433e-03
  +4.89999999999999984179e-03
  +4.95000000000000040662e-03
  +5.00000000000000010408e-03
</indep>
<dep VA.It time>
  +1.07118577419950018748e-03
  +1.07118577419951558315e-03
  +1.07118577419951233054e-03
  +1.07118577419951146318e-03
  +1.07118577419951059582e-03
  +1.07118577419952187152e-03
  +1.07118577419951146318e-03
  +1.07118577419951059582e-03
  +1.07118577419951406526e-03
  +1.07118577419951059582e-03
  +1.07118577419951840207e-03
  +1.07118577419951471578e-03
  +1.07118577419951493263e-03
  +1.07118577419951081266e-03
  +1.07118577419951363158e-03
  +1.07118577419952230520e-03
  +1.07118577419951081266e-03
  +1.07118577419950886109e-03
  +1.07118577419951471578e-03
  +1.07118577419951449894e-03
  +1.07118577419951059582e-03
  -6.92675198873767732424e-04
  -6.92675198894161683709e-04
  -6.92675198891912831563e-04
  -6.92675198892000001417e-04
  -6.92675198892000218258e-04
  -6.92675198891999350896e-04
  -6.92675198892009108716e-04
  -6.92675198891998917215e-04
  -6.92675198891998591955e-04
  -6.92675198891998700375e-04
  -6.92675198891998917215e-04
  -6.92675198891981027879e-04
  -6.92675198891998917215e-04
  -6.92675198891998917215e-04
  -6.92675198891985364688e-04
  -6.92675198891998808795e-04
  -6.92675198891980919459e-04
  -6.92675198891994797247e-04
  -6.92675198891998700375e-04
  -6.92675198891978534214e-04
  +3.18428276119227075813e-03
  +3.18428276124804471997e-03
  +3.18428276125796907298e-03
  +3.18428276126123122047e-03
  +3.18428276126290522863e-03
  +3.18428276126389055156e-03
  +1.07118577419870351572e-03
  +1.07118577419889802159e-03
  +1.07118577419902443956e-03
  +1.07118577419911334414e-03
  +1.07118577419918815409e-03
  +1.07118577419923520846e-03
  +1.07118577419927337238e-03
  +1.07118577419930698265e-03
  +1.07118577419934232764e-03
  +1.07118577419936466220e-03
  +1.07118577419938179260e-03
  +1.07118577419939458618e-03
  +1.07118577419940651241e-03
  +1.07118577419942147440e-03
  -1.05133129624646872932e-03
  -1.05133129624647306613e-03
  -1.05133129624645962202e-03
  -1.05133129624649713542e-03
  -1.05133129624649258177e-03
  -1.05133129624649496701e-03
  -1.05133129624649019652e-03
  -1.05133129624649908698e-03
  -1.05133129624649236493e-03
  -1.05133129624648867864e-03
  -1.05133129624649930382e-03
  -1.05133129624649865330e-03
  -6.92675198577822064279e-04
  -6.92675198902697065312e-04
  -6.92675198893435268253e-04
  -6.92675198891816771250e-04
  -6.92675198891975390028e-04
  -6.92675198892000001417e-04
  -6.92675198891985256268e-04
  -6.92675198891996748811e-04
  +3.18428276119228029911e-03
  +3.18428276124800438765e-03
  +3.18428276125799769591e-03
  +3.18428276126123468992e-03
  +3.18428276126293905574e-03
  +3.18428276126389965886e-03
  +3.18428276126448512803e-03
  +3.18428276126477872998e-03
  +3.18428276126509575070e-03
  +3.18428276126523756434e-03
  +3.18428276126541016933e-03
  +3.18428276126548216035e-03
  +3.18428276126557887118e-03
  +3.18428276126565996951e-03
  +3.18428276126569119453e-03
  +3.18428276126571504698e-03
  +3.18428276126579918107e-03
  +3.18428276126581869671e-03
  +1.07118577419940022404e-03
  +1.07118577419941692075e-03
</dep>
<dep VA1.It time>
  +1.07118577419949498331e-03
  +1.07118577419951189686e-03
  +1.07118577419951536631e-03
  +1.07118577419951753471e-03
  +1.07118577419951124634e-03
  +1.07118577419950560849e-03
  +1.07118577419951753471e-03
  +1.07118577419951406526e-03
  +1.07118577419951384842e-03
  +1.07118577419951168002e-03
  +1.07118577419951081266e-03
  +1.07118577419951731787e-03
  +1.07118577419951384842e-03
  +1.07118577419952143784e-03
  +1.07118577419951796839e-03
  +1.07118577419951319790e-03
  +1.07118577419952143784e-03
  +1.07118577419951688419e-03
  +1.07118577419951731787e-03
  +1.07118577419951428210e-03
  +1.07118577419951168002e-03
  -6.92675198873748867306e-04
  -6.92675198894151600629e-04
  -6.92675198891908277914e-04
  -6.92675198891994146726e-04
  -6.92675198892004988747e-04
  -6.92675198892002386662e-04
  -6.92675198892023094924e-04
  -6.92675198892015830769e-04
  -6.92675198892015397088e-04
  -6.92675198892015830769e-04
  -6.92675198892001844561e-04
  -6.92675198891995122508e-04
  -6.92675198892015830769e-04
  -6.92675198892002278242e-04
  -6.92675198892016264450e-04
  -6.92675198892003362444e-04
  -6.92675198891995014087e-04
  -6.92675198892008675035e-04
  -6.92675198892015830769e-04
  -6.92675198892009000295e-04
  -1.05133129624657736638e-03
  -1.05133129624650754376e-03
  -1.05133129624647328297e-03
  -1.05133129624649084705e-03
  -1.05133129624646699460e-03
  -1.05133129624649171441e-03
  +1.07118577419870199784e-03
  +1.07118577419889693739e-03
  +1.07118577419902552376e-03
  +1.07118577419912115040e-03
  +1.07118577419918772041e-03
  +1.07118577419923976211e-03
  +1.07118577419927662499e-03
  +1.07118577419931565627e-03
  +1.07118577419933755715e-03
  +1.07118577419935794015e-03
  +1.07118577419937832315e-03
  +1.07118577419939306830e-03
  +1.07118577419940521137e-03
  +1.07118577419941583655e-03
  +3.18428276126583951339e-03
  +3.18428276126585469222e-03
  +3.18428276126587507522e-03
  +3.18428276126591107073e-03
  +3.18428276126592928533e-03
  +3.18428276126595227041e-03
  +3.18428276126595964299e-03
  +3.18428276126594880097e-03
  +3.18428276126598045967e-03
  +3.18428276126594793360e-03
  +3.18428276126599043433e-03
  +3.18428276126599260273e-03
  -6.92675198577833448402e-04
  -6.92675198902695439009e-04
  -6.92675198893431907227e-04
  -6.92675198891820240697e-04
  -6.92675198891990135178e-04
  -6.92675198892002061402e-04
  -6.92675198891990026757e-04
  -6.92675198892002495082e-04
  -1.05133129624657584850e-03
  -1.05133129624647696926e-03
  -1.05133129624650103855e-03
  -1.05133129624649106389e-03
  -1.05133129624646547672e-03
  -1.05133129624649171441e-03
  -1.05133129624649258177e-03
  -1.05133129624646244095e-03
  -1.05133129624648976284e-03
  -1.05133129624646309147e-03
  -1.05133129624649670174e-03
  -1.05133129624648932916e-03
  -1.05133129624649106389e-03
  -1.05133129624649605122e-03
  -1.05133129624646829564e-03
  -1.05133129624647349981e-03
  -1.05133129624649561754e-03
  -1.05133129624649583438e-03
  +1.07118577419940347664e-03
  +1.07118577419941041554e-03
</dep>
<dep V1.It time>
  -2.14237154841747517997e-03
  -2.14237154841747734837e-03
  -2.14237154841747908310e-03
  -2.14237154841747387893e-03
  -2.14237154841747431261e-03
  -2.14237154841747431261e-03
  -2.14237154841747431261e-03
  -2.14237154841747431261e-03
  -2.14237154841747431261e-03
  -2.14237154841747474629e-03
  -2.14237154841747474629e-03
  -2.14237154841747474629e-03
  -2.14237154841747431261e-03
  -2.14237154841747431261e-03
  -2.14237154841747431261e-03
  -2.14237154841747431261e-03
  -2.14237154841747344525e-03
  -2.14237154841747517997e-03
  -2.14237154841747474629e-03
  -2.14237154841747344525e-03
  -2.14237154841747431261e-03
  -4.04090023011104051281e-03
  -4.04090022184168742858e-03
  -4.04090022275065824386e-03
  -4.04090022271749293309e-03
  -4.04090022271316306329e-03
  -4.04090022271365052059e-03
  -4.04090022271377802277e-03
  -4.04090022271377281859e-03
  -4.04090022271376934915e-03
  -4.04090022271376934915e-03
  -4.04090022271376934915e-03
  -4.04090022271377021651e-03
  -4.04090022271376934915e-03
  -4.04090022271376934915e-03
  -4.04090022271377021651e-03
  -4.04090022271376934915e-03
  -4.04090022271376934915e-03
  -4.04090022271377021651e-03
  -4.04090022271376934915e-03
  -4.04090022271377021651e-03
  -2.13295742680756020976e-03
  -2.13295448159769298821e-03
  -2.13295349426769528106e-03
  -2.13295299579827589420e-03
  -2.13295269532914281291e-03
  -2.13295249345632140225e-03
  -2.14237243231115521633e-03
  -2.14237232336231091245e-03
  -2.14237223828602678724e-03
  -2.14237217006131314828e-03
  -2.14237211413420862091e-03
  -2.14237206744172627507e-03
  -2.14237202786044878336e-03
  -2.14237199389211672995e-03
  -2.14237196442243179109e-03
  -2.14237193860571497120e-03
  -2.14237191580696640508e-03
  -2.14237189552691836489e-03
  -2.14237187736645651528e-03
  -2.14237186101190598894e-03
  -2.13295176284008895784e-03
  -2.13295174937349436492e-03
  -2.13295173707186720008e-03
  -2.13295172579002672089e-03
  -2.13295171540697596491e-03
  -2.13295170581848277103e-03
  -2.13295169693717822507e-03
  -2.13295168868791931022e-03
  -2.13295168100524406771e-03
  -2.13295167383245783121e-03
  -2.13295166712065874595e-03
  -2.13295166082702039242e-03
  -4.04090035150229693467e-03
  -4.04090021838376077523e-03
  -4.04090022212997938833e-03
  -4.04090022278770846786e-03
  -4.04090022271991027025e-03
  -4.04090022271320903346e-03
  -4.04090022271371036855e-03
  -4.04090022271377802277e-03
  -2.13295742700244901971e-03
  -2.13295448162780518567e-03
  -2.13295349426493360129e-03
  -2.13295299579577398927e-03
  -2.13295269468434002536e-03
  -2.13295249264749660692e-03
  -2.13295234809270572648e-03
  -2.13295223922947696504e-03
  -2.13295215424174223334e-03
  -2.13295208614048712945e-03
  -2.13295203028833436562e-03
  -2.13295198364071804040e-03
  -2.13295194412527287092e-03
  -2.13295191020449999633e-03
  -2.13295188076364139115e-03
  -2.13295185498262561408e-03
  -2.13295183221180869801e-03
  -2.13295181195044362965e-03
  -2.14237187718340025416e-03
  -2.14237186084729677726e-03
</dep>
<dep _net0.Vt time>
  +5.00000000000000000000e+00
  +5.00000000000000000000e+00
  +5.00000000000000000000e+00
  +5.00000000000000000000e+00
  +5.00000000000000000000e+00
  +5.00000000000000000000e+00
  +5.00000000000000000000e+00
  +5.00000000000000000000e+00
  +5.00000000000000000000e+00
  +5.00000000000000000000e+00
  +5.00000000000000000000e+00
  +5.00000000000000000000e+00
  +5.00000000000000000000e+00
  +5.00000000000000000000e+00
  +5.00000000000000000000e+00
  +5.00000000000000000000e+00
  +5.00000000000000000000e+00
  +5.00000000000000000000e+00
  +5.00000000000000000000e+00
  +5.00000000000000000000e+00
  +5.00000000000000000000e+00
  +5.00000000000000000000e+00
  +5.00000000000000000000e+00
  +5.00000000000000000000e+00
  +5.00000000000000000000e+00
  +5.00000000000000000000e+00
  +5.00000000000000000000e+00
  +5.00000000000000000000e+00
  +5.00000000000000000000e+00
  +5.00000000000000000000e+00
  +5.00000000000000000000e+00
  +5.00000000000000000000e+00
  +5.00000000000000000000e+00
  +5.00000000000000000000e+00
  +5.00000000000000000000e+00
  +5.00000000000000000000e+00
  +5.00000000000000000000e+00
  +5.00000000000000000000e+00
  +5.00000000000000000000e+00
  +5.00000000000000000000e+00
  +5.00000000000000000000e+00
  +5.00000000000000000000e+00
  +5.00000000000000000000e+00
  +5.00000000000000000000e+00
  +5.00000000000000000000e+00
  +5.00000000000000000000e+00
  +5.00000000000000000000e+00
  +5.00000000000000000000e+00
  +5.00000000000000000000e+00
  +5.00000000000000000000e+00
  +5.00000000000000000000e+00
  +5.00000000000000000000e+00
  +5.00000000000000000000e+00
  +5.00000000000000000000e+00
  +5.00000000000000000000e+00
  +5.00000000000000000000e+00
  +5.00000000000000000000e+00
  +5.00000000000000000000e+00
  +5.00000000000000000000e+00
  +5.00000000000000000000e+00
  +5.00000000000000000000e+00
  +5.00000000000000000000e+00
  +5.00000000000000000000e+00
  +5.00000000000000000000e+00
  +5.00000000000000000000e+00
  +5.00000000000000000000e+00
  +5.00000000000000000000e+00
  +5.00000000000000000000e+00
  +5.00000000000000000000e+00
  +5.00000000000000000000e+00
  +5.00000000000000000000e+00
  +5.00000000000000000000e+00
  +5.00000000000000000000e+00
  +5.00000000000000000000e+00
  +5.00000000000000000000e+00
  +5.00000000000000000000e+00
  +5.00000000000000000000e+00
  +5.00000000000000000000e+00
  +5.00000000000000000000e+00
  +5.00000000000000000000e+00
  +5.00000000000000000000e+00
  +5.00000000000000000000e+00
  +5.00000000000000000000e+00
  +5.00000000000000000000e+00
  +5.00000000000000000000e+00
  +5.00000000000000000000e+00
  +5.00000000000000000000e+00
  +5.00000000000000000000e+00
  +5.00000000000000000000e+00
  +5.00000000000000000000e+00
  +5.00000000000000000000e+00
  +5.00000000000000000000e+00
  +5.00000000000000000000e+00
  +5.00000000000000000000e+00
  +5.00000000000000000000e+00
  +5.00000000000000000000e+00
  +5.00000000000000000000e+00
  +5.00000000000000000000e+00
  +5.00000000000000000000e+00
  +5.00000000000000000000e+00
  +5.00000000000000000000e+00
</dep>
<dep B.Vt time>
  +0.00000000000000000000e+00
  +0.00000000000000000000e+00
  +0.00000000000000000000e+00
  +0.00000000000000000000e+00
  +0.00000000000000000000e+00
  +0.00000000000000000000e+00
  +0.00000000000000000000e+00
  +0.00000000000000000000e+00
  +0.00000000000000000000e+00
  +0.00000000000000000000e+00
  +0.00000000000000000000e+00
  +0.00000000000000000000e+00
  +0.00000000000000000000e+00
  +0.00000000000000000000e+00
  +0.00000000000000000000e+00
  +0.00000000000000000000e+00
  +0.00000000000000000000e+00
  +0.00000000000000000000e+00
  +0.00000000000000000000e+00
  +0.00000000000000000000e+00
  +0.00000000000000000000e+00
  +5.00000000000000000000e+00
  +5.00000000000000000000e+00
  +5.00000000000000000000e+00
  +5.00000000000000000000e+00
  +5.00000000000000000000e+00
  +5.00000000000000000000e+00
  +5.00000000000000000000e+00
  +5.00000000000000000000e+00
  +5.00000000000000000000e+00
  +5.00000000000000000000e+00
  +5.00000000000000000000e+00
  +5.00000000000000000000e+00
  +5.00000000000000000000e+00
  +5.00000000000000000000e+00
  +5.00000000000000000000e+00
  +5.00000000000000000000e+00
  +5.00000000000000000000e+00
  +5.00000000000000000000e+00
  +5.00000000000000000000e+00
  +5.00000000000000000000e+00
  +5.00000000000000000000e+00
  +5.00000000000000000000e+00
  +5.00000000000000000000e+00
  +5.00000000000000000000e+00
  +5.00000000000000000000e+00
  +5.00000000000000000000e+00
  +0.00000000000000000000e+00
  +0.00000000000000000000e+00
  +0.00000000000000000000e+00
  +0.00000000000000000000e+00
  +0.00000000000000000000e+00
  +0.00000000000000000000e+00
  +0.00000000000000000000e+00
  +0.00000000000000000000e+00
  +0.00000000000000000000e+00
  +0.00000000000000000000e+00
  +0.00000000000000000000e+00
  +0.00000000000000000000e+00
  +0.00000000000000000000e+00
  +0.00000000000000000000e+00
  +0.00000000000000000000e+00
  +0.00000000000000000000e+00
  +0.00000000000000000000e+00
  +0.00000000000000000000e+00
  +0.00000000000000000000e+00
  +0.00000000000000000000e+00
  +0.00000000000000000000e+00
  +0.00000000000000000000e+00
  +0.00000000000000000000e+00
  +0.00000000000000000000e+00
  +0.00000000000000000000e+00
  +0.00000000000000000000e+00
  +5.00000000000000000000e+00
  +5.00000000000000000000e+00
  +5.00000000000000000000e+00
  +5.00000000000000000000e+00
  +5.00000000000000000000e+00
  +5.00000000000000000000e+00
  +5.00000000000000000000e+00
  +5.00000000000000000000e+00
  +5.00000000000000000000e+00
  +5.00000000000000000000e+00
  +5.00000000000000000000e+00
  +5.00000000000000000000e+00
  +5.00000000000000000000e+00
  +5.00000000000000000000e+00
  +5.00000000000000000000e+00
  +5.00000000000000000000e+00
  +5.00000000000000000000e+00
  +5.00000000000000000000e+00
  +5.00000000000000000000e+00
  +5.00000000000000000000e+00
  +5.00000000000000000000e+00
  +5.00000000000000000000e+00
  +5.00000000000000000000e+00
  +5.00000000000000000000e+00
  +5.00000000000000000000e+00
  +5.00000000000000000000e+00
  +0.00000000000000000000e+00
  +0.00000000000000000000e+00
</dep>
<dep A.Vt time>
  +0.00000000000000000000e+00
  +0.00000000000000000000e+00
  +0.00000000000000000000e+00
  +0.00000000000000000000e+00
  +0.00000000000000000000e+00
  +0.00000000000000000000e+00
  +0.00000000000000000000e+00
  +0.00000000000000000000e+00
  +0.00000000000000000000e+00
  +0.00000000000000000000e+00
  +0.00000000000000000000e+00
  +0.00000000000000000000e+00
  +0.00000000000000000000e+00
  +0.00000000000000000000e+00
  +0.00000000000000000000e+00
  +0.00000000000000000000e+00
  +0.00000000000000000000e+00
  +0.00000000000000000000e+00
  +0.00000000000000000000e+00
  +0.00000000000000000000e+00
  +0.00000000000000000000e+00
  +5.00000000000000000000e+00
  +5.00000000000000000000e+00
  +5.00000000000000000000e+00
  +5.00000000000000000000e+00
  +5.00000000000000000000e+00
  +5.00000000000000000000e+00
  +5.00000000000000000000e+00
  +5.00000000000000000000e+00
  +5.00000000000000000000e+00
  +5.00000000000000000000e+00
  +5.00000000000000000000e+00
  +5.00000000000000000000e+00
  +5.00000000000000000000e+00
  +5.00000000000000000000e+00
  +5.00000000000000000000e+00
  +5.00000000000000000000e+00
  +5.00000000000000000000e+00
  +5.00000000000000000000e+00
  +5.00000000000000000000e+00
  +4.99999999997030641907e+00
  +0.00000000000000000000e+00
  +0.00000000000000000000e+00
  +0.00000000000000000000e+00
  +0.00000000000000000000e+00
  +0.00000000000000000000e+00
  +0.00000000000000000000e+00
  +0.00000000000000000000e+00
  +0.00000000000000000000e+00
  +0.00000000000000000000e+00
  +0.00000000000000000000e+00
  +0.00000000000000000000e+00
  +0.00000000000000000000e+00
  +0.00000000000000000000e+00
