<Qucs Dataset 0.0.18>
<indep acfrequency 2>
  +1.00000000000e+09
  +2.00000000000e+09
</indep>
<indep R_load 100>
  +2.00000000000e+00
  +4.00000000000e+00
  +6.00000000000e+00
  +8.00000000000e+00
  +1.00000000000e+01
  +1.20000000000e+01
  +1.40000000000e+01
  +1.60000000000e+01
  +1.80000000000e+01
  +2.00000000000e+01
  +2.20000000000e+01
  +2.40000000000e+01
  +2.60000000000e+01
  +2.80000000000e+01
  +3.00000000000e+01
  +3.20000000000e+01
  +3.40000000000e+01
  +3.60000000000e+01
  +3.80000000000e+01
  +4.00000000000e+01
  +4.20000000000e+01
  +4.40000000000e+01
  +4.60000000000e+01
  +4.80000000000e+01
  +5.00000000000e+01
  +5.20000000000e+01
  +5.40000000000e+01
  +5.60000000000e+01
  +5.80000000000e+01
  +6.00000000000e+01
  +6.20000000000e+01
  +6.40000000000e+01
  +6.60000000000e+01
  +6.80000000000e+01
  +7.00000000000e+01
  +7.20000000000e+01
  +7.40000000000e+01
  +7.60000000000e+01
  +7.80000000000e+01
  +8.00000000000e+01
  +8.20000000000e+01
  +8.40000000000e+01
  +8.60000000000e+01
  +8.80000000000e+01
  +9.00000000000e+01
  +9.20000000000e+01
  +9.40000000000e+01
  +9.60000000000e+01
  +9.80000000000e+01
  +1.00000000000e+02
  +1.02000000000e+02
  +1.04000000000e+02
  +1.06000000000e+02
  +1.08000000000e+02
  +1.10000000000e+02
  +1.12000000000e+02
  +1.14000000000e+02
  +1.16000000000e+02
  +1.18000000000e+02
  +1.20000000000e+02
  +1.22000000000e+02
  +1.24000000000e+02
  +1.26000000000e+02
  +1.28000000000e+02
  +1.30000000000e+02
  +1.32000000000e+02
  +1.34000000000e+02
  +1.36000000000e+02
  +1.38000000000e+02
  +1.40000000000e+02
  +1.42000000000e+02
  +1.44000000000e+02
  +1.46000000000e+02
  +1.48000000000e+02
  +1.50000000000e+02
  +1.52000000000e+02
  +1.54000000000e+02
  +1.56000000000e+02
  +1.58000000000e+02
  +1.60000000000e+02
  +1.62000000000e+02
  +1.64000000000e+02
  +1.66000000000e+02
  +1.68000000000e+02
  +1.70000000000e+02
  +1.72000000000e+02
  +1.74000000000e+02
  +1.76000000000e+02
  +1.78000000000e+02
  +1.80000000000e+02
  +1.82000000000e+02
  +1.84000000000e+02
  +1.86000000000e+02
  +1.88000000000e+02
  +1.90000000000e+02
  +1.92000000000e+02
  +1.94000000000e+02
  +1.96000000000e+02
  +1.98000000000e+02
  +2.00000000000e+02
</indep>
<dep r_measure acfrequency R_load>
  +9.23138461538e-01
  +9.23138461538e-01
  +8.51970370370e-01
  +8.51970370370e-01
  +7.85885714286e-01
  +7.85885714286e-01
  +7.24358620690e-01
  +7.24358620690e-01
  +6.66933333333e-01
  +6.66933333333e-01
  +6.13212903226e-01
  +6.13212903226e-01
  +5.62850000000e-01
  +5.62850000000e-01
  +5.15539393939e-01
  +5.15539393939e-01
  +4.71011764706e-01
  +4.71011764706e-01
  +4.29028571429e-01
  +4.29028571429e-01
  +3.89377777778e-01
  +3.89377777778e-01
  +3.51870270270e-01
  +3.51870270270e-01
  +3.16336842105e-01
  +3.16336842105e-01
  +2.82625641026e-01
  +2.82625641026e-01
  +2.50600000000e-01
  +2.50600000000e-01
  +2.20136585366e-01
  +2.20136585366e-01
  +1.91123809524e-01
  +1.91123809524e-01
  +1.63460465116e-01
  +1.63460465116e-01
  +1.37054545455e-01
  +1.37054545455e-01
  +1.11822222222e-01
  +1.11822222222e-01
  +8.76869565217e-02
  +8.76869565217e-02
  +6.45787234043e-02
  +6.45787234043e-02
  +4.24333333333e-02
  +4.24333333333e-02
  +2.11918367347e-02
  +2.11918367347e-02
  +8.00000000000e-04
  +8.00000000000e-04
  -1.87921568627e-02
  -1.87921568627e-02
  -3.76307692308e-02
  -3.76307692308e-02
  -5.57584905660e-02
  -5.57584905660e-02
  -7.32148148148e-02
  -7.32148148148e-02
  -9.00363636364e-02
  -9.00363636364e-02
  -1.06257142857e-01
  -1.06257142857e-01
  -1.21908771930e-01
  -1.21908771930e-01
  -1.37020689655e-01
  -1.37020689655e-01
  -1.51620338983e-01
  -1.51620338983e-01
  -1.65733333333e-01
  -1.65733333333e-01
  -1.79383606557e-01
  -1.79383606557e-01
  -1.92593548387e-01
  -1.92593548387e-01
  -2.05384126984e-01
  -2.05384126984e-01
  -2.17775000000e-01
  -2.17775000000e-01
  -2.29784615385e-01
  -2.29784615385e-01
  -2.41430303030e-01
  -2.41430303030e-01
  -2.52728358209e-01
  -2.52728358209e-01
  -2.63694117647e-01
  -2.63694117647e-01
  -2.74342028986e-01
  -2.74342028986e-01
  -2.84685714286e-01
  -2.84685714286e-01
  -2.94738028169e-01
  -2.94738028169e-01
  -3.04511111111e-01
  -3.04511111111e-01
  -3.14016438356e-01
  -3.14016438356e-01
  -3.23264864865e-01
  -3.23264864865e-01
  -3.32266666667e-01
  -3.32266666667e-01
  -3.41031578947e-01
  -3.41031578947e-01
  -3.49568831169e-01
  -3.49568831169e-01
  -3.57887179487e-01
  -3.57887179487e-01
  -3.65994936709e-01
  -3.65994936709e-01
  -3.73900000000e-01
  -3.73900000000e-01
  -3.81609876543e-01
  -3.81609876543e-01
  -3.89131707317e-01
  -3.89131707317e-01
  -3.96472289157e-01
  -3.96472289157e-01
  -4.03638095238e-01
  -4.03638095238e-01
  -4.10635294118e-01
  -4.10635294118e-01
  -4.17469767442e-01
  -4.17469767442e-01
  -4.24147126437e-01
  -4.24147126437e-01
  -4.30672727273e-01
  -4.30672727273e-01
  -4.37051685393e-01
  -4.37051685393e-01
  -4.43288888889e-01
  -4.43288888889e-01
  -4.49389010989e-01
  -4.49389010989e-01
  -4.55356521739e-01
  -4.55356521739e-01
  -4.61195698925e-01
  -4.61195698925e-01
  -4.66910638298e-01
  -4.66910638298e-01
  -4.72505263158e-01
  -4.72505263158e-01
  -4.77983333333e-01
  -4.77983333333e-01
  -4.83348453608e-01
  -4.83348453608e-01
  -4.88604081633e-01
  -4.88604081633e-01
  -4.93753535354e-01
  -4.93753535354e-01
  -4.98800000000e-01
  -4.98800000000e-01
  -5.03746534653e-01
  -5.03746534653e-01
  -5.08596078431e-01
  -5.08596078431e-01
  -5.13351456311e-01
  -5.13351456311e-01
  -5.18015384615e-01
  -5.18015384615e-01
  -5.22590476190e-01
  -5.22590476190e-01
  -5.27079245283e-01
  -5.27079245283e-01
  -5.31484112150e-01
  -5.31484112150e-01
  -5.35807407407e-01
  -5.35807407407e-01
  -5.40051376147e-01
  -5.40051376147e-01
  -5.44218181818e-01
  -5.44218181818e-01
  -5.48309909910e-01
  -5.48309909910e-01
  -5.52328571429e-01
  -5.52328571429e-01
  -5.56276106195e-01
  -5.56276106195e-01
  -5.60154385965e-01
  -5.60154385965e-01
  -5.63965217391e-01
  -5.63965217391e-01
  -5.67710344828e-01
  -5.67710344828e-01
  -5.71391452991e-01
  -5.71391452991e-01
  -5.75010169492e-01
  -5.75010169492e-01
  -5.78568067227e-01
  -5.78568067227e-01
  -5.82066666667e-01
  -5.82066666667e-01
  -5.85507438017e-01
  -5.85507438017e-01
  -5.88891803279e-01
  -5.88891803279e-01
  -5.92221138211e-01
  -5.92221138211e-01
  -5.95496774194e-01
  -5.95496774194e-01
  -5.98720000000e-01
  -5.98720000000e-01
</dep>
<dep r_calc R_load>
  -9.23076923077e-01
  -8.51851851852e-01
  -7.85714285714e-01
  -7.24137931034e-01
  -6.66666666667e-01
  -6.12903225806e-01
  -5.62500000000e-01
  -5.15151515152e-01
  -4.70588235294e-01
  -4.28571428571e-01
  -3.88888888889e-01
  -3.51351351351e-01
  -3.15789473684e-01
  -2.82051282051e-01
  -2.50000000000e-01
  -2.19512195122e-01
  -1.90476190476e-01
  -1.62790697674e-01
  -1.36363636364e-01
  -1.11111111111e-01
  -8.69565217391e-02
  -6.38297872340e-02
  -4.16666666667e-02
  -2.04081632653e-02
  +0.00000000000e+00
  +1.96078431373e-02
  +3.84615384615e-02
  +5.66037735849e-02
  +7.40740740741e-02
  +9.09090909091e-02
  +1.07142857143e-01
  +1.22807017544e-01
  +1.37931034483e-01
  +1.52542372881e-01
  +1.66666666667e-01
  +1.80327868852e-01
  +1.93548387097e-01
  +2.06349206349e-01
  +2.18750000000e-01
  +2.30769230769e-01
  +2.42424242424e-01
  +2.53731343284e-01
  +2.64705882353e-01
  +2.75362318841e-01
  +2.85714285714e-01
  +2.95774647887e-01
  +3.05555555556e-01
  +3.15068493151e-01
  +3.24324324324e-01
  +3.33333333333e-01
  +3.42105263158e-01
  +3.50649350649e-01
  +3.58974358974e-01
  +3.67088607595e-01
  +3.75000000000e-01
  +3.82716049383e-01
  +3.90243902439e-01
  +3.97590361446e-01
  +4.04761904762e-01
  +4.11764705882e-01
  +4.18604651163e-01
  +4.25287356322e-01
  +4.31818181818e-01
  +4.38202247191e-01
  +4.44444444444e-01
  +4.50549450549e-01
  +4.56521739130e-01
  +4.62365591398e-01
  +4.68085106383e-01
  +4.73684210526e-01
  +4.79166666667e-01
  +4.84536082474e-01
  +4.89795918367e-01
  +4.94949494949e-01
  +5.00000000000e-01
  +5.04950495050e-01
  +5.09803921569e-01
  +5.14563106796e-01
  +5.19230769231e-01
  +5.23809523810e-01
  +5.28301886792e-01
  +5.32710280374e-01
  +5.37037037037e-01
  +5.41284403670e-01
  +5.45454545455e-01
  +5.49549549550e-01
  +5.53571428571e-01
  +5.57522123894e-01
  +5.61403508772e-01
  +5.65217391304e-01
  +5.68965517241e-01
  +5.72649572650e-01
  +5.76271186441e-01
  +5.79831932773e-01
  +5.83333333333e-01
  +5.86776859504e-01
  +5.90163934426e-01
  +5.93495934959e-01
  +5.96774193548e-01
  +6.00000000000e-01
</dep>
<dep V1.i acfrequency R_load>
  -3.84343850235e-02
  -3.84343850235e-02
  -3.70141794201e-02
  -3.70141794201e-02
  -3.56952723620e-02
  -3.56952723620e-02
  -3.44671991235e-02
  -3.44671991235e-02
  -3.33208884177e-02
  -3.33208884177e-02
  -3.22484379379e-02
  -3.22484379379e-02
  -3.12429319326e-02
  -3.12429319326e-02
  -3.02982919083e-02
  -3.02982919083e-02
  -2.94091536482e-02
  -2.94091536482e-02
  -2.85707652889e-02
  -2.85707652889e-02
  -2.77789023657e-02
  -2.77789023657e-02
  -2.70297966199e-02
  -2.70297966199e-02
  -2.63200760343e-02
  -2.63200760343e-02
  -2.56467140853e-02
  -2.56467140853e-02
  -2.50069865993e-02
  -2.50069865993e-02
  -2.43984349168e-02
  -2.43984349168e-02
  -2.38188343134e-02
  -2.38188343134e-02
  -2.32661668236e-02
  -2.32661668236e-02
  -2.27385977665e-02
  -2.27385977665e-02
  -2.22344553995e-02
  -2.22344553995e-02
  -2.17522132221e-02
  -2.17522132221e-02
  -2.12904745388e-02
  -2.12904745388e-02
  -2.08479589480e-02
  -2.08479589480e-02
  -2.04234904857e-02
  -2.04234904857e-02
  -2.00159871898e-02
  -2.00159871898e-02
  -1.96244518914e-02
  -1.96244518914e-02
  -1.92479640679e-02
  -1.92479640679e-02
  -1.88856726180e-02
  -1.88856726180e-02
  -1.85367894378e-02
  -1.85367894378e-02
  -1.82005836988e-02
  -1.82005836988e-02
  -1.78763767370e-02
  -1.78763767370e-02
  -1.75635374808e-02
  -1.75635374808e-02
  -1.72614783506e-02
  -1.72614783506e-02
  -1.69696515758e-02
  -1.69696515758e-02
  -1.66875458794e-02
  -1.66875458794e-02
  -1.64146834890e-02
  -1.64146834890e-02
  -1.61506174360e-02
  -1.61506174360e-02
  -1.58949291132e-02
  -1.58949291132e-02
  -1.56472260597e-02
  -1.56472260597e-02
  -1.54071399513e-02
  -1.54071399513e-02
  -1.51743247729e-02
  -1.51743247729e-02
  -1.49484551546e-02
  -1.49484551546e-02
  -1.47292248550e-02
  -1.47292248550e-02
  -1.45163453752e-02
  -1.45163453752e-02
  -1.43095446926e-02
  -1.43095446926e-02
  -1.41085661014e-02
  -1.41085661014e-02
  -1.39131671490e-02
  -1.39131671490e-02
  -1.37231186608e-02
  -1.37231186608e-02
  -1.35382038432e-02
  -1.35382038432e-02
  -1.33582174590e-02
  -1.33582174590e-02
  -1.31829650670e-02
  -1.31829650670e-02
  -1.30122623217e-02
  -1.30122623217e-02
  -1.28459343264e-02
  -1.28459343264e-02
  -1.26838150355e-02
  -1.26838150355e-02
  -1.25257467014e-02
  -1.25257467014e-02
  -1.23715793626e-02
  -1.23715793626e-02
  -1.22211703696e-02
  -1.22211703696e-02
  -1.20743839438e-02
  -1.20743839438e-02
  -1.19310907694e-02
  -1.19310907694e-02
  -1.17911676133e-02
  -1.17911676133e-02
  -1.16544969713e-02
  -1.16544969713e-02
  -1.15209667392e-02
  -1.15209667392e-02
  -1.13904699063e-02
  -1.13904699063e-02
  -1.12629042692e-02
  -1.12629042692e-02
  -1.11381721646e-02
  -1.11381721646e-02
  -1.10161802205e-02
  -1.10161802205e-02
  -1.08968391226e-02
  -1.08968391226e-02
  -1.07800633966e-02
  -1.07800633966e-02
  -1.06657712037e-02
  -1.06657712037e-02
  -1.05538841495e-02
  -1.05538841495e-02
  -1.04443271048e-02
  -1.04443271048e-02
  -1.03370280370e-02
  -1.03370280370e-02
  -1.02319178528e-02
  -1.02319178528e-02
  -1.01289302490e-02
  -1.01289302490e-02
  -1.00280015737e-02
  -1.00280015737e-02
  -9.92907069489e-03
  -9.92907069489e-03
  -9.83207887678e-03
  -9.83207887678e-03
  -9.73696966383e-03
  -9.73696966383e-03
  -9.64368877101e-03
  -9.64368877101e-03
  -9.55218398049e-03
  -9.55218398049e-03
  -9.46240504419e-03
  -9.46240504419e-03
  -9.37430359175e-03
  -9.37430359175e-03
  -9.28783304365e-03
  -9.28783304365e-03
  -9.20294852908e-03
  -9.20294852908e-03
  -9.11960680831e-03
  -9.11960680831e-03
  -9.03776619922e-03
  -9.03776619922e-03
  -8.95738650782e-03
  -8.95738650782e-03
  -8.87842896242e-03
  -8.87842896242e-03
  -8.80085615124e-03
  -8.80085615124e-03
  -8.72463196334e-03
  -8.72463196334e-03
  -8.64972153256e-03
  -8.64972153256e-03
  -8.57609118433e-03
  -8.57609118433e-03
  -8.50370838521e-03
  -8.50370838521e-03
  -8.43254169494e-03
  -8.43254169494e-03
  -8.36256072094e-03
  -8.36256072094e-03
  -8.29373607500e-03
  -8.29373607500e-03
  -8.22603933214e-03
  -8.22603933214e-03
  -8.15944299146e-03
  -8.15944299146e-03
  -8.09392043894e-03
  -8.09392043894e-03
  -8.02944591189e-03
  -8.02944591189e-03
</dep>
<dep reflected.v acfrequency R_load>
  +3.68982886780e-02
  +3.68982886780e-02
  +3.40556033228e-02
  +3.40556033228e-02
  +3.14156772659e-02
  +3.14156772659e-02
  +2.89575642985e-02
  +2.89575642985e-02
  +2.66631073213e-02
  +2.66631073213e-02
  +2.45164890671e-02
  +2.45164890671e-02
  +2.25038669588e-02
  +2.25038669588e-02
  +2.06130742761e-02
  +2.06130742761e-02
  +1.88333739957e-02
  +1.88333739957e-02
  +1.71552547816e-02
  +1.71552547816e-02
  +1.55702609402e-02
  +1.55702609402e-02
  +1.40708499198e-02
  +1.40708499198e-02
  +1.26502722865e-02
  +1.26502722865e-02
  +1.13024701467e-02
  +1.13024701467e-02
  +1.00219907913e-02
  +1.00219907913e-02
  +8.80391296396e-03
  +8.80391296396e-03
  +7.64378365371e-03
  +7.64378365371e-03
  +6.53756369809e-03
  +6.53756369809e-03
  +5.48158079773e-03
  +5.48158079773e-03
  +4.47248878998e-03
  +4.47248878998e-03
  +3.50723223005e-03
  +3.50723223005e-03
  +2.58301548990e-03
  +2.58301548990e-03
  +1.69727571648e-03
  +1.69727571648e-03
  +8.47659098625e-04
  +8.47659098625e-04
  +3.19999795200e-05
  +3.19999795200e-05
  -7.51697575325e-04
  -7.51697575325e-04
  -1.50527608499e-03
  -1.50527608499e-03
  -2.23043911538e-03
  -2.23043911538e-03
  -2.92876413573e-03
  -2.92876413573e-03
  -3.60171397364e-03
  -3.60171397364e-03
  -4.25064704357e-03
  -4.25064704357e-03
  -4.87682649954e-03
  -4.87682649954e-03
  -5.48142844149e-03
  -5.48142844149e-03
  -6.06554928783e-03
  -6.06554928783e-03
  -6.63021241110e-03
  -6.63021241110e-03
  -7.17637412139e-03
  -7.17637412139e-03
  -7.70492907119e-03
  -7.70492907119e-03
  -8.21671514566e-03
  -8.21671514566e-03
  -8.71251789487e-03
  -8.71251789487e-03
  -9.19307455707e-03
  -9.19307455707e-03
  -9.65907771646e-03
  -9.65907771646e-03
  -1.01111786336e-02
  -1.01111786336e-02
  -1.05499902822e-02
  -1.05499902822e-02
  -1.09760901217e-02
  -1.09760901217e-02
  -1.13900226328e-02
  -1.13900226328e-02
  -1.17923016385e-02
  -1.17923016385e-02
  -1.21834124320e-02
  -1.21834124320e-02
  -1.25638137295e-02
  -1.25638137295e-02
  -1.29339394651e-02
  -1.29339394651e-02
  -1.32942004424e-02
  -1.32942004424e-02
  -1.36449858548e-02
  -1.36449858548e-02
  -1.39866646884e-02
  -1.39866646884e-02
  -1.43195870168e-02
  -1.43195870168e-02
  -1.46440851972e-02
  -1.46440851972e-02
  -1.49604749773e-02
  -1.49604749773e-02
  -1.52690565199e-02
  -1.52690565199e-02
  -1.55701153531e-02
  -1.55701153531e-02
  -1.58639232510e-02
  -1.58639232510e-02
  -1.61507390524e-02
  -1.61507390524e-02
  -1.64308094209e-02
  -1.64308094209e-02
  -1.67043695531e-02
  -1.67043695531e-02
  -1.69716438366e-02
  -1.69716438366e-02
  -1.72328464645e-02
  -1.72328464645e-02
  -1.74881820073e-02
  -1.74881820073e-02
  -1.77378459476e-02
  -1.77378459476e-02
  -1.79820251792e-02
  -1.79820251792e-02
  -1.82208984735e-02
  -1.82208984735e-02
  -1.84546369163e-02
  -1.84546369163e-02
  -1.86834043161e-02
  -1.86834043161e-02
  -1.89073575871e-02
  -1.89073575871e-02
  -1.91266471082e-02
  -1.91266471082e-02
  -1.93414170596e-02
  -1.93414170596e-02
  -1.95518057390e-02
  -1.95518057390e-02
  -1.97579458586e-02
  -1.97579458586e-02
  -1.99599648244e-02
  -1.99599648244e-02
  -2.01579849982e-02
  -2.01579849982e-02
  -2.03521239456e-02
  -2.03521239456e-02
  -2.05424946681e-02
  -2.05424946681e-02
  -2.07292058226e-02
  -2.07292058226e-02
  -2.09123619286e-02
  -2.09123619286e-02
  -2.10920635625e-02
  -2.10920635625e-02
  -2.12684075425e-02
  -2.12684075425e-02
  -2.14414871024e-02
  -2.14414871024e-02
  -2.16113920555e-02
  -2.16113920555e-02
  -2.17782089505e-02
  -2.17782089505e-02
  -2.19420212185e-02
  -2.19420212185e-02
  -2.21029093118e-02
  -2.21029093118e-02
  -2.22609508358e-02
  -2.22609508358e-02
  -2.24162206741e-02
  -2.24162206741e-02
  -2.25687911062e-02
  -2.25687911062e-02
  -2.27187319204e-02
  -2.27187319204e-02
  -2.28661105197e-02
  -2.28661105197e-02
  -2.30109920232e-02
  -2.30109920232e-02
  -2.31534393616e-02
  -2.31534393616e-02
  -2.32935133688e-02
  -2.32935133688e-02
  -2.34312728683e-02
  -2.34312728683e-02
  -2.35667747555e-02
  -2.35667747555e-02
  -2.37000740763e-02
  -2.37000740763e-02
  -2.38312241014e-02
  -2.38312241014e-02
  -2.39602763973e-02
  -2.39602763973e-02
</dep>
<dep _net1.v acfrequency R_load>
  +7.82807488240e-02
  +7.82807488240e-02
  +1.49291028996e-01
  +1.49291028996e-01
  +2.15236381899e-01
  +2.15236381899e-01
  +2.76640043823e-01
  +2.76640043823e-01
  +3.33955579114e-01
  +3.33955579114e-01
  +3.87578103104e-01
  +3.87578103104e-01
  +4.37853403370e-01
  +4.37853403370e-01
  +4.85085404583e-01
  +4.85085404583e-01
  +5.29542317588e-01
  +5.29542317588e-01
  +5.71461735556e-01
  +5.71461735556e-01
  +6.11054881713e-01
  +6.11054881713e-01
  +6.48510169003e-01
  +6.48510169003e-01
  +6.83996198284e-01
  +6.83996198284e-01
  +7.17664295735e-01
  +7.17664295735e-01
  +7.49650670034e-01
  +7.49650670034e-01
  +7.80078254160e-01
  +7.80078254160e-01
  +8.09058284330e-01
  +8.09058284330e-01
  +8.36691658822e-01
  +8.36691658822e-01
  +8.63070111673e-01
  +8.63070111673e-01
  +8.88277230026e-01
  +8.88277230026e-01
  +9.12389338893e-01
  +9.12389338893e-01
  +9.35476273062e-01
  +9.35476273062e-01
  +9.57602052602e-01
  +9.57602052602e-01
  +9.78825475716e-01
  +9.78825475716e-01
  +9.99200640512e-01
  +9.99200640512e-01
  +1.01877740543e+00
  +1.01877740543e+00
  +1.03760179660e+00
  +1.03760179660e+00
  +1.05571636910e+00
  +1.05571636910e+00
  +1.07316052811e+00
  +1.07316052811e+00
  +1.08997081506e+00
  +1.08997081506e+00
  +1.10618116315e+00
  +1.10618116315e+00
  +1.12182312596e+00
  +1.12182312596e+00
  +1.13692608247e+00
  +1.13692608247e+00
  +1.15151742121e+00
  +1.15151742121e+00
  +1.16562270603e+00
  +1.16562270603e+00
  +1.17926582555e+00
  +1.17926582555e+00
  +1.19246912820e+00
  +1.19246912820e+00
  +1.20525354434e+00
  +1.20525354434e+00
  +1.21763869701e+00
  +1.21763869701e+00
  +1.22964300244e+00
  +1.22964300244e+00
  +1.24128376136e+00
  +1.24128376136e+00
  +1.25257724227e+00
  +1.25257724227e+00
  +1.26353875725e+00
  +1.26353875725e+00
  +1.27418273124e+00
  +1.27418273124e+00
  +1.28452276537e+00
  +1.28452276537e+00
  +1.29457169493e+00
  +1.29457169493e+00
  +1.30434164255e+00
  +1.30434164255e+00
  +1.31384406696e+00
  +1.31384406696e+00
  +1.32308980784e+00
  +1.32308980784e+00
  +1.33208912705e+00
  +1.33208912705e+00
  +1.34085174665e+00
  +1.34085174665e+00
  +1.34938688392e+00
  +1.34938688392e+00
  +1.35770328368e+00
  +1.35770328368e+00
  +1.36580924823e+00
  +1.36580924823e+00
  +1.37371266493e+00
  +1.37371266493e+00
  +1.38142103187e+00
  +1.38142103187e+00
  +1.38894148152e+00
  +1.38894148152e+00
  +1.39628080281e+00
  +1.39628080281e+00
  +1.40344546153e+00
  +1.40344546153e+00
  +1.41044161933e+00
  +1.41044161933e+00
  +1.41727515144e+00
  +1.41727515144e+00
  +1.42395166304e+00
  +1.42395166304e+00
  +1.43047650468e+00
  +1.43047650468e+00
  +1.43685478654e+00
  +1.43685478654e+00
  +1.44309139177e+00
  +1.44309139177e+00
  +1.44919098898e+00
  +1.44919098898e+00
  +1.45515804387e+00
  +1.45515804387e+00
  +1.46099683017e+00
  +1.46099683017e+00
  +1.46671143982e+00
