<Qucs Dataset 0.0.17>
<indep time 101>
  +0.00000000000e+00
  +1.00000000000e-05
  +2.00000000000e-05
  +3.00000000000e-05
  +4.00000000000e-05
  +5.00000000000e-05
  +6.00000000000e-05
  +7.00000000000e-05
  +8.00000000000e-05
  +9.00000000000e-05
  +1.00000000000e-04
  +1.10000000000e-04
  +1.20000000000e-04
  +1.30000000000e-04
  +1.40000000000e-04
  +1.50000000000e-04
  +1.60000000000e-04
  +1.70000000000e-04
  +1.80000000000e-04
  +1.90000000000e-04
  +2.00000000000e-04
  +2.10000000000e-04
  +2.20000000000e-04
  +2.30000000000e-04
  +2.40000000000e-04
  +2.50000000000e-04
  +2.60000000000e-04
  +2.70000000000e-04
  +2.80000000000e-04
  +2.90000000000e-04
  +3.00000000000e-04
  +3.10000000000e-04
  +3.20000000000e-04
  +3.30000000000e-04
  +3.40000000000e-04
  +3.50000000000e-04
  +3.60000000000e-04
  +3.70000000000e-04
  +3.80000000000e-04
  +3.90000000000e-04
  +4.00000000000e-04
  +4.10000000000e-04
  +4.20000000000e-04
  +4.30000000000e-04
  +4.40000000000e-04
  +4.50000000000e-04
  +4.60000000000e-04
  +4.70000000000e-04
  +4.80000000000e-04
  +4.90000000000e-04
  +5.00000000000e-04
  +5.10000000000e-04
  +5.20000000000e-04
  +5.30000000000e-04
  +5.40000000000e-04
  +5.50000000000e-04
  +5.60000000000e-04
  +5.70000000000e-04
  +5.80000000000e-04
  +5.90000000000e-04
  +6.00000000000e-04
  +6.10000000000e-04
  +6.20000000000e-04
  +6.30000000000e-04
  +6.40000000000e-04
  +6.50000000000e-04
  +6.60000000000e-04
  +6.70000000000e-04
  +6.80000000000e-04
  +6.90000000000e-04
  +7.00000000000e-04
  +7.10000000000e-04
  +7.20000000000e-04
  +7.30000000000e-04
  +7.40000000000e-04
  +7.50000000000e-04
  +7.60000000000e-04
  +7.70000000000e-04
  +7.80000000000e-04
  +7.90000000000e-04
  +8.00000000000e-04
  +8.10000000000e-04
  +8.20000000000e-04
  +8.30000000000e-04
  +8.40000000000e-04
  +8.50000000000e-04
  +8.60000000000e-04
  +8.70000000000e-04
  +8.80000000000e-04
  +8.90000000000e-04
  +9.00000000000e-04
  +9.10000000000e-04
  +9.20000000000e-04
  +9.30000000000e-04
  +9.40000000000e-04
  +9.50000000000e-04
  +9.60000000000e-04
  +9.70000000000e-04
  +9.80000000000e-04
  +9.90000000000e-04
  +1.00000000000e-03
</indep>
<dep V1.It time>
  +0.00000000000e+00
  -6.27905195293e-03
  -1.25333233564e-02
  -1.87381314586e-02
  -2.48689887165e-02
  -3.09016994375e-02
  -3.68124552685e-02
  -4.25779291565e-02
  -4.81753674102e-02
  -5.35826794979e-02
  -5.87785252292e-02
  -6.37423989749e-02
  -6.84547105929e-02
  -7.28968627421e-02
  -7.70513242776e-02
  -8.09016994375e-02
  -8.44327925502e-02
  -8.76306680044e-02
  -9.04827052466e-02
  -9.29776485888e-02
  -9.51056516295e-02
  -9.68583161129e-02
  -9.82287250729e-02
  -9.92114701314e-02
  -9.98026728428e-02
  -1.00000000000e-01
  -9.98026728428e-02
  -9.92114701314e-02
  -9.82287250729e-02
  -9.68583161129e-02
  -9.51056516295e-02
  -9.29776485888e-02
  -9.04827052466e-02
  -8.76306680044e-02
  -8.44327925502e-02
  -8.09016994375e-02
  -7.70513242776e-02
  -7.28968627421e-02
  -6.84547105929e-02
  -6.37423989749e-02
  -5.87785252292e-02
  -5.35826794979e-02
  -4.81753674102e-02
  -4.25779291565e-02
  -3.68124552685e-02
  -3.09016994375e-02
  -2.48689887165e-02
  -1.87381314586e-02
  -1.25333233564e-02
  -6.27905195293e-03
  -1.22464679915e-17
  +6.27905195293e-03
  +1.25333233564e-02
  +1.87381314586e-02
  +2.48689887165e-02
  +3.09016994375e-02
  +3.68124552685e-02
  +4.25779291565e-02
  +4.81753674102e-02
  +5.35826794979e-02
  +5.87785252292e-02
  +6.37423989749e-02
  +6.84547105929e-02
  +7.28968627421e-02
  +7.70513242776e-02
  +8.09016994375e-02
  +8.44327925502e-02
  +8.76306680044e-02
  +9.04827052466e-02
  +9.29776485888e-02
  +9.51056516295e-02
  +9.68583161129e-02
  +9.82287250729e-02
  +9.92114701314e-02
  +9.98026728428e-02
  +1.00000000000e-01
  +9.98026728428e-02
  +9.92114701314e-02
  +9.82287250729e-02
  +9.68583161129e-02
  +9.51056516295e-02
  +9.29776485888e-02
  +9.04827052466e-02
  +8.76306680044e-02
  +8.44327925502e-02
  +8.09016994375e-02
  +7.70513242776e-02
  +7.28968627421e-02
  +6.84547105929e-02
  +6.37423989749e-02
  +5.87785252292e-02
  +5.35826794979e-02
  +4.81753674102e-02
  +4.25779291565e-02
  +3.68124552685e-02
  +3.09016994375e-02
  +2.48689887165e-02
  +1.87381314586e-02
  +1.25333233564e-02
  +6.27905195293e-03
  +2.44929359829e-17
</dep>
<dep Vin.Vt time>
  +0.00000000000e+00
  +6.27905195293e-01
  +1.25333233564e+00
  +1.87381314586e+00
  +2.48689887165e+00
  +3.09016994375e+00
  +3.68124552685e+00
  +4.25779291565e+00
  +4.81753674102e+00
  +5.35826794979e+00
  +5.87785252292e+00
  +6.37423989749e+00
  +6.84547105929e+00
  +7.28968627421e+00
  +7.70513242776e+00
  +8.09016994375e+00
  +8.44327925502e+00
  +8.76306680044e+00
  +9.04827052466e+00
  +9.29776485888e+00
  +9.51056516295e+00
  +9.68583161129e+00
  +9.82287250729e+00
  +9.92114701314e+00
  +9.98026728428e+00
  +1.00000000000e+01
  +9.98026728428e+00
  +9.92114701314e+00
  +9.82287250729e+00
  +9.68583161129e+00
  +9.51056516295e+00
  +9.29776485888e+00
  +9.04827052466e+00
  +8.76306680044e+00
  +8.44327925502e+00
  +8.09016994375e+00
  +7.70513242776e+00
  +7.28968627421e+00
  +6.84547105929e+00
  +6.37423989749e+00
  +5.87785252292e+00
  +5.35826794979e+00
  +4.81753674102e+00
  +4.25779291565e+00
  +3.68124552685e+00
  +3.09016994375e+00
  +2.48689887165e+00
  +1.87381314586e+00
  +1.25333233564e+00
  +6.27905195293e-01
  +1.22464679915e-15
  -6.27905195293e-01
  -1.25333233564e+00
  -1.87381314586e+00
  -2.48689887165e+00
  -3.09016994375e+00
  -3.68124552685e+00
  -4.25779291565e+00
  -4.81753674102e+00
  -5.35826794979e+00
  -5.87785252292e+00
  -6.37423989749e+00
  -6.84547105929e+00
  -7.28968627421e+00
  -7.70513242776e+00
  -8.09016994375e+00
  -8.44327925502e+00
  -8.76306680044e+00
  -9.04827052466e+00
  -9.29776485888e+00
  -9.51056516295e+00
  -9.68583161129e+00
  -9.82287250729e+00
  -9.92114701314e+00
  -9.98026728428e+00
  -1.00000000000e+01
  -9.98026728428e+00
  -9.92114701314e+00
  -9.82287250729e+00
  -9.68583161129e+00
  -9.51056516295e+00
  -9.29776485888e+00
  -9.04827052466e+00
  -8.76306680044e+00
  -8.44327925502e+00
  -8.09016994375e+00
  -7.70513242776e+00
  -7.28968627421e+00
  -6.84547105929e+00
  -6.37423989749e+00
  -5.87785252292e+00
  -5.35826794979e+00
  -4.81753674102e+00
  -4.25779291565e+00
  -3.68124552685e+00
  -3.09016994375e+00
  -2.48689887165e+00
  -1.87381314586e+00
  -1.25333233564e+00
  -6.27905195293e-01
  -2.44929359829e-15
</dep>
<dep Vout.Vt time>
  +0.00000000000e+00
  +3.13952597647e-01
  +6.26666167822e-01
  +9.36906572932e-01
  +1.24344943582e+00
  +1.54508497187e+00
  +1.84062276343e+00
  +2.12889645783e+00
  +2.40876837051e+00
  +2.67913397489e+00
  +2.93892626146e+00
  +3.18711994874e+00
  +3.42273552965e+00
  +3.64484313711e+00
  +3.85256621388e+00
  +4.04508497187e+00
  +4.22163962751e+00
  +4.38153340022e+00
  +4.52413526233e+00
  +4.64888242944e+00
  +4.75528258148e+00
  +4.84291580564e+00
  +4.91143625364e+00
  +4.96057350657e+00
  +4.99013364214e+00
  +5.00000000000e+00
  +4.99013364214e+00
  +4.96057350657e+00
  +4.91143625364e+00
  +4.84291580564e+00
  +4.75528258148e+00
  +4.64888242944e+00
  +4.52413526233e+00
  +4.38153340022e+00
  +4.22163962751e+00
  +4.04508497187e+00
  +3.85256621388e+00
  +3.64484313711e+00
  +3.42273552964e+00
  +3.18711994874e+00
  +2.93892626146e+00
  +2.67913397489e+00
  +2.40876837051e+00
  +2.12889645783e+00
  +1.84062276342e+00
  +1.54508497187e+00
  +1.24344943582e+00
  +9.36906572929e-01
  +6.26666167822e-01
  +3.13952597647e-01
  +6.12323399574e-16
  -3.13952597647e-01
  -6.26666167822e-01
  -9.36906572929e-01
  -1.24344943582e+00
  -1.54508497187e+00
  -1.84062276342e+00
  -2.12889645783e+00
  -2.40876837051e+00
  -2.67913397489e+00
  -2.93892626146e+00
  -3.18711994874e+00
  -3.42273552964e+00
  -3.64484313711e+00
  -3.85256621388e+00
  -4.04508497187e+00
  -4.22163962751e+00
  -4.38153340022e+00
  -4.52413526233e+00
  -4.64888242944e+00
  -4.75528258148e+00
  -4.84291580564e+00
  -4.91143625364e+00
  -4.96057350657e+00
  -4.99013364214e+00
  -5.00000000000e+00
  -4.99013364214e+00
  -4.96057350657e+00
  -4.91143625364e+00
  -4.84291580564e+00
  -4.75528258148e+00
  -4.64888242944e+00
  -4.52413526233e+00
  -4.38153340022e+00
  -4.22163962751e+00
  -4.04508497187e+00
  -3.85256621388e+00
  -3.64484313711e+00
  -3.42273552964e+00
  -3.18711994874e+00
  -2.93892626146e+00
  -2.67913397489e+00
  -2.40876837051e+00
  -2.12889645783e+00
  -1.84062276342e+00
  -1.54508497187e+00
  -1.24344943582e+00
  -9.36906572929e-01
  -6.26666167818e-01
  -3.13952597647e-01
  -1.22464679915e-15
</dep>
