<Qucs Dataset 0.0.17>
<indep time 200>
  +0.00000000000e+00
  +1.00502512563e-08
  +2.01005025126e-08
  +3.01507537688e-08
  +4.02010050251e-08
  +5.02512562814e-08
  +6.03015075377e-08
  +7.03517587940e-08
  +8.04020100503e-08
  +9.04522613065e-08
  +1.00502512563e-07
  +1.10552763819e-07
  +1.20603015075e-07
  +1.30653266332e-07
  +1.40703517588e-07
  +1.50753768844e-07
  +1.60804020101e-07
  +1.70854271357e-07
  +1.80904522613e-07
  +1.90954773869e-07
  +2.01005025126e-07
  +2.11055276382e-07
  +2.21105527638e-07
  +2.31155778894e-07
  +2.41206030151e-07
  +2.51256281407e-07
  +2.61306532663e-07
  +2.71356783920e-07
  +2.81407035176e-07
  +2.91457286432e-07
  +3.01507537688e-07
  +3.11557788945e-07
  +3.21608040201e-07
  +3.31658291457e-07
  +3.41708542714e-07
  +3.51758793970e-07
  +3.61809045226e-07
  +3.71859296482e-07
  +3.81909547739e-07
  +3.91959798995e-07
  +4.02010050251e-07
  +4.12060301508e-07
  +4.22110552764e-07
  +4.32160804020e-07
  +4.42211055276e-07
  +4.52261306533e-07
  +4.62311557789e-07
  +4.72361809045e-07
  +4.82412060302e-07
  +4.92462311558e-07
  +5.02512562814e-07
  +5.12562814070e-07
  +5.22613065327e-07
  +5.32663316583e-07
  +5.42713567839e-07
  +5.52763819095e-07
  +5.62814070352e-07
  +5.72864321608e-07
  +5.82914572864e-07
  +5.92964824121e-07
  +6.03015075377e-07
  +6.13065326633e-07
  +6.23115577889e-07
  +6.33165829146e-07
  +6.43216080402e-07
  +6.53266331658e-07
  +6.63316582915e-07
  +6.73366834171e-07
  +6.83417085427e-07
  +6.93467336683e-07
  +7.03517587940e-07
  +7.13567839196e-07
  +7.23618090452e-07
  +7.33668341709e-07
  +7.43718592965e-07
  +7.53768844221e-07
  +7.63819095477e-07
  +7.73869346734e-07
  +7.83919597990e-07
  +7.93969849246e-07
  +8.04020100503e-07
  +8.14070351759e-07
  +8.24120603015e-07
  +8.34170854271e-07
  +8.44221105528e-07
  +8.54271356784e-07
  +8.64321608040e-07
  +8.74371859296e-07
  +8.84422110553e-07
  +8.94472361809e-07
  +9.04522613065e-07
  +9.14572864322e-07
  +9.24623115578e-07
  +9.34673366834e-07
  +9.44723618090e-07
  +9.54773869347e-07
  +9.64824120603e-07
  +9.74874371859e-07
  +9.84924623116e-07
  +9.94974874372e-07
  +1.00502512563e-06
  +1.01507537688e-06
  +1.02512562814e-06
  +1.03517587940e-06
  +1.04522613065e-06
  +1.05527638191e-06
  +1.06532663317e-06
  +1.07537688442e-06
  +1.08542713568e-06
  +1.09547738693e-06
  +1.10552763819e-06
  +1.11557788945e-06
  +1.12562814070e-06
  +1.13567839196e-06
  +1.14572864322e-06
  +1.15577889447e-06
  +1.16582914573e-06
  +1.17587939698e-06
  +1.18592964824e-06
  +1.19597989950e-06
  +1.20603015075e-06
  +1.21608040201e-06
  +1.22613065327e-06
  +1.23618090452e-06
  +1.24623115578e-06
  +1.25628140704e-06
  +1.26633165829e-06
  +1.27638190955e-06
  +1.28643216080e-06
  +1.29648241206e-06
  +1.30653266332e-06
  +1.31658291457e-06
  +1.32663316583e-06
  +1.33668341709e-06
  +1.34673366834e-06
  +1.35678391960e-06
  +1.36683417085e-06
  +1.37688442211e-06
  +1.38693467337e-06
  +1.39698492462e-06
  +1.40703517588e-06
  +1.41708542714e-06
  +1.42713567839e-06
  +1.43718592965e-06
  +1.44723618090e-06
  +1.45728643216e-06
  +1.46733668342e-06
  +1.47738693467e-06
  +1.48743718593e-06
  +1.49748743719e-06
  +1.50753768844e-06
  +1.51758793970e-06
  +1.52763819095e-06
  +1.53768844221e-06
  +1.54773869347e-06
  +1.55778894472e-06
  +1.56783919598e-06
  +1.57788944724e-06
  +1.58793969849e-06
  +1.59798994975e-06
  +1.60804020101e-06
  +1.61809045226e-06
  +1.62814070352e-06
  +1.63819095477e-06
  +1.64824120603e-06
  +1.65829145729e-06
  +1.66834170854e-06
  +1.67839195980e-06
  +1.68844221106e-06
  +1.69849246231e-06
  +1.70854271357e-06
  +1.71859296482e-06
  +1.72864321608e-06
  +1.73869346734e-06
  +1.74874371859e-06
  +1.75879396985e-06
  +1.76884422111e-06
  +1.77889447236e-06
  +1.78894472362e-06
  +1.79899497487e-06
  +1.80904522613e-06
  +1.81909547739e-06
  +1.82914572864e-06
  +1.83919597990e-06
  +1.84924623116e-06
  +1.85929648241e-06
  +1.86934673367e-06
  +1.87939698492e-06
  +1.88944723618e-06
  +1.89949748744e-06
  +1.90954773869e-06
  +1.91959798995e-06
  +1.92964824121e-06
  +1.93969849246e-06
  +1.94974874372e-06
  +1.95979899497e-06
  +1.96984924623e-06
  +1.97989949749e-06
  +1.98994974874e-06
  +2.00000000000e-06
</indep>
<dep V1.It time>
  +0.00000000000e+00
  -1.77747543177e-06
  -5.95659156475e-07
  +8.19113603723e-07
  +1.95566563514e-06
  +6.75087463302e-06
  +5.46481969547e-06
  +1.95552532297e-06
  -2.26264145667e-06
  -5.62934461876e-06
  -6.84439064814e-06
  -5.37351858954e-06
  -1.85287703216e-06
  +2.38812447451e-06
  +5.71010751611e-06
  +6.84167239167e-06
  +5.33350697899e-06
  +1.77484762022e-06
  -2.46121612546e-06
  -5.74205212210e-06
  -6.80203752454e-06
  -5.27085773284e-06
  -1.63401184239e-06
  +2.55334191008e-06
  +5.84211958855e-06
  +6.78500603500e-06
  +5.15535955762e-06
  +1.57722841006e-06
  -2.65107823295e-06
  -5.84706276327e-06
  -6.77447694160e-06
  -5.14435603712e-06
  -1.41497722492e-06
  +2.74498532684e-06
  +5.96139891025e-06
  +6.76343275793e-06
  +5.07205955527e-06
  +1.30733014948e-06
  -2.84062672171e-06
  -6.01378016642e-06
  -6.81119354909e-06
  -4.92820099999e-06
  -1.27336011287e-06
  +3.01113683921e-06
  +5.99552996963e-06
  +6.80579975861e-06
  +4.85290188804e-06
  +1.16672502824e-06
  -3.10851035624e-06
  -6.11797564333e-06
  -6.78701070946e-06
  -4.77737182431e-06
  -1.05921915352e-06
  +3.20150994827e-06
  +6.09341149617e-06
  +6.76922145467e-06
  +4.68853999239e-06
  +8.64686080995e-07
  -3.20852596401e-06
  -6.12453065429e-06
  -6.67065540966e-06
  -4.70174939694e-06
  -7.56281912205e-07
  +3.40461578839e-06
  +6.26747888805e-06
  +6.72847994558e-06
  +4.62513464878e-06
  +6.54933825384e-07
  -3.49134112608e-06
  -6.22321428838e-06
  -6.69836510316e-06
  -4.45780732164e-06
  -6.35189041072e-07
  +3.58220632472e-06
  +6.26754244165e-06
  +6.68602964879e-06
  +4.35940454337e-06
  +4.23318802749e-07
  -3.69186234646e-06
  -6.40899011635e-06
  -6.68092507750e-06
  -4.39041185324e-06
  -4.31794662567e-07
  +3.66814408623e-06
  +6.32811626771e-06
  +6.52227564968e-06
  +4.19091677870e-06
  +2.09250688487e-07
  -3.87469465608e-06
  -6.36474965962e-06
  -6.49629749622e-06
  -4.22263104705e-06
  -1.06666217296e-07
  +3.95644124852e-06
  +6.51080157448e-06
  +6.57150117984e-06
  +4.02651196864e-06
  +1.04592890147e-07
  -4.04211493081e-06
  -6.54369308250e-06
  -6.44954065323e-06
  -4.03875512096e-06
  +1.01103204239e-07
  +4.12514701146e-06
  +6.56975786378e-06
  +6.42377747912e-06
  +3.93515009477e-06
  -1.93770422814e-07
  -4.13230826130e-06
  -6.59307842509e-06
  -6.38896936715e-06
  -3.77400505524e-06
  +3.11666901984e-07
  +4.29226087790e-06
  +6.63251833038e-06
  +6.42983520927e-06
  +3.76238351476e-06
  -3.42964840754e-07
  -4.29763249412e-06
  -6.64997205822e-06
  -6.38161806945e-06
  -3.66312692057e-06
  +4.57017975341e-07
  +4.38973526898e-06
  +6.61823177436e-06
  +6.28300805079e-06
  +3.51335512574e-06
  -6.24591540064e-07
  -4.52936037640e-06
  -6.63700745494e-06
  -6.23818700672e-06
  -3.41806833854e-06
  +7.31664839941e-07
  +4.61051939921e-06
  +6.72247624468e-06
  +6.25298362673e-06
  +3.38311817777e-06
  -7.81874428264e-07
  -4.68141695173e-06
  -6.73395070468e-06
  -6.14320960822e-06
  -3.22213134181e-06
  +8.72493955762e-07
  +4.77745874066e-06
  +6.77020390102e-06
  +6.15530583499e-06
  +3.14342629355e-06
  -9.97133984839e-07
  -4.83418384609e-06
  -6.77048478486e-06
  -6.09477497777e-06
  -3.05909061315e-06
  +1.11717550909e-06
  +4.90169876603e-06
  +6.75657059365e-06
  +6.04466499372e-06
  +2.96228212913e-06
  -1.24487033545e-06
  -4.97509741140e-06
  -6.78888521414e-06
  -5.98629222862e-06
  -2.87801034526e-06
  +1.33716501254e-06
  +5.03350059648e-06
  +6.78537228762e-06
  +5.91789612866e-06
  +2.78216729060e-06
  -1.44059250858e-06
  -5.10336550484e-06
  -6.81070970025e-06
  -5.86704217862e-06
  -2.68146940631e-06
  +1.55138808156e-06
  +5.18232178999e-06
  +6.81805271351e-06
  +5.81402333335e-06
  +2.57452496411e-06
  -1.65888649425e-06
  -5.25399134974e-06
  -6.81754186888e-06
  -5.76052714468e-06
  -2.46845213678e-06
  +1.77001245553e-06
  +5.31188904840e-06
  +6.83369332177e-06
  +5.69474325790e-06
  +2.37690649304e-06
  -1.86462026520e-06
  -5.38624316379e-06
  -6.83058768400e-06
  -5.64539983992e-06
  -2.27473185969e-06
  +1.96502510364e-06
  +5.45514257951e-06
  +6.82615480504e-06
  +5.58705192640e-06
  +2.15868934646e-06
  -2.08712190754e-06
  -5.53055818879e-06
  -6.82042334393e-06
</dep>
<dep V3.It time>
  +0.00000000000e+00
  +3.24946771567e-06
  +7.88378981003e-07
  -1.07389550033e-06
  -3.57524298091e-06
  -1.87380065460e-05
  -2.55597728944e-03
  -1.02477118438e-03
  -4.03433300462e-04
  -7.99312278781e-06
  +1.13415240385e-05
  +8.07677828251e-06
  +2.70147796282e-06
  -3.45365145814e-06
  -8.61211532298e-06
  -1.15649743353e-05
  -8.12204477699e-05
  -3.83989179739e-04
  -3.06468136370e-04
  +1.40438091844e-05
  +1.09631189237e-05
  +7.79449973354e-06
  +2.35973080133e-06
  -3.68732601131e-06
  -8.73597191190e-06
  -1.12989790719e-05
  -3.12635235566e-05
  -3.19841602625e-04
  -2.30441808023e-04
  +1.19265332608e-05
  +1.07064922256e-05
  +7.52724886397e-06
  +2.03480115344e-06
  -3.94542568113e-06
  -8.86486404797e-06
  -1.11465025272e-05
  -1.59207073617e-05
  -2.71657961508e-04
  -1.68915347578e-04
  +1.13625843318e-05
  +1.05743787090e-05
  +7.18316157175e-06
  +1.80150336614e-06
  -4.28977708151e-06
  -8.91306652661e-06
  -1.11162000145e-05
  -1.34167280895e-05
  -2.34553373673e-04
  -1.17368402451e-04
  +1.10698598539e-05
  +1.04120689603e-05
  +6.92357729916e-06
  +1.49159975086e-06
  -4.55132669964e-06
  -9.04246877621e-06
  -1.10268024942e-05
  -1.20823833426e-05
  -2.04958998822e-04
  -7.33229735166e-05
  +1.07940618160e-05
  +1.01634582409e-05
  +6.75947814082e-06
  +1.08293479816e-06
  -4.83232494414e-06
  -9.26509594695e-06
  -1.09549966629e-05
  -1.14124623505e-05
  -1.80933389791e-04
  -3.47024613134e-05
  +1.07308527793e-05
  +1.01046734178e-05
  +6.40417268251e-06
  +8.87011166443e-07
  -5.08103030759e-06
  -9.29191785636e-06
  -1.08898705035e-05
  -1.09113475974e-05
  -1.60830799378e-04
  -2.16700475835e-06
  +1.07912260063e-05
  +1.00006547710e-05
  +6.25959441919e-06
  +5.97727675172e-07
  -5.22548412795e-06
  -9.39140429991e-06
  -1.06954449239e-05
  -1.03859188885e-05
  -1.43577614816e-04
  +1.30519138886e-05
  +1.06187972825e-05
  +9.71014468382e-06
  +6.00058748891e-06
  +1.67133293928e-07
  -5.60543377610e-06
  -9.63623159559e-06
  -1.07541387645e-05
  -1.00788585268e-05
  -1.28428004133e-04
  +1.08801527172e-05
  +1.07270840702e-05
  +9.58478503756e-06
  +5.72620630355e-06
  -1.25839899131e-07
  -5.84616321003e-06
  -9.73835143688e-06
  -1.05901881092e-05
  -1.00338874039e-05
  -1.14492937441e-04
  +9.70357323517e-06
  +1.06915263028e-05
  +9.44810571223e-06
  +5.36441481766e-06
  -4.21118863573e-07
  -6.08520243220e-06
  -9.84595794022e-06
  -1.06034214240e-05
  -9.77779862484e-06
  -1.01696670712e-04
  +9.37030315564e-06
  +1.06806759692e-05
  +9.37060794025e-06
  +5.17294588140e-06
  -6.47472865661e-07
  -6.25122706920e-06
  -9.87292951453e-06
  -1.04519750723e-05
  -9.53855724214e-06
  -8.93904707203e-05
  +9.33397339374e-06
  +1.05980091563e-05
  +9.14835646326e-06
  +4.83921267672e-06
  -1.01053043605e-06
  -6.54731399640e-06
  -1.00247472596e-05
  -1.04245764228e-05
  -9.56212890833e-06
  -7.75962133910e-05
  +9.30019355642e-06
  +1.06362955921e-05
  +8.98034280266e-06
  +4.55883684357e-06
  -1.23377212089e-06
  -6.78551892776e-06
  -1.01161333039e-05
  -1.03239084575e-05
  -9.51662553293e-06
  -6.58920134079e-05
  +9.32723002809e-06
  +1.06156645414e-05
  +8.85589294269e-06
  +4.31556561254e-06
  -1.56776387211e-06
  -6.97769627342e-06
  -1.01498738440e-05
  -1.02133542196e-05
  -9.41266933645e-06
  -5.42003016993e-05
  +9.37416683125e-06
  +1.05784101635e-05
  +8.67379825282e-06
  +4.04217779182e-06
  -1.87296203109e-06
  -7.18758589891e-06
  -1.02218883079e-05
  -1.00929752797e-05
  -9.24893352648e-06
  -4.24757703725e-05
  +9.43832101138e-06
  +1.05469224523e-05
  +8.48966047618e-06
  +3.76075566062e-06
  -2.16240025847e-06
  -7.40780411560e-06
  -1.02895342424e-05
  -9.98993924264e-06
  -9.07899586093e-06
  -3.06498246113e-05
  +9.53311847827e-06
  +1.04995922150e-05
  +8.31132290680e-06
  +3.46102393906e-06
  -2.47576385648e-06
  -7.59614280852e-06
  -1.03560349514e-05
  -9.85954356596e-06
  -9.65183113950e-06
  -1.88142933306e-05
  +9.61269154497e-06
  +1.04693290873e-05
  +8.11542003495e-06
  +3.19202928694e-06
  -2.75026362489e-06
  -7.81161657822e-06
  -1.03843390720e-05
  -9.75378935268e-06
  -1.22496482074e-05
  -7.23981791187e-06
  +9.72067747769e-06
  +1.04035282190e-05
</dep>
<dep V2.It time>
  +0.00000000000e+00
  -2.91043696907e-05
  -1.29722339094e-04
  -1.26873480183e-04
  -2.30971455451e-05
  +7.87730102003e-06
  +3.10471013571e-04
  +4.79281707050e-04
  +4.07914653407e-04
  +1.54105362960e-05
  -2.99490414719e-06
  -1.71425546003e-06
  -5.29368328018e-07
  +6.71308590532e-07
  +1.85050083335e-06
  +3.17057426813e-06
  +7.41756269226e-05
  +3.81729309197e-04
  +3.10247890549e-04
  -6.73326711356e-06
  -2.75886177811e-06
  -1.60781695923e-06
  -4.58782370280e-07
  +7.14084116501e-07
  +1.84960188895e-06
  +3.03883150941e-06
  +2.45899042231e-05
  +3.17919192213e-04
  +2.34191763262e-04
  -4.61268867954e-06
  -2.60320592188e-06
  -1.51781496453e-06
  -3.94995064484e-07
  +7.59975074569e-07
  +1.86113896249e-06
  +2.96150937796e-06
  +9.45686845929e-06
  +2.70090380152e-04
  +1.72758177982e-04
  -3.93508386215e-06
  -2.47981049070e-06
  -1.44352825717e-06
  -3.31945906457e-07
  +8.05727760823e-07
  +1.88139615002e-06
  +2.91646178191e-06
  +7.27816156567e-06
  +2.33181333899e-04
  +1.21442693792e-04
  -3.57810217959e-06
  -2.38378558338e-06
  -1.37428695408e-06
  -2.72234645401e-07
  +8.52949922668e-07
  +1.90624965735e-06
  +2.89127046172e-06
  +6.18737203736e-06
  +2.03958940320e-04
  +7.74594321728e-05
  -3.33650578851e-06
  -2.29869524876e-06
  -1.31106275239e-06
  -2.12976839937e-07
  +9.01195385514e-07
  +1.93453282969e-06
  +2.87788538113e-06
  +5.62869281746e-06
  +1.80197269696e-04
  +3.91286573104e-05
  -3.19217436320e-06
  -2.23087157974e-06
  -1.24825285529e-06
  -1.56907979609e-07
  +9.48966709594e-07
  +1.96508371831e-06
  +2.87302945844e-06
  +5.46929404982e-06
  +1.60380774669e-04
  +6.79515084260e-06
  -3.06486042871e-06
  -2.16726982094e-06
  -1.18876601403e-06
  -1.00299643399e-07
  +9.97353776023e-07
  +1.99699747314e-06
  +2.87391968714e-06
  +5.16270158496e-06
  +1.43388753418e-04
  -8.23026206821e-06
  -2.96754885983e-06
  -2.10743428909e-06
  -1.13104080919e-06
  -4.48553572967e-08
  +1.04555572105e-06
  +2.02996909042e-06
  +2.87900931697e-06
  +5.06952666669e-06
  +1.28376900322e-04
  -5.87023747285e-06
  -2.89214086444e-06
  -2.05104181499e-06
  -1.07467688468e-06
  +1.07350698506e-08
  +1.09408888640e-06
  +2.06375368233e-06
  +2.88740415077e-06
  +5.15217083612e-06
  +1.14798892034e-04
  -4.59199506374e-06
  -2.81998559548e-06
  -1.99685089197e-06
  -1.01885265303e-06
  +6.58974083829e-08
  +1.14248140148e-06
  +2.09816118672e-06
  +2.89764916872e-06
  +5.11427663297e-06
  +1.02194911618e-04
  -4.07188624449e-06
  -2.76240664245e-06
  -1.94595038968e-06
  -9.64388173648e-07
  +1.20300506404e-07
  +1.19045255165e-06
  +2.13244782451e-06
  +2.90977765955e-06
  +5.17398737615e-06
  +9.02212896771e-05
  -3.77876307919e-06
  -2.70448743604e-06
  -1.89339362738e-06
  -9.08956565349e-07
  +1.75065693773e-07
  +1.23835665466e-06
  +2.16661709065e-06
  +2.92332498935e-06
  +5.37219203962e-06
  +7.86281374645e-05
  -3.57627890931e-06
  -2.65379954881e-06
  -1.84255891856e-06
  -8.53978417821e-07
  +2.29030574161e-07
  +1.28590676502e-06
  +2.20075269858e-06
  +2.93706660034e-06
  +5.61207576802e-06
  +6.71845654945e-05
  -3.43280416435e-06
  -2.60570987885e-06
  -1.79322341529e-06
  -8.00342925043e-07
  +2.83391625150e-07
  +1.33333722184e-06
  +2.23475073335e-06
  +2.95243532331e-06
  +5.73386175749e-06
  +5.57808144316e-05
  -3.32181883416e-06
  -2.56037231543e-06
  -1.74404502525e-06
  -7.46002320428e-07
  +3.37203648424e-07
  +1.38020089487e-06
  +2.26815766393e-06
  +2.96781365138e-06
  +5.80559127286e-06
  +4.43033055013e-05
  -3.23301446292e-06
  -2.51688316065e-06
  -1.69501033732e-06
  -6.91864984317e-07
  +3.90665287557e-07
  +1.42712265488e-06
  +2.30170601973e-06
  +2.98355723089e-06
  +5.89263160636e-06
  +3.27388236795e-05
  -3.15946472064e-06
  -2.47432629960e-06
  -1.64594090292e-06
  -6.37560321982e-07
  +4.44286303252e-07
  +1.47335344890e-06
  +2.33430770807e-06
  +2.99942068840e-06
  +6.70159646429e-06
  +2.11404845456e-05
  -3.10117204815e-06
  -2.43273824227e-06
  -1.59716251964e-06
  -5.84063732366e-07
  +4.97556672741e-07
  +1.51907166430e-06
  +2.36667450563e-06
  +3.01533929041e-06
  +9.57197614976e-06
  +9.83318828680e-06
  -3.04721191557e-06
  -2.39191969000e-06
</dep>
<dep Drain.Vt time>
  +0.00000000000e+00
  +2.65598966278e+00
  +3.46232996284e+00
  +3.46631035010e+00
  +2.65200623338e+00
  -1.37471845937e-05
  +2.14616174775e+00
  +3.90479821776e+00
  +3.83686521787e+00
  +2.03506871519e+00
  +4.82554790264e+00
  +7.75452187076e+00
  +9.49736320521e+00
  +9.38696540351e+00
  +7.47020035521e+00
  +4.49319449725e+00
  +2.31247264678e+00
  +3.95569384339e+00
  +3.79099002424e+00
  +2.72745334530e+00
  +5.76846470434e+00
  +8.66156092155e+00
  +1.03219787982e+01
  +1.01135048479e+01
  +8.12051550187e+00
  +5.11760472191e+00
  +2.47402768576e+00
  +3.99993974084e+00
  +3.74022598804e+00
  +3.47448977973e+00
  +6.51942923486e+00
  +9.37434940333e+00
  +1.09507746570e+01
  +1.06445406316e+01
  +8.57743338994e+00
  +5.55209335265e+00
  +2.79554101731e+00
  +4.03850125888e+00
  +3.68518860227e+00
  +4.07633653066e+00
  +7.13602814828e+00
  +9.95006495561e+00
  +1.14410735187e+01
  +1.10374008191e+01
  +8.89834588485e+00
  +5.85386960854e+00
  +3.11750148595e+00
  +4.07154378193e+00
  +3.62665002997e+00
  +4.58204373969e+00
  +7.65627685072e+00
  +1.04268347520e+01
  +1.18309594419e+01
  +1.13303091394e+01
  +9.12148783685e+00
  +6.06109329238e+00
  +3.35854337895e+00
  +4.09917998604e+00
  +3.56598551649e+00
  +5.01834163050e+00
  +8.10504980971e+00
  +1.08294099777e+01
  +1.21453114763e+01
  +1.15482082691e+01
  +9.27186234482e+00
  +6.19870817920e+00
  +3.53799620462e+00
  +4.12150957456e+00
  +3.50667233352e+00
  +5.40271263063e+00
  +8.49959300452e+00
  +1.11752063592e+01
  +1.24015514836e+01
  +1.17086287811e+01
  +9.36706935067e+00
  +6.28430171800e+00
  +3.67206497012e+00
  +4.13860765424e+00
  +3.46614292317e+00
  +5.74798483156e+00
  +8.85206367925e+00
  +1.14762730693e+01
  +1.26118853700e+01
  +1.18238457703e+01
  +9.41942810187e+00
  +6.33018124558e+00
  +3.76755894301e+00
  +4.15054812864e+00
  +3.56861266152e+00
  +6.06325693717e+00
  +9.17169405429e+00
  +1.17419066858e+01
  +1.27856683315e+01
  +1.19033183446e+01
  +9.43846464087e+00
  +6.34586486876e+00
  +3.83754965078e+00
  +4.15745135180e+00
  +3.82312753484e+00
  +6.35446703122e+00
  +9.46434397720e+00
  +1.19780228259e+01
  +1.29289170412e+01
  +1.19531492789e+01
  +9.43033391724e+00
  +6.33750311014e+00
  +3.88776068837e+00
  +4.15936455897e+00
  +4.05061026429e+00
  +6.62672995370e+00
  +9.73495558539e+00
  +1.21896168006e+01
  +1.30467058509e+01
  +1.19785070900e+01
  +9.40026468265e+00
  +6.31031123041e+00
  +3.92040158731e+00
  +4.15643902353e+00
  +4.25789228407e+00
  +6.88359217842e+00
  +9.98718110699e+00
  +1.23804031233e+01
  +1.31428480967e+01
  +1.19832977778e+01
  +9.35221321331e+00
  +6.26824957367e+00
  +3.94154886579e+00
  +4.14868180523e+00
  +4.45298011767e+00
  +7.12788624868e+00
  +1.02237594026e+01
  +1.25531562756e+01
  +1.32202007506e+01
  +1.19704617363e+01
  +9.28916884253e+00
  +6.21429617861e+00
  +3.95453040191e+00
  +4.13629511920e+00
  +4.63962861596e+00
  +7.36189293506e+00
  +1.04470218447e+01
  +1.27102912669e+01
  +1.32812766983e+01
  +1.19426104433e+01
  +9.21379653129e+00
