<Qucs Dataset 0.0.17>
<indep time 200>
  +0.00000000000e+00
  +1.00502512563e-08
  +2.01005025126e-08
  +3.01507537688e-08
  +4.02010050251e-08
  +5.02512562814e-08
  +6.03015075377e-08
  +7.03517587940e-08
  +8.04020100503e-08
  +9.04522613065e-08
  +1.00502512563e-07
  +1.10552763819e-07
  +1.20603015075e-07
  +1.30653266332e-07
  +1.40703517588e-07
  +1.50753768844e-07
  +1.60804020101e-07
  +1.70854271357e-07
  +1.80904522613e-07
  +1.90954773869e-07
  +2.01005025126e-07
  +2.11055276382e-07
  +2.21105527638e-07
  +2.31155778894e-07
  +2.41206030151e-07
  +2.51256281407e-07
  +2.61306532663e-07
  +2.71356783920e-07
  +2.81407035176e-07
  +2.91457286432e-07
  +3.01507537688e-07
  +3.11557788945e-07
  +3.21608040201e-07
  +3.31658291457e-07
  +3.41708542714e-07
  +3.51758793970e-07
  +3.61809045226e-07
  +3.71859296482e-07
  +3.81909547739e-07
  +3.91959798995e-07
  +4.02010050251e-07
  +4.12060301508e-07
  +4.22110552764e-07
  +4.32160804020e-07
  +4.42211055276e-07
  +4.52261306533e-07
  +4.62311557789e-07
  +4.72361809045e-07
  +4.82412060302e-07
  +4.92462311558e-07
  +5.02512562814e-07
  +5.12562814070e-07
  +5.22613065327e-07
  +5.32663316583e-07
  +5.42713567839e-07
  +5.52763819095e-07
  +5.62814070352e-07
  +5.72864321608e-07
  +5.82914572864e-07
  +5.92964824121e-07
  +6.03015075377e-07
  +6.13065326633e-07
  +6.23115577889e-07
  +6.33165829146e-07
  +6.43216080402e-07
  +6.53266331658e-07
  +6.63316582915e-07
  +6.73366834171e-07
  +6.83417085427e-07
  +6.93467336683e-07
  +7.03517587940e-07
  +7.13567839196e-07
  +7.23618090452e-07
  +7.33668341709e-07
  +7.43718592965e-07
  +7.53768844221e-07
  +7.63819095477e-07
  +7.73869346734e-07
  +7.83919597990e-07
  +7.93969849246e-07
  +8.04020100503e-07
  +8.14070351759e-07
  +8.24120603015e-07
  +8.34170854271e-07
  +8.44221105528e-07
  +8.54271356784e-07
  +8.64321608040e-07
  +8.74371859296e-07
  +8.84422110553e-07
  +8.94472361809e-07
  +9.04522613065e-07
  +9.14572864322e-07
  +9.24623115578e-07
  +9.34673366834e-07
  +9.44723618090e-07
  +9.54773869347e-07
  +9.64824120603e-07
  +9.74874371859e-07
  +9.84924623116e-07
  +9.94974874372e-07
  +1.00502512563e-06
  +1.01507537688e-06
  +1.02512562814e-06
  +1.03517587940e-06
  +1.04522613065e-06
  +1.05527638191e-06
  +1.06532663317e-06
  +1.07537688442e-06
  +1.08542713568e-06
  +1.09547738693e-06
  +1.10552763819e-06
  +1.11557788945e-06
  +1.12562814070e-06
  +1.13567839196e-06
  +1.14572864322e-06
  +1.15577889447e-06
  +1.16582914573e-06
  +1.17587939698e-06
  +1.18592964824e-06
  +1.19597989950e-06
  +1.20603015075e-06
  +1.21608040201e-06
  +1.22613065327e-06
  +1.23618090452e-06
  +1.24623115578e-06
  +1.25628140704e-06
  +1.26633165829e-06
  +1.27638190955e-06
  +1.28643216080e-06
  +1.29648241206e-06
  +1.30653266332e-06
  +1.31658291457e-06
  +1.32663316583e-06
  +1.33668341709e-06
  +1.34673366834e-06
  +1.35678391960e-06
  +1.36683417085e-06
  +1.37688442211e-06
  +1.38693467337e-06
  +1.39698492462e-06
  +1.40703517588e-06
  +1.41708542714e-06
  +1.42713567839e-06
  +1.43718592965e-06
  +1.44723618090e-06
  +1.45728643216e-06
  +1.46733668342e-06
  +1.47738693467e-06
  +1.48743718593e-06
  +1.49748743719e-06
  +1.50753768844e-06
  +1.51758793970e-06
  +1.52763819095e-06
  +1.53768844221e-06
  +1.54773869347e-06
  +1.55778894472e-06
  +1.56783919598e-06
  +1.57788944724e-06
  +1.58793969849e-06
  +1.59798994975e-06
  +1.60804020101e-06
  +1.61809045226e-06
  +1.62814070352e-06
  +1.63819095477e-06
  +1.64824120603e-06
  +1.65829145729e-06
  +1.66834170854e-06
  +1.67839195980e-06
  +1.68844221106e-06
  +1.69849246231e-06
  +1.70854271357e-06
  +1.71859296482e-06
  +1.72864321608e-06
  +1.73869346734e-06
  +1.74874371859e-06
  +1.75879396985e-06
  +1.76884422111e-06
  +1.77889447236e-06
  +1.78894472362e-06
  +1.79899497487e-06
  +1.80904522613e-06
  +1.81909547739e-06
  +1.82914572864e-06
  +1.83919597990e-06
  +1.84924623116e-06
  +1.85929648241e-06
  +1.86934673367e-06
  +1.87939698492e-06
  +1.88944723618e-06
  +1.89949748744e-06
  +1.90954773869e-06
  +1.91959798995e-06
  +1.92964824121e-06
  +1.93969849246e-06
  +1.94974874372e-06
  +1.95979899497e-06
  +1.96984924623e-06
  +1.97989949749e-06
  +1.98994974874e-06
  +2.00000000000e-06
</indep>
<dep V1.It time>
  +0.00000000000e+00
  -1.77747543178e-06
  -5.95659156367e-07
  +8.19113603764e-07
  +1.95566563510e-06
  +6.75087467717e-06
  +5.46481391447e-06
  +1.95553110390e-06
  -2.26264723943e-06
  -5.62935043018e-06
  -6.84438482452e-06
  -5.37352440850e-06
  -1.85288284551e-06
  +2.38811865835e-06
  +5.71010191236e-06
  +6.84166732599e-06
  +5.33350192928e-06
  +1.77484262246e-06
  -2.46122117180e-06
  -5.74205545362e-06
  -6.80204077380e-06
  -5.27085424028e-06
  -1.63401507198e-06
  +2.55334495196e-06
  +5.84211654081e-06
  +6.78500902817e-06
  +5.15536255284e-06
  +1.57722541551e-06
  -2.65108125224e-06
  -5.84706577641e-06
  -6.77447998891e-06
  -5.14435299927e-06
  -1.41498026498e-06
  +2.74498837280e-06
  +5.96139587602e-06
  +6.76343580520e-06
  +5.07205651732e-06
  +1.30733318238e-06
  -2.84062974621e-06
  -6.01377714486e-06
  -6.81119058419e-06
  -4.92820472304e-06
  -1.27335638195e-06
  +3.01113188548e-06
  +5.99553222321e-06
  +6.80579451431e-06
  +4.85290500453e-06
  +1.16672207325e-06
  -3.10850713579e-06
  -6.11797240544e-06
  -6.78697124100e-06
  -4.77740158406e-06
  -1.05918937257e-06
  +3.20147049284e-06
  +6.09343531275e-06
  +6.76918206654e-06
  +4.68858851375e-06
  +8.64726537323e-07
  -3.20857665792e-06
  -6.12574466480e-06
  -6.65545756842e-06
  -4.59690639500e-06
  -7.44045085209e-07
  +3.41713249338e-06
  +6.28171926873e-06
  +6.74562482879e-06
  +4.51343737626e-06
  +6.35156115210e-07
  -3.38162788804e-06
  -6.33254350229e-06
  -6.72919623174e-06
  -4.55459762992e-06
  -6.47459481890e-07
  +3.48529053942e-06
  +6.24970946694e-06
  +6.57960019586e-06
  +4.34772855898e-06
  +4.14689554595e-07
  -3.56432751594e-06
  -6.41997942478e-06
  -6.54934943255e-06
  -4.40372690056e-06
  -3.01538957245e-07
  +3.79759032524e-06
  +6.31482417512e-06
  +6.66403504449e-06
  +4.17132072919e-06
  +3.55113381034e-07
  -3.89830519571e-06
  -6.51033072865e-06
  -6.48128794962e-06
  -4.24730945099e-06
  -8.03990813511e-08
  +3.82271511218e-06
  +6.54626735777e-06
  +6.45021233021e-06
  +4.16120700795e-06
  -2.73304867106e-08
  -3.91003069668e-06
  -6.41393747850e-06
  -6.56857595225e-06
  -4.06040233498e-06
  +1.25061896931e-07
  +4.00433963185e-06
  +6.60486926770e-06
  +6.52965449363e-06
  +3.83394598227e-06
  -2.33841100915e-07
  -4.09187836864e-06
  -6.48868050233e-06
  -6.49466853271e-06
  -3.73562315756e-06
  +3.50499395005e-07
  +4.32799358001e-06
  +6.66309856869e-06
  +6.45881142559e-06
  +3.79128489678e-06
  -3.14072005235e-07
  -4.26872809609e-06
  -6.67888287764e-06
  -6.41054043553e-06
  -3.69205647828e-06
  +4.28088354714e-07
  +4.36081273842e-06
  +6.58932075233e-06
  +6.25410851705e-06
  +3.48446262920e-06
  -6.53482036378e-07
  -4.55825369751e-06
  -6.60812666549e-06
  -6.21073607125e-06
  -3.50530107631e-06
  +7.55756308755e-07
  +4.52165165632e-06
  +6.74728776815e-06
  +6.27734641610e-06
  +3.29638916316e-06
  -8.69164164200e-07
  -4.59664036584e-06
  -6.65007573715e-06
  -6.22707544264e-06
  -3.30593342704e-06
  +9.56281062851e-07
  +4.69448298563e-06
  +6.77642052299e-06
  +6.08924454138e-06
  +3.21014910434e-06
  -1.06345119659e-06
  -4.85519390501e-06
  -6.79141874768e-06
  -6.11582056328e-06
  -3.09837643799e-06
  +1.09903041416e-06
  +4.91581044330e-06
  +6.74231786369e-06
  +6.01225768596e-06
  +2.94849645693e-06
  -1.25798800117e-06
  -4.98892194379e-06
  -6.80240778636e-06
  -6.00083525798e-06
  -2.89327390159e-06
  +1.32179622565e-06
  +5.01868246137e-06
  +6.77154830805e-06
  +5.90433831252e-06
  +2.75152304913e-06
  -1.41983813901e-06
  -5.08440817637e-06
  -6.77477747723e-06
  -5.84401436493e-06
  -2.69907390757e-06
  +1.56991435538e-06
  +5.20268175663e-06
  +6.79034589572e-06
  +5.79379310767e-06
  +2.55243551423e-06
  -1.68130423618e-06
  -5.27722425390e-06
  -6.79512236098e-06
  -5.72444823646e-06
  -2.51647039560e-06
  +1.79635676636e-06
  +5.35897562765e-06
  +6.78605296073e-06
  +5.74275550242e-06
  +2.33161113363e-06
  -1.81868605704e-06
  -5.43053680434e-06
  -6.87223776391e-06
  -5.68687135134e-06
  -2.31941856192e-06
  +1.92600480667e-06
  +5.41199927812e-06
  +6.79406631215e-06
  +5.53916228948e-06
  +2.13128586257e-06
  -2.11344398370e-06
  -5.47437311652e-06
  -6.87866069992e-06
</dep>
<dep V3.It time>
  +0.00000000000e+00
  +3.24946771566e-06
  +7.88378981052e-07
  -1.07389550037e-06
  -3.57524298113e-06
  -1.87380066165e-05
  -2.55597728711e-03
  -1.02477119162e-03
  -4.03433294603e-04
  -7.99311721329e-06
  +1.13415181210e-05
  +8.07678419966e-06
  +2.70148387374e-06
  -3.45364554437e-06
  -8.61210963271e-06
  -1.15649692169e-05
  -8.12204426540e-05
  -3.83989174727e-04
  -3.06468130791e-04
  +1.40438096086e-05
  +1.09631221181e-05
  +7.79449650813e-06
  +2.35973372897e-06
  -3.68732873510e-06
  -8.73596918323e-06
  -1.12989817504e-05
  -3.12635278827e-05
  -3.19841601635e-04
  -2.30441806756e-04
  +1.19265359498e-05
  +1.07064949978e-05
  +7.52724610053e-06
  +2.03480392394e-06
  -3.94542846023e-06
  -8.86486128307e-06
  -1.11465053109e-05
  -1.59207037058e-05
  -2.71657965519e-04
  -1.68915345987e-04
  +1.13625815358e-05
  +1.05743760161e-05
  +7.18316511182e-06
  +1.80149983780e-06
  -4.28977218087e-06
  -8.91306834747e-06
  -1.11161952612e-05
  -1.34168702433e-05
  -2.34553372978e-04
  -1.17368406419e-04
  +1.10698529327e-05
  +1.04120258504e-05
  +6.92360990839e-06
  +1.49156685136e-06
  -4.55128319375e-06
  -9.04249454970e-06
  -1.10267590882e-05
  -1.20834630080e-05
  -2.04959014757e-04
  -7.33226475452e-05
  +1.07968654923e-05
  +1.01495739415e-05
  +6.63519020037e-06
  +1.06976648766e-06
  -4.84635288747e-06
  -9.28131858520e-06
  -1.09744486785e-05
  -1.14116633360e-05
  -1.80905835318e-04
  -3.48225748389e-05
  +1.08597833024e-05
  +1.01440050626e-05
  +6.51824010600e-06
  +9.04196722305e-07
  -4.96698315675e-06
  -9.26864277911e-06
  -1.07653209145e-05
  -1.08898078142e-05
  -1.60806983198e-04
  -2.33205609074e-06
  +1.08183763274e-05
  +9.84271276203e-06
  +6.27735032979e-06
  +4.44103014474e-07
  -5.37756589600e-06
  -9.37535189673e-06
  -1.08609045116e-05
  -1.04362521983e-05
  -1.43739204754e-04
  +1.24008244737e-05
  +1.07879172388e-05
  +9.68926125138e-06
  +6.03295473939e-06
  +1.33062475357e-07
  -5.44795481346e-06
  -9.68060144115e-06
  -1.06104285907e-05
  -1.02948126872e-05
  -1.28261229670e-04
  +1.07235909602e-05
  +1.05757211354e-05
  +9.72385105051e-06
  +5.75532743707e-06
  -1.57577075800e-07
  -5.70515657644e-06
  -9.78249523644e-06
  -1.07134786348e-05
  -9.89465196415e-06
  -1.14426442762e-04
  +9.66893842782e-06
  +1.05686755408e-05
  +9.57077715075e-06
  +5.31540814942e-06
  -4.70385711796e-07
  -6.13079114921e-06
  -9.88558471020e-06
  -1.06414034141e-05
  -9.81669579745e-06
  -1.01721893329e-04
  +9.33243289254e-06
  +1.07183359473e-05
  +9.40828897905e-06
  +5.21062988337e-06
  -6.09796807834e-07
  -6.21356716884e-06
  -9.83528851697e-06
  -1.04143392431e-05
  -9.50020221992e-06
  -8.93421218252e-05
  +9.37120996449e-06
  +1.05607103127e-05
  +9.11278685288e-06
  +4.93779778087e-06
  -1.04240122192e-06
  -6.44692139018e-06
  -1.00571702013e-05
  -1.04565129989e-05
  -9.48143758915e-06
  -7.74889872273e-05
  +9.20286673713e-06
  +1.05417424545e-05
  +9.07484454617e-06
  +4.65325916759e-06
  -1.32817238242e-06
  -6.69209491533e-06
  -1.01322364859e-05
  -1.02503271699e-05
  -9.56023293152e-06
  -6.58265583079e-05
  +9.35925002162e-06
  +1.06474046504e-05
  +8.88753496702e-06
  +4.35837976066e-06
  -1.53933994884e-06
  -7.00146360093e-06
  -1.01257918097e-05
  -1.01782491412e-05
  -9.30109402792e-06
  -5.41877606935e-05
  +9.39920448160e-06
  +1.06017038045e-05
  +8.69787291322e-06
  +4.06696776263e-06
  -1.84812771453e-06
  -7.16342074106e-06
  -1.01988940479e-05
  -1.00705275005e-05
  -9.20962727038e-06
  -4.25257786614e-05
  +9.40851098232e-06
  +1.05090846254e-05
  +8.45610258713e-06
  +3.78815657098e-06
  -2.19092576308e-06
  -7.42896391457e-06
  -1.02594740441e-05
  -9.95926663561e-06
  -9.14502886029e-06
  -3.06266808312e-05
  +9.55829662925e-06
  +1.04760941479e-05
  +8.26136726859e-06
  +3.52440767255e-06
  -2.50416462048e-06
  -7.65793913540e-06
  -1.02934633508e-05
  -9.92220900116e-06
  -9.80723547747e-06
  -1.88500391883e-05
  +9.66851870364e-06
  +1.05170277284e-05
  +8.16911303722e-06
  +3.24375546748e-06
  -2.69954159100e-06
  -7.76181613321e-06
  -1.03417658073e-05
  -9.69853012740e-06
  -1.27397593915e-05
  -7.20454191149e-06
  +9.65624171699e-06
  +1.04712259392e-05
</dep>
<dep V2.It time>
  +0.00000000000e+00
  -2.91043696907e-05
  -1.29722339094e-04
  -1.26873480183e-04
  -2.30971455449e-05
  +7.87730101511e-06
  +3.10471013582e-04
  +4.79281707059e-04
  +4.07914653435e-04
  +1.54105366345e-05
  -2.99490415288e-06
  -1.71425545985e-06
  -5.29368327771e-07
  +6.71308590680e-07
  +1.85050082980e-06
  +3.17057425697e-06
  +7.41756268931e-05
  +3.81729309063e-04
  +3.10247889973e-04
  -6.73326450611e-06
  -2.75886202854e-06
  -1.60781693755e-06
  -4.58782372852e-07
  +7.14084114523e-07
  +1.84960189124e-06
  +3.03883151141e-06
  +2.45899058681e-05
  +3.17919193911e-04
  +2.34191764742e-04
  -4.61268862539e-06
  -2.60320591273e-06
  -1.51781497103e-06
  -3.94995061618e-07
  +7.59975073631e-07
  +1.86113896437e-06
  +2.96150937734e-06
  +9.45686757007e-06
  +2.70090381398e-04
  +1.72758179145e-04
  -3.93508381785e-06
  -2.47981048770e-06
  -1.44352828295e-06
  -3.31945901088e-07
  +8.05727694517e-07
  +1.88139607953e-06
  +2.91646237954e-06
  +7.27830153686e-06
  +2.33181335279e-04
  +1.21442695225e-04
  -3.57809781896e-06
  -2.38378553259e-06
  -1.37428685186e-06
  -2.72234480860e-07
  +8.52949570762e-07
  +1.90624943290e-06
  +2.89127155087e-06
  +6.18839769424e-06
  +2.03958911308e-04
  +7.74591484323e-05
  -3.33728309486e-06
  -2.30216869962e-06
  -1.30953042994e-06
  -2.13936883328e-07
  +9.00813125590e-07
  +1.93449357538e-06
  +2.87778650586e-06
  +5.76143204322e-06
  +1.80192467275e-04
  +3.91186837007e-05
  -3.19179105919e-06
  -2.23261524023e-06
  -1.24832304503e-06
  -1.56855145048e-07
  +9.48965974306e-07
  +1.96500718249e-06
  +2.87291838986e-06
  +5.46299658240e-06
  +1.60367558416e-04
  +6.80983004886e-06
  -3.07777362322e-06
  -2.16378698363e-06
  -1.19019943267e-06
  -9.95606353340e-08
  +9.97485751322e-07
  +1.99713829825e-06
  +2.87395051657e-06
  +5.23830785667e-06
  +1.43378460249e-04
  -7.54736676841e-06
  -2.96568486657e-06
  -2.10822688326e-06
  -1.13115612650e-06
  -4.47412139827e-08
  +1.04586324395e-06
  +2.03036559673e-06
  +2.87886189722e-06
  +5.12601405496e-06
  +1.28365014122e-04
  -5.86853967582e-06
  -2.89272151873e-06
  -2.05098721115e-06
  -1.07463254855e-06
  +1.07899901197e-08
  +1.09391760825e-06
  +2.06408827299e-06
  +2.88713465253e-06
  +5.12992392122e-06
  +1.14783823376e-04
  -4.60923404887e-06
  -2.81822954935e-06
  -1.99705009753e-06
  -1.01849157432e-06
  +6.60543367610e-08
  +1.14233775929e-06
  +2.09780117490e-06
  +2.89759053740e-06
  +5.11526471668e-06
  +1.02182330998e-04
  -4.07174960514e-06
  -2.76237417265e-06
  -1.94593947365e-06
  -9.64384517050e-07
  +1.20300456234e-07
  +1.19044924351e-06
  +2.13243844946e-06
  +2.90974585843e-06
  +5.17320485545e-06
  +9.02103929462e-05
  -3.77865393329e-06
  -2.70446786356e-06
  -1.89347975584e-06
  -9.08955578103e-07
  +1.74991039057e-07
  +1.23824251835e-06
  +2.16650257856e-06
  +2.92337265661e-06
  +5.39015899813e-06
  +7.86202808038e-05
  -3.57464190231e-06
  -2.65379787997e-06
  -1.84255166655e-06
  -8.53969951742e-07
  +2.29043936849e-07
  +1.28594021455e-06
  +2.20094455661e-06
  +2.93772503556e-06
  +5.58035742807e-06
  +6.71936347053e-05
  -3.43309892976e-06
  -2.60586940965e-06
  -1.79319658689e-06
  -8.00273524412e-07
  +2.83337879034e-07
  +1.33314682505e-06
  +2.23478032118e-06
  +2.95300629190e-06
  +5.64624245979e-06
  +5.57910757226e-05
  -3.32308820086e-06
  -2.56072020447e-06
  -1.74408283566e-06
  -7.46021650161e-07
  +3.37203291134e-07
  +1.38021997266e-06
  +2.26818521443e-06
  +2.96793089111e-06
  +5.79857464922e-06
  +4.43209530433e-05
  -3.23271989883e-06
  -2.51745115030e-06
  -1.69502073306e-06
  -6.91599870216e-07
  +3.90546732587e-07
  +1.42691077944e-06
  +2.30136252920e-06
  +2.98354512426e-06
  +5.98092541821e-06
  +3.27384462600e-05
  -3.16017422677e-06
  -2.47433447472e-06
  -1.64561921318e-06
  -6.38280898932e-07
  +4.44392671798e-07
  +1.47353593528e-06
  +2.33402061709e-06
  +2.99936997338e-06
  +6.91594151470e-06
  +2.11230983987e-05
  -3.09995471425e-06
  -2.43226782323e-06
  -1.59739266606e-06
  -5.84034754598e-07
  +4.97642608847e-07
  +1.51928698105e-06
  +2.36686155566e-06
  +3.01486429968e-06
  +1.00977862488e-05
  +9.83155656836e-06
  -3.04828239722e-06
  -2.39141552845e-06
</dep>
<dep Drain.Vt time>
  +0.00000000000e+00
  +2.65598966278e+00
  +3.46232996284e+00
  +3.46631035010e+00
  +2.65200623338e+00
  -1.37472352556e-05
  +2.14616174775e+00
  +3.90479821776e+00
  +3.83686521787e+00
  +2.03506871849e+00
  +4.82554790248e+00
  +7.75452187067e+00
  +9.49736320512e+00
  +9.38696540342e+00
  +7.47020035508e+00
  +4.49319449704e+00
  +2.31247264670e+00
  +3.95569384339e+00
  +3.79099002429e+00
  +2.72745335215e+00
  +5.76846468262e+00
  +8.66156090255e+00
  +1.03219787790e+01
  +1.01135048287e+01
  +8.12051548268e+00
  +5.11760470272e+00
  +2.47402768328e+00
  +3.99993974066e+00
  +3.74022598785e+00
  +3.47448976660e+00
  +6.51942922127e+00
  +9.37434938959e+00
  +1.09507746433e+01
  +1.06445406179e+01
  +8.57743337629e+00
  +5.55209333896e+00
  +2.79554099479e+00
  +4.03850125873e+00
  +3.68518860208e+00
  +4.07633651996e+00
  +7.13602813716e+00
  +9.95006494420e+00
  +1.14410735076e+01
  +1.10374008073e+01
  +8.89834587299e+00
  +5.85386960337e+00
  +3.11750287203e+00
  +4.07154378153e+00
  +3.62665002990e+00
  +4.58204377012e+00
  +7.65627683808e+00
  +1.04268347398e+01
  +1.18309594301e+01
  +1.13303091221e+01
  +9.12148782040e+00
  +6.06109328889e+00
  +3.35855360545e+00
  +4.09918023413e+00
  +3.56598464792e+00
  +5.01834121050e+00
  +8.10502243654e+00
  +1.08294326483e+01
  +1.21453092113e+01
  +1.15482118161e+01
  +9.27186934008e+00
  +6.19871457904e+00
  +3.53932908254e+00
  +4.12148368542e+00
  +3.50670615175e+00
  +5.40284817920e+00
  +8.49970732945e+00
  +1.11753374166e+01
  +1.24016837826e+01
  +1.17087605554e+01
  +9.36720035481e+00
  +6.28443234846e+00
  +3.67213368746e+00
  +4.13859415083e+00
  +3.46637775924e+00
  +5.74795916309e+00
  +8.85220191874e+00
  +1.14763621887e+01
  +1.26119962313e+01
  +1.18239505506e+01
  +9.41953298412e+00
  +6.33028501409e+00
  +3.76841730530e+00
  +4.15053301803e+00
  +3.57555019097e+00
  +6.06339980780e+00
  +9.17181039656e+00
  +1.17420297932e+01
  +1.27857936966e+01
  +1.19034456471e+01
  +9.43859282541e+00
  +6.34598759543e+00
  +3.83823778691e+00
  +4.15744950215e+00
  +3.82326210382e+00
  +6.35457897765e+00
  +9.46446230080e+00
  +1.19781410527e+01
  +1.29290353876e+01
  +1.19532654183e+01
  +9.43045510351e+00
  +6.33761823383e+00
  +3.88765624003e+00
  +4.15937770891e+00
  +4.05057821648e+00
  +6.62688776424e+00
  +9.73509387927e+00
  +1.21897607428e+01
  +1.30468477720e+01
  +1.19786460089e+01
  +9.40040141966e+00
  +6.31045095197e+00
  +3.92055159623e+00
  +4.15644169129e+00
  +4.25801582654e+00
  +6.88371476012e+00
  +9.98730349527e+00
  +1.23805254483e+01
  +1.31429703870e+01
  +1.19834200318e+01
  +9.35233539538e+00
  +6.26837150476e+00
  +3.94166314645e+00
  +4.14868533530e+00
  +4.45308770843e+00
  +7.12799300338e+00
  +1.02238651190e+01
  +1.25532628709e+01
  +1.32203065944e+01
  +1.19705671855e+01
  +9.28927427962e+00
  +6.21440321194e+00
  +3.95481614542e+00
  +4.13627401673e+00
  +4.63968824968e+00
  +7.36193625336e+00
  +1.04470652261e+01
  +1.27103346643e+01
  +1.32813201451e+01
  +1.19426540918e+01
  +9.21384174483e+00
