<Qucs Dataset 0.0.18>
<indep time 200>
  +0.00000000000e+00
  +1.00502512563e-08
  +2.01005025126e-08
  +3.01507537688e-08
  +4.02010050251e-08
  +5.02512562814e-08
  +6.03015075377e-08
  +7.03517587940e-08
  +8.04020100503e-08
  +9.04522613065e-08
  +1.00502512563e-07
  +1.10552763819e-07
  +1.20603015075e-07
  +1.30653266332e-07
  +1.40703517588e-07
  +1.50753768844e-07
  +1.60804020101e-07
  +1.70854271357e-07
  +1.80904522613e-07
  +1.90954773869e-07
  +2.01005025126e-07
  +2.11055276382e-07
  +2.21105527638e-07
  +2.31155778894e-07
  +2.41206030151e-07
  +2.51256281407e-07
  +2.61306532663e-07
  +2.71356783920e-07
  +2.81407035176e-07
  +2.91457286432e-07
  +3.01507537688e-07
  +3.11557788945e-07
  +3.21608040201e-07
  +3.31658291457e-07
  +3.41708542714e-07
  +3.51758793970e-07
  +3.61809045226e-07
  +3.71859296482e-07
  +3.81909547739e-07
  +3.91959798995e-07
  +4.02010050251e-07
  +4.12060301508e-07
  +4.22110552764e-07
  +4.32160804020e-07
  +4.42211055276e-07
  +4.52261306533e-07
  +4.62311557789e-07
  +4.72361809045e-07
  +4.82412060302e-07
  +4.92462311558e-07
  +5.02512562814e-07
  +5.12562814070e-07
  +5.22613065327e-07
  +5.32663316583e-07
  +5.42713567839e-07
  +5.52763819095e-07
  +5.62814070352e-07
  +5.72864321608e-07
  +5.82914572864e-07
  +5.92964824121e-07
  +6.03015075377e-07
  +6.13065326633e-07
  +6.23115577889e-07
  +6.33165829146e-07
  +6.43216080402e-07
  +6.53266331658e-07
  +6.63316582915e-07
  +6.73366834171e-07
  +6.83417085427e-07
  +6.93467336683e-07
  +7.03517587940e-07
  +7.13567839196e-07
  +7.23618090452e-07
  +7.33668341709e-07
  +7.43718592965e-07
  +7.53768844221e-07
  +7.63819095477e-07
  +7.73869346734e-07
  +7.83919597990e-07
  +7.93969849246e-07
  +8.04020100503e-07
  +8.14070351759e-07
  +8.24120603015e-07
  +8.34170854271e-07
  +8.44221105528e-07
  +8.54271356784e-07
  +8.64321608040e-07
  +8.74371859296e-07
  +8.84422110553e-07
  +8.94472361809e-07
  +9.04522613065e-07
  +9.14572864322e-07
  +9.24623115578e-07
  +9.34673366834e-07
  +9.44723618090e-07
  +9.54773869347e-07
  +9.64824120603e-07
  +9.74874371859e-07
  +9.84924623116e-07
  +9.94974874372e-07
  +1.00502512563e-06
  +1.01507537688e-06
  +1.02512562814e-06
  +1.03517587940e-06
  +1.04522613065e-06
  +1.05527638191e-06
  +1.06532663317e-06
  +1.07537688442e-06
  +1.08542713568e-06
  +1.09547738693e-06
  +1.10552763819e-06
  +1.11557788945e-06
  +1.12562814070e-06
  +1.13567839196e-06
  +1.14572864322e-06
  +1.15577889447e-06
  +1.16582914573e-06
  +1.17587939698e-06
  +1.18592964824e-06
  +1.19597989950e-06
  +1.20603015075e-06
  +1.21608040201e-06
  +1.22613065327e-06
  +1.23618090452e-06
  +1.24623115578e-06
  +1.25628140704e-06
  +1.26633165829e-06
  +1.27638190955e-06
  +1.28643216080e-06
  +1.29648241206e-06
  +1.30653266332e-06
  +1.31658291457e-06
  +1.32663316583e-06
  +1.33668341709e-06
  +1.34673366834e-06
  +1.35678391960e-06
  +1.36683417085e-06
  +1.37688442211e-06
  +1.38693467337e-06
  +1.39698492462e-06
  +1.40703517588e-06
  +1.41708542714e-06
  +1.42713567839e-06
  +1.43718592965e-06
  +1.44723618090e-06
  +1.45728643216e-06
  +1.46733668342e-06
  +1.47738693467e-06
  +1.48743718593e-06
  +1.49748743719e-06
  +1.50753768844e-06
  +1.51758793970e-06
  +1.52763819095e-06
  +1.53768844221e-06
  +1.54773869347e-06
  +1.55778894472e-06
  +1.56783919598e-06
  +1.57788944724e-06
  +1.58793969849e-06
  +1.59798994975e-06
  +1.60804020101e-06
  +1.61809045226e-06
  +1.62814070352e-06
  +1.63819095477e-06
  +1.64824120603e-06
  +1.65829145729e-06
  +1.66834170854e-06
  +1.67839195980e-06
  +1.68844221106e-06
  +1.69849246231e-06
  +1.70854271357e-06
  +1.71859296482e-06
  +1.72864321608e-06
  +1.73869346734e-06
  +1.74874371859e-06
  +1.75879396985e-06
  +1.76884422111e-06
  +1.77889447236e-06
  +1.78894472362e-06
  +1.79899497487e-06
  +1.80904522613e-06
  +1.81909547739e-06
  +1.82914572864e-06
  +1.83919597990e-06
  +1.84924623116e-06
  +1.85929648241e-06
  +1.86934673367e-06
  +1.87939698492e-06
  +1.88944723618e-06
  +1.89949748744e-06
  +1.90954773869e-06
  +1.91959798995e-06
  +1.92964824121e-06
  +1.93969849246e-06
  +1.94974874372e-06
  +1.95979899497e-06
  +1.96984924623e-06
  +1.97989949749e-06
  +1.98994974874e-06
  +2.00000000000e-06
</indep>
<dep V1.It time>
  +0.00000000000e+00
  -1.77747543177e-06
  -5.95659156475e-07
  +8.19113603722e-07
  +1.95566563514e-06
  +6.75087466137e-06
  +5.46481591648e-06
  +1.95552910192e-06
  -2.26264523681e-06
  -5.62934841765e-06
  -6.84438684128e-06
  -5.37352239336e-06
  -1.85288083231e-06
  +2.38812067252e-06
  +5.71010385301e-06
  +6.84166908040e-06
  +5.33350367815e-06
  +1.77484435335e-06
  -2.46121942409e-06
  -5.74205429932e-06
  -6.80203964797e-06
  -5.27085545032e-06
  -1.63401395296e-06
  +2.55334389791e-06
  +5.84211759689e-06
  +6.78500799098e-06
  +5.15536151494e-06
  +1.57722645319e-06
  -2.65108020600e-06
  -5.84706473230e-06
  -6.77447893298e-06
  -5.14435405192e-06
  -1.41497921156e-06
  +2.74498731734e-06
  +5.96139692743e-06
  +6.76343474928e-06
  +5.07205757001e-06
  +1.30733213144e-06
  -2.84062869817e-06
  -6.01377819189e-06
  -6.81119161161e-06
  -4.92820343331e-06
  -1.27335767440e-06
  +3.01113360094e-06
  +5.99553144180e-06
  +6.80579633028e-06
  +4.85290392461e-06
  +1.16672309727e-06
  -3.10850825162e-06
  -6.11797352730e-06
  -6.78698487216e-06
  -4.77739129418e-06
  -1.05919966556e-06
  +3.20148412209e-06
  +6.09342707238e-06
  +6.76919567000e-06
  +4.68857175259e-06
  +8.64712899748e-07
  -3.20855968293e-06
  -6.12578709659e-06
  -6.65538099145e-06
  -4.59674238917e-06
  -7.43824799994e-07
  +3.41760850634e-06
  +6.28270891195e-06
  +6.74644789635e-06
  +4.51222065247e-06
  +6.33844017440e-07
  -3.51444098298e-06
  -6.32849888887e-06
  -6.73974043569e-06
  -4.42141709196e-06
  -6.72415867814e-07
  +3.61920959248e-06
  +6.23055223781e-06
  +6.72303266335e-06
  +4.32241312374e-06
  +3.86324801023e-07
  -3.72885451803e-06
  -6.25301022220e-06
  -6.71434890901e-06
  -4.23716061548e-06
  -4.74657672512e-07
  +3.81981199141e-06
  +6.29213643994e-06
  +6.68657125966e-06
  +4.15319254373e-06
  +1.71652262750e-07
  -3.71600548837e-06
  -6.52358401535e-06
  -6.65544151314e-06
  -4.06364531036e-06
  -2.65307935454e-07
  +4.00446525345e-06
  +6.56139909510e-06
  +6.62569624292e-06
  +3.97606521925e-06
  +1.62355478915e-07
  -4.10006341112e-06
  -6.60104381689e-06
  -6.39274885068e-06
  -4.09576270371e-06
  +1.57510356554e-07
  +3.97342448099e-06
  +6.63345466481e-06
  +6.35844620014e-06
  +4.00768480316e-06
  -2.65687233655e-07
  -4.26798369153e-06
  -6.45651397138e-06
  -6.52560216308e-06
  -3.91095677562e-06
  +1.74697622769e-07
  +4.15558217764e-06
  +6.49632627471e-06
  +6.29413817191e-06
  +3.62699894789e-06
  -4.78314525800e-07
  -4.23214280680e-06
  -6.51541760864e-06
  -6.24728916885e-06
  -3.73674301496e-06
  +5.89370592018e-07
  +4.31307864915e-06
  +6.74667565367e-06
  +6.40640494902e-06
  +3.44526399616e-06
  -4.94906042771e-07
  -4.40135616275e-06
  -6.75984786890e-06
  -6.17628254530e-06
  -3.53228180047e-06
  +7.80956166487e-07
  +4.49664056910e-06
  +6.76812159960e-06
  +6.14488629492e-06
  +3.43462104306e-06
  -8.84855230133e-07
  -4.57907599579e-06
  -6.78572499215e-06
  -6.25373521645e-06
  -3.33482195161e-06
  +8.42013430625e-07
  +4.66582486582e-06
  +6.66182261033e-06
  +6.06017869225e-06
  +3.09293862293e-06
  -1.09577353530e-06
  -4.88643608409e-06
  -6.67646248888e-06
  -6.00756887488e-06
  -2.99119368807e-06
  +1.20747358004e-06
  +4.96906661678e-06
  +6.84279243082e-06
  +6.11379537527e-06
  +3.05035396434e-06
  -1.15610444314e-06
  -5.04136611271e-06
  -6.85749945545e-06
  -6.04712151265e-06
  -2.93744445063e-06
  +1.28101811991e-06
  +4.98126511941e-06
  +6.73616385152e-06
  +5.86625136907e-06
  +2.71103198536e-06
  -1.37959024224e-06
  -5.17634394054e-06
  -6.86936231267e-06
  -5.93834208305e-06
  -2.74268564803e-06
  +1.48960653742e-06
  +5.12304477577e-06
  +6.75623792960e-06
  +5.75928660312e-06
  +2.63953108863e-06
  -1.59438086154e-06
  -5.31176348121e-06
  -6.75743597364e-06
  -5.81747258948e-06
  -2.42494332176e-06
  +1.70611408429e-06
  +5.37588557612e-06
  +6.77551633083e-06
  +5.76051200420e-06
  +2.32290847562e-06
  -1.91790764903e-06
  -5.43995663747e-06
  -6.77795727752e-06
  -5.69761745151e-06
  -2.22241505619e-06
  +2.02226766251e-06
  +5.39450277132e-06
  +6.88884945862e-06
  +5.62970229164e-06
  +2.22396953375e-06
  -2.02187219811e-06
  -5.56573396177e-06
  -6.78664397271e-06
</dep>
<dep V3.It time>
  +0.00000000000e+00
  +3.24946771567e-06
  +7.88378981003e-07
  -1.07389550032e-06
  -3.57524298091e-06
  -1.87380065917e-05
  -2.55597728792e-03
  -1.02477118911e-03
  -4.03433296632e-04
  -7.99311914383e-06
  +1.13415201703e-05
  +8.07678215053e-06
  +2.70148182675e-06
  -3.45364759233e-06
  -8.61211160331e-06
  -1.15649709896e-05
  -8.12204444258e-05
  -3.83989176463e-04
  -3.06468132723e-04
  +1.40438094599e-05
  +1.09631210112e-05
  +7.79449762573e-06
  +2.35973271442e-06
  -3.68732779111e-06
  -8.73597012890e-06
  -1.12989808221e-05
  -3.12635263842e-05
  -3.19841601979e-04
  -2.30441807196e-04
  +1.19265350178e-05
  +1.07064940371e-05
  +7.52724705822e-06
  +2.03480296380e-06
  -3.94542749711e-06
  -8.86486224128e-06
  -1.11465043462e-05
  -1.59207049723e-05
  -2.71657964130e-04
  -1.68915346539e-04
  +1.13625825048e-05
  +1.05743769494e-05
  +7.18316388539e-06
  +1.80150106016e-06
  -4.28977387794e-06
  -8.91306771576e-06
  -1.11161969073e-05
  -1.34168210638e-05
  -2.34553373220e-04
  -1.17368405044e-04
  +1.10698553279e-05
  +1.04120407388e-05
  +6.92359863196e-06
  +1.49157822248e-06
  -4.55129822071e-06
  -9.04248563145e-06
  -1.10267740869e-05
  -1.20830907304e-05
  -2.04959008967e-04
  -7.33227530165e-05
  +1.07971131873e-05
  +1.01497150712e-05
  +6.63512739058e-06
  +1.06956928360e-06
  -4.84683180829e-06
  -9.28234948466e-06
  -1.09753091758e-05
  -1.14121749790e-05
  -1.80904812439e-04
  -3.46604612051e-05
  +1.08497218800e-05
  +1.01536362522e-05
  +6.36132477287e-06
  +9.30630800962e-07
  -5.12429886357e-06
  -9.24869171361e-06
  -1.09330462734e-05
  -1.08678323702e-05
  -1.60779736966e-04
  -2.12275552930e-06
  +1.05957766692e-05
  +1.00397195301e-05
  +6.08183306578e-06
  +6.46165095690e-07
  -5.40137644971e-06
  -9.35085993670e-06
  -1.08851986468e-05
  -1.04532421863e-05
  -1.43529349150e-04
  +1.28782279932e-05
  +1.08010860548e-05
  +9.89295333547e-06
  +5.81798440105e-06
  +3.49139860882e-07
  -5.66038675361e-06
  -9.69402412654e-06
  -1.08158622831e-05
  -1.01417572090e-05
  -1.28492541163e-04
  +1.09582258143e-05
  +1.07944342673e-05
  +9.51648319072e-06
  +5.79446889812e-06
  -1.93376827119e-07
  -5.67111751065e-06
  -9.81387934925e-06
  -1.05129454983e-05
  -1.01208184440e-05
  -1.14405384927e-04
  +9.89097218901e-06
  +1.05362281960e-05
  +9.60342392194e-06
  +5.52005516313e-06
  -2.65506507854e-07
  -5.92996447609e-06
  -9.69131920396e-06
  -1.04493718791e-05
  -9.61773747088e-06
  -1.01546159220e-04
  +9.30498544683e-06
  +1.05249308819e-05
  +9.21753614694e-06
  +5.25455707191e-06
  -7.90166357723e-07
  -6.16600241474e-06
  -1.00106363843e-05
  -1.05841913010e-05
  -9.54442136446e-06
  -8.95225897487e-05
  +9.20176329972e-06
  +1.07302393044e-05
  +9.08094802374e-06
  +4.96105107629e-06
  -1.06377739810e-06
  -6.42559514702e-06
  -1.00742146924e-05
  -1.03093592128e-05
  -9.64177826698e-06
  -7.74633347674e-05
  +9.19148172256e-06
  +1.06932077218e-05
  +9.09614281968e-06
  +4.67691959439e-06
  -1.20028766131e-06
  -6.66938371994e-06
  -1.00037082363e-05
  -1.02273736208e-05
  -9.34570137958e-06
  -6.58157510403e-05
  +9.38169508069e-06
  +1.05204604394e-05
  +8.76819487568e-06
  +4.23987657019e-06
  -1.65908816491e-06
  -7.05250754370e-06
  -1.02365249483e-05
  -1.02903942170e-05
  -9.39863841899e-06
  -5.43171026392e-05
  +9.44562903113e-06
  +1.06542726031e-05
  +8.74016052786e-06
  +4.10705567442e-06
  -1.81168514207e-06
  -7.13064649840e-06
  -1.01684565244e-05
  -1.00364526689e-05
  -9.23383866636e-06
  -4.25898891370e-05
  +9.51166075283e-06
  +1.06130633956e-05
  +8.56020117151e-06
  +3.82978638840e-06
  -2.10259157746e-06
  -7.34129236389e-06
  -1.02297127617e-05
  -9.92877430231e-06
  -9.29224849496e-06
  -3.07455478014e-05
  +9.59023437477e-06
  +1.04429056357e-05
  +8.36435947858e-06
  +3.42330050346e-06
  -2.40451267514e-06
  -7.66762872372e-06
  -1.02913488841e-05
  -9.93344867753e-06
  -1.01367821773e-05
  -1.87818054398e-05
  +9.67036495786e-06
  +1.04133675822e-05
  +8.17101892494e-06
  +3.13634088397e-06
  -2.80613580973e-06
  -7.75201476599e-06
  -1.04462457990e-05
  -9.79828492371e-06
  -1.24181718046e-05
  -7.35186323470e-06
  +9.75563480801e-06
  +1.03712391157e-05
</dep>
<dep V2.It time>
  +0.00000000000e+00
  -2.91043696907e-05
  -1.29722339094e-04
  -1.26873480183e-04
  -2.30971455451e-05
  +7.87730101680e-06
  +3.10471013578e-04
  +4.79281707056e-04
  +4.07914653426e-04
  +1.54105365173e-05
  -2.99490415089e-06
  -1.71425545990e-06
  -5.29368327895e-07
  +6.71308590657e-07
  +1.85050083104e-06
  +3.17057426084e-06
  +7.41756269033e-05
  +3.81729309110e-04
  +3.10247890172e-04
  -6.73326540795e-06
  -2.75886194184e-06
  -1.60781694500e-06
  -4.58782371969e-07
  +7.14084115190e-07
  +1.84960189049e-06
  +3.03883151073e-06
  +2.45899052989e-05
  +3.17919193324e-04
  +2.34191764230e-04
  -4.61268864414e-06
  -2.60320591585e-06
  -1.51781496881e-06
  -3.94995062556e-07
  +7.59975074048e-07
  +1.86113896372e-06
  +2.96150937756e-06
  +9.45686787772e-06
  +2.70090380967e-04
  +1.72758178742e-04
  -3.93508383318e-06
  -2.47981048873e-06
  -1.44352827401e-06
  -3.31945902951e-07
  +8.05727717487e-07
  +1.88139610391e-06
  +2.91646217278e-06
  +7.27825311424e-06
  +2.33181334801e-04
  +1.21442694729e-04
  -3.57809932667e-06
  -2.38378555075e-06
  -1.37428688480e-06
  -2.72234538843e-07
  +8.52949691460e-07
  +1.90624950923e-06
  +2.89127118346e-06
  +6.18804407513e-06
  +2.03958920441e-04
  +7.74592389660e-05
  -3.33742998115e-06
  -2.30233970468e-06
  -1.30958868842e-06
  -2.13927207315e-07
  +9.00823175108e-07
  +1.93448509307e-06
  +2.87782267021e-06
  +5.76323721796e-06
  +1.80192878615e-04
  +3.91138830599e-05
  -3.18850352936e-06
  -2.23178729906e-06
  -1.24799782365e-06
  -1.57037874745e-07
  +9.49003554096e-07
  +1.96506547343e-06
  +2.87301146207e-06
  +5.46896183253e-06
  +1.60372779569e-04
  +6.79327600377e-06
  -3.05003905204e-06
  -2.16829531947e-06
  -1.18880420441e-06
  -1.00513120747e-07
  +9.97317258970e-07
  +1.99714805196e-06
  +2.87397036279e-06
  +5.27447834097e-06
  +1.43384702884e-04
  -8.23930223238e-06
  -2.96724652003e-06
  -2.10741705969e-06
  -1.13105610816e-06
  -4.46936586467e-08
  +1.04568712520e-06
  +2.03017535717e-06
  +2.87911826386e-06
  +5.19072138296e-06
  +1.28372161907e-04
  -5.87896866143e-06
  -2.89093167196e-06
  -2.05072613606e-06
  -1.07472539133e-06
  +1.07303709001e-08
  +1.09403831381e-06
  +2.06390236291e-06
  +2.88742306797e-06
  +5.15261384131e-06
  +1.14796602329e-04
  -4.62501811990e-06
  -2.81996456151e-06
  -1.99687181855e-06
  -1.01888332936e-06
  +6.58824112984e-08
  +1.14249507446e-06
  +2.09820057767e-06
  +2.89764800130e-06
  +5.10776541122e-06
  +1.02197692297e-04
  -4.08568605072e-06
  -2.75860052740e-06
  -1.94453473007e-06
  -9.63795673597e-07
  +1.20528448153e-07
  +1.19052457585e-06
  +2.13216203839e-06
  +2.91007989254e-06
  +5.25591553757e-06
  +9.02123553220e-05
  -3.78506154266e-06
  -2.70476418192e-06
  -1.89332682475e-06
  -9.08688330676e-07
  +1.74737590496e-07
  +1.23837429824e-06
  +2.16680974461e-06
  +2.92335642590e-06
  +5.39593798670e-06
  +7.86024891434e-05
  -3.57427659987e-06
  -2.65318486029e-06
  -1.84322604044e-06
  -8.54534805416e-07
  +2.29362380096e-07
  +1.28610762931e-06
  +2.20094986307e-06
  +2.93748564503e-06
  +5.49692338738e-06
  +6.72112148421e-05
  -3.42874709943e-06
  -2.60616468575e-06
  -1.79335711555e-06
  -8.00060781856e-07
  +2.83497071646e-07
  +1.33333967732e-06
  +2.23463139295e-06
  +2.95292947342e-06
  +5.63108333196e-06
  +5.58078511353e-05
  -3.31968327421e-06
  -2.55994092694e-06
  -1.74323636256e-06
  -7.45321791042e-07
  +3.37916396213e-07
  +1.38095516000e-06
  +2.26883168939e-06
  +2.96800256042e-06
  +5.86002380451e-06
  +4.43480165834e-05
  -3.23396792066e-06
  -2.51701360198e-06
  -1.69497907586e-06
  -6.91968098567e-07
  +3.91101398797e-07
  +1.42737031068e-06
  +2.30201247603e-06
  +2.98306832383e-06
  +6.03215523284e-06
  +3.27617004885e-05
  -3.16282270251e-06
  -2.47434172283e-06
  -1.64581604821e-06
  -6.38335756129e-07
  +4.44507867226e-07
  +1.47327158738e-06
  +2.33456765417e-06
  +2.99913538792e-06
  +7.24478237336e-06
  +2.11648491504e-05
  -3.10148753123e-06
  -2.43282373661e-06
  -1.59713996391e-06
  -5.84080659118e-07
  +4.97580007680e-07
  +1.51902047274e-06
  +2.36653261102e-06
  +3.01535243903e-06
  +9.67442889006e-06
  +9.87923077356e-06
  -3.04831703885e-06
  -2.39142635317e-06
</dep>
<dep Drain.Vt time>
  +0.00000000000e+00
  +2.65598966278e+00
  +3.46232996284e+00
  +3.46631035010e+00
  +2.65200623338e+00
  -1.37472178258e-05
  +2.14616174775e+00
  +3.90479821776e+00
  +3.83686521787e+00
  +2.03506871735e+00
  +4.82554790254e+00
  +7.75452187070e+00
  +9.49736320515e+00
  +9.38696540345e+00
  +7.47020035512e+00
  +4.49319449711e+00
  +2.31247264673e+00
  +3.95569384339e+00
  +3.79099002427e+00
  +2.72745334979e+00
  +5.76846469014e+00
  +8.66156090912e+00
  +1.03219787856e+01
  +1.01135048354e+01
  +8.12051548932e+00
  +5.11760470936e+00
  +2.47402768414e+00
  +3.99993974072e+00
  +3.74022598791e+00
  +3.47448977114e+00
  +6.51942922598e+00
  +9.37434939434e+00
  +1.09507746481e+01
  +1.06445406226e+01
  +8.57743338101e+00
  +5.55209334370e+00
  +2.79554100259e+00
  +4.03850125878e+00
  +3.68518860215e+00
  +4.07633652366e+00
  +7.13602814101e+00
  +9.95006494815e+00
  +1.14410735114e+01
  +1.10374008113e+01
  +8.89834587709e+00
  +5.85386960516e+00
  +3.11750239252e+00
  +4.07154378167e+00
  +3.62665002992e+00
  +4.58204375960e+00
  +7.65627684245e+00
  +1.04268347441e+01
  +1.18309594341e+01
  +1.13303091281e+01
  +9.12148782608e+00
  +6.06109329020e+00
  +3.35855007965e+00
  +4.09918014761e+00
  +3.56598491890e+00
  +5.01834081432e+00
  +8.10502179924e+00
  +1.08294331367e+01
  +1.21453103947e+01
  +1.15482130016e+01
  +9.27187034002e+00
  +6.19871603328e+00
  +3.53934820018e+00
  +4.12148290438e+00
  +3.50660833495e+00
  +5.40283758940e+00
  +8.49967214466e+00
  +1.11752972179e+01
  +1.24016385437e+01
  +1.17087175210e+01
  +9.36715753000e+00
  +6.28438988226e+00
  +3.67214990639e+00
  +4.13860910732e+00
  +3.46619815192e+00
  +5.74820561270e+00
  +8.85212609585e+00
  +1.14763453849e+01
  +1.26119559553e+01
  +1.18239181524e+01
  +9.41950234814e+00
  +6.33025447923e+00
  +3.76874780367e+00
  +4.15053950886e+00
  +3.56852837985e+00
  +6.06326588663e+00
  +9.17170015545e+00
  +1.17419124624e+01
  +1.27856758785e+01
  +1.19033256031e+01
  +9.43847266559e+00
  +6.34587192573e+00
  +3.83876582996e+00
  +4.15743694837e+00
  +3.82307835465e+00
  +6.35451715720e+00
  +9.46438518322e+00
  +1.19780603934e+01
  +1.29289550290e+01
  +1.19531868322e+01
  +9.43037348376e+00
  +6.33754137541e+00
  +3.88780314732e+00
  +4.15936545641e+00
  +4.05024803110e+00
  +6.62669774276e+00
  +9.73492294860e+00
  +1.21895840611e+01
  +1.30466732678e+01
  +1.19784747944e+01
  +9.40023264676e+00
  +6.31027879613e+00
  +3.92030419283e+00
  +4.15644087938e+00
  +4.25772375578e+00
  +6.88359953020e+00
  +9.98716456009e+00
  +1.23803783424e+01
  +1.31428197129e+01
  +1.19832678875e+01
  +9.35217972343e+00
  +6.26822196692e+00
  +3.94233617148e+00
  +4.14861715892e+00
  +4.45303813521e+00
  +7.12800450281e+00
  +1.02238811077e+01
  +1.25532800117e+01
  +1.32203185548e+01
  +1.19705829880e+01
  +9.28929182963e+00
  +6.21441752322e+00
  +3.95488828122e+00
  +4.13616909332e+00
  +4.63958630139e+00
  +7.36183673273e+00
  +1.04469528294e+01
  +1.27102233216e+01
  +1.32812175733e+01
  +1.19425499668e+01
  +9.21373600252e+00
