<Qucs Dataset 0.0.17>
<indep time 300>
  +0.00000000000e+00
  +1.00334448161e-08
  +2.00668896321e-08
  +3.01003344482e-08
  +4.01337792642e-08
  +5.01672240803e-08
  +6.02006688963e-08
  +7.02341137124e-08
  +8.02675585284e-08
  +9.03010033445e-08
  +1.00334448161e-07
  +1.10367892977e-07
  +1.20401337793e-07
  +1.30434782609e-07
  +1.40468227425e-07
  +1.50501672241e-07
  +1.60535117057e-07
  +1.70568561873e-07
  +1.80602006689e-07
  +1.90635451505e-07
  +2.00668896321e-07
  +2.10702341137e-07
  +2.20735785953e-07
  +2.30769230769e-07
  +2.40802675585e-07
  +2.50836120401e-07
  +2.60869565217e-07
  +2.70903010033e-07
  +2.80936454849e-07
  +2.90969899666e-07
  +3.01003344482e-07
  +3.11036789298e-07
  +3.21070234114e-07
  +3.31103678930e-07
  +3.41137123746e-07
  +3.51170568562e-07
  +3.61204013378e-07
  +3.71237458194e-07
  +3.81270903010e-07
  +3.91304347826e-07
  +4.01337792642e-07
  +4.11371237458e-07
  +4.21404682274e-07
  +4.31438127090e-07
  +4.41471571906e-07
  +4.51505016722e-07
  +4.61538461538e-07
  +4.71571906355e-07
  +4.81605351171e-07
  +4.91638795987e-07
  +5.01672240803e-07
  +5.11705685619e-07
  +5.21739130435e-07
  +5.31772575251e-07
  +5.41806020067e-07
  +5.51839464883e-07
  +5.61872909699e-07
  +5.71906354515e-07
  +5.81939799331e-07
  +5.91973244147e-07
  +6.02006688963e-07
  +6.12040133779e-07
  +6.22073578595e-07
  +6.32107023411e-07
  +6.42140468227e-07
  +6.52173913043e-07
  +6.62207357860e-07
  +6.72240802676e-07
  +6.82274247492e-07
  +6.92307692308e-07
  +7.02341137124e-07
  +7.12374581940e-07
  +7.22408026756e-07
  +7.32441471572e-07
  +7.42474916388e-07
  +7.52508361204e-07
  +7.62541806020e-07
  +7.72575250836e-07
  +7.82608695652e-07
  +7.92642140468e-07
  +8.02675585284e-07
  +8.12709030100e-07
  +8.22742474916e-07
  +8.32775919732e-07
  +8.42809364548e-07
  +8.52842809365e-07
  +8.62876254181e-07
  +8.72909698997e-07
  +8.82943143813e-07
  +8.92976588629e-07
  +9.03010033445e-07
  +9.13043478261e-07
  +9.23076923077e-07
  +9.33110367893e-07
  +9.43143812709e-07
  +9.53177257525e-07
  +9.63210702341e-07
  +9.73244147157e-07
  +9.83277591973e-07
  +9.93311036789e-07
  +1.00334448161e-06
  +1.01337792642e-06
  +1.02341137124e-06
  +1.03344481605e-06
  +1.04347826087e-06
  +1.05351170569e-06
  +1.06354515050e-06
  +1.07357859532e-06
  +1.08361204013e-06
  +1.09364548495e-06
  +1.10367892977e-06
  +1.11371237458e-06
  +1.12374581940e-06
  +1.13377926421e-06
  +1.14381270903e-06
  +1.15384615385e-06
  +1.16387959866e-06
  +1.17391304348e-06
  +1.18394648829e-06
  +1.19397993311e-06
  +1.20401337793e-06
  +1.21404682274e-06
  +1.22408026756e-06
  +1.23411371237e-06
  +1.24414715719e-06
  +1.25418060201e-06
  +1.26421404682e-06
  +1.27424749164e-06
  +1.28428093645e-06
  +1.29431438127e-06
  +1.30434782609e-06
  +1.31438127090e-06
  +1.32441471572e-06
  +1.33444816054e-06
  +1.34448160535e-06
  +1.35451505017e-06
  +1.36454849498e-06
  +1.37458193980e-06
  +1.38461538462e-06
  +1.39464882943e-06
  +1.40468227425e-06
  +1.41471571906e-06
  +1.42474916388e-06
  +1.43478260870e-06
  +1.44481605351e-06
  +1.45484949833e-06
  +1.46488294314e-06
  +1.47491638796e-06
  +1.48494983278e-06
  +1.49498327759e-06
  +1.50501672241e-06
  +1.51505016722e-06
  +1.52508361204e-06
  +1.53511705686e-06
  +1.54515050167e-06
  +1.55518394649e-06
  +1.56521739130e-06
  +1.57525083612e-06
  +1.58528428094e-06
  +1.59531772575e-06
  +1.60535117057e-06
  +1.61538461538e-06
  +1.62541806020e-06
  +1.63545150502e-06
  +1.64548494983e-06
  +1.65551839465e-06
  +1.66555183946e-06
  +1.67558528428e-06
  +1.68561872910e-06
  +1.69565217391e-06
  +1.70568561873e-06
  +1.71571906355e-06
  +1.72575250836e-06
  +1.73578595318e-06
  +1.74581939799e-06
  +1.75585284281e-06
  +1.76588628763e-06
  +1.77591973244e-06
  +1.78595317726e-06
  +1.79598662207e-06
  +1.80602006689e-06
  +1.81605351171e-06
  +1.82608695652e-06
  +1.83612040134e-06
  +1.84615384615e-06
  +1.85618729097e-06
  +1.86622073579e-06
  +1.87625418060e-06
  +1.88628762542e-06
  +1.89632107023e-06
  +1.90635451505e-06
  +1.91638795987e-06
  +1.92642140468e-06
  +1.93645484950e-06
  +1.94648829431e-06
  +1.95652173913e-06
  +1.96655518395e-06
  +1.97658862876e-06
  +1.98662207358e-06
  +1.99665551839e-06
  +2.00668896321e-06
  +2.01672240803e-06
  +2.02675585284e-06
  +2.03678929766e-06
  +2.04682274247e-06
  +2.05685618729e-06
  +2.06688963211e-06
  +2.07692307692e-06
  +2.08695652174e-06
  +2.09698996656e-06
  +2.10702341137e-06
  +2.11705685619e-06
  +2.12709030100e-06
  +2.13712374582e-06
  +2.14715719064e-06
  +2.15719063545e-06
  +2.16722408027e-06
  +2.17725752508e-06
  +2.18729096990e-06
  +2.19732441472e-06
  +2.20735785953e-06
  +2.21739130435e-06
  +2.22742474916e-06
  +2.23745819398e-06
  +2.24749163880e-06
  +2.25752508361e-06
  +2.26755852843e-06
  +2.27759197324e-06
  +2.28762541806e-06
  +2.29765886288e-06
  +2.30769230769e-06
  +2.31772575251e-06
  +2.32775919732e-06
  +2.33779264214e-06
  +2.34782608696e-06
  +2.35785953177e-06
  +2.36789297659e-06
  +2.37792642140e-06
  +2.38795986622e-06
  +2.39799331104e-06
  +2.40802675585e-06
  +2.41806020067e-06
  +2.42809364548e-06
  +2.43812709030e-06
  +2.44816053512e-06
  +2.45819397993e-06
  +2.46822742475e-06
  +2.47826086957e-06
  +2.48829431438e-06
  +2.49832775920e-06
  +2.50836120401e-06
  +2.51839464883e-06
  +2.52842809365e-06
  +2.53846153846e-06
  +2.54849498328e-06
  +2.55852842809e-06
  +2.56856187291e-06
  +2.57859531773e-06
  +2.58862876254e-06
  +2.59866220736e-06
  +2.60869565217e-06
  +2.61872909699e-06
  +2.62876254181e-06
  +2.63879598662e-06
  +2.64882943144e-06
  +2.65886287625e-06
  +2.66889632107e-06
  +2.67892976589e-06
  +2.68896321070e-06
  +2.69899665552e-06
  +2.70903010033e-06
  +2.71906354515e-06
  +2.72909698997e-06
  +2.73913043478e-06
  +2.74916387960e-06
  +2.75919732441e-06
  +2.76923076923e-06
  +2.77926421405e-06
  +2.78929765886e-06
  +2.79933110368e-06
  +2.80936454849e-06
  +2.81939799331e-06
  +2.82943143813e-06
  +2.83946488294e-06
  +2.84949832776e-06
  +2.85953177258e-06
  +2.86956521739e-06
  +2.87959866221e-06
  +2.88963210702e-06
  +2.89966555184e-06
  +2.90969899666e-06
  +2.91973244147e-06
  +2.92976588629e-06
  +2.93979933110e-06
  +2.94983277592e-06
  +2.95986622074e-06
  +2.96989966555e-06
  +2.97993311037e-06
  +2.98996655518e-06
  +3.00000000000e-06
</indep>
<dep Vp.It time>
  -1.89367900940e-03
  -1.89367900940e-03
  -1.89367900940e-03
  -1.89367900940e-03
  -1.89367900940e-03
  -1.89367900940e-03
  -1.89367900940e-03
  -1.89367900940e-03
  -1.89367900940e-03
  -1.89367900940e-03
  -1.89367900940e-03
  -1.89367900940e-03
  -1.89367900940e-03
  -1.89367900940e-03
  -1.89367900940e-03
  -1.89367900940e-03
  -1.89367900940e-03
  -1.89367900940e-03
  -1.89367900940e-03
  -1.89367900940e-03
  -1.89367900940e-03
  -1.89367900940e-03
  -1.89367900941e-03
  -1.89367900941e-03
  -1.89367900941e-03
  -1.89367900940e-03
  -1.89367900940e-03
  -1.89367900939e-03
  -1.89367900939e-03
  -1.89367900940e-03
  -1.89367900941e-03
  -1.89367900943e-03
  -1.89367900944e-03
  -1.89367900943e-03
  -1.89367900940e-03
  -1.89367900935e-03
  -1.89367900930e-03
  -1.89367900928e-03
  -1.89367900933e-03
  -1.89367900947e-03
  -1.89367900966e-03
  -1.89367900981e-03
  -1.89367900979e-03
  -1.89367900947e-03
  -1.89367900888e-03
  -1.89367900821e-03
  -1.89367900789e-03
  -1.89367900839e-03
  -1.89367900996e-03
  -1.89367901229e-03
  -1.89367901433e-03
  -1.89367901443e-03
  -1.89367901109e-03
  -1.89367900412e-03
  -1.89367899572e-03
  -1.89367899069e-03
  -1.89367899503e-03
  -1.89367901259e-03
  -1.89367904083e-03
  -1.89367906789e-03
  -1.89367907403e-03
  -1.89367903958e-03
  -1.89367895874e-03
  -1.89367885386e-03
  -1.89367878045e-03
  -1.89367881288e-03
  -1.89367900628e-03
  -1.89367934398e-03
  -1.89367969637e-03
  -1.89367982830e-03
  -1.89367948570e-03
  -1.89367855894e-03
  -1.89367726546e-03
  -1.89367623848e-03
  -1.89367639062e-03
  -1.89367848218e-03
  -1.89368247857e-03
  -1.89368699050e-03
  -1.89368924862e-03
  -1.89368602147e-03
  -1.89367552896e-03
  -1.89365975144e-03
  -1.89364581735e-03
  -1.89364481539e-03
  -1.89366694998e-03
  -1.89371374775e-03
  -1.89377064879e-03
  -1.89380543563e-03
  -1.89377769985e-03
  -1.89366072477e-03
  -1.89347010885e-03
  -1.89328481677e-03
  -1.89323946380e-03
  -1.89346926147e-03
  -1.89401225861e-03
  -1.89471489745e-03
  -1.89521191610e-03
  -1.89502448082e-03
  -1.89377058109e-03
  -1.89147486876e-03
  -1.88895367245e-03
  -1.88799871143e-03
  -1.89059863126e-03
  -1.89702129175e-03
  -1.90486872170e-03
  -1.91059870888e-03
  -1.91093496490e-03
  -1.90212004211e-03
  -1.87663071813e-03
  -1.82589749117e-03
  -1.80015789019e-03
  -1.87870439280e-03
  -1.94836363882e-03
  -2.00777227137e-03
  -2.06700289396e-03
  -2.11082920602e-03
  -2.12638207009e-03
  -2.10653572735e-03
  -2.05124727654e-03
  -1.96729973616e-03
  -1.59004899820e-03
  -7.21016556313e-04
  -1.94519520948e-03
  -2.30137639362e-03
  -2.81909564220e-03
  -3.38854570847e-03
  -3.89058068539e-03
  -4.22056999846e-03
  -4.30854466722e-03
  -4.13340219866e-03
  -3.72579703321e-03
  -3.16193568355e-03
  -2.54795632311e-03
  -1.99860521406e-03
  +3.73353040224e-03
  +2.48077700792e-03
  -1.93182944190e-03
  -2.36263402483e-03
  -2.93869222504e-03
  -3.54113723148e-03
  -4.04428624092e-03
  -4.34378943359e-03
  -4.37643705962e-03
  -4.13195088828e-03
  -3.65481758782e-03
  -3.03492791416e-03
  -2.38928769761e-03
  -1.14375346988e-03
  +4.73419403843e-03
  +2.27279018573e-03
  -1.98696663368e-03
  -2.45837796504e-03
  -3.05748331320e-03
  -3.65812819346e-03
  -4.13534111844e-03
  -4.38986243742e-03
  -4.36741508547e-03
  -4.06886558401e-03
  -3.54942870592e-03
  -2.90719617105e-03
  -2.26333682118e-03
  +1.40124563621e-03
  +4.73398231088e-03
  +1.43664928889e-03
  -2.05807225013e-03
  -2.56382225615e-03
  -3.17488867615e-03
  -3.76268695245e-03
  -4.20539891618e-03
  -4.41109599420e-03
  -4.33529490237e-03
  -3.98925860831e-03
  -3.43742653729e-03
  -2.78403380887e-03
  -2.15199865257e-03
  +3.52291163764e-03
  +4.51030639542e-03
  +4.15416475687e-04
  -2.13706167083e-03
  -2.67151654814e-03
  -3.28846918478e-03
  -3.85853008462e-03
  -4.26373878191e-03
  -4.41952460160e-03
  -4.29135967166e-03
  -3.90095172233e-03
  -3.32139787046e-03
  -2.66220663375e-03
  -2.04714826322e-03
  +4.57375361681e-03
  +4.09374771904e-03
  -7.16485845819e-04
  -2.22350735405e-03
  -2.78256126949e-03
  -3.40069031567e-03
  -3.94859901048e-03
  -4.31300288465e-03
  -4.41752458121e-03
  -4.23773464411e-03
  -3.80544924695e-03
  -3.20194930728e-03
  -2.54133099032e-03
  -1.94655093359e-03
  +4.99996135733e-03
  +3.50139474967e-03
  -1.76905018118e-03
  -2.31677712304e-03
  -2.89642216229e-03
  -3.51098439241e-03
  -4.03274881195e-03
  -4.35342642232e-03
  -4.40552346652e-03
  -4.17514389622e-03
  -3.70411126300e-03
  -3.08129460259e-03
  -2.42366815517e-03
  -1.39962757768e-03
  +5.00834577020e-03
  +2.76044194089e-03
  -1.95551578132e-03
  -2.41479356739e-03
  -3.01052006291e-03
  -3.61751834105e-03
  -4.10925210084e-03
  -4.38418145516e-03
  -4.38392112530e-03
  -4.10483474687e-03
  -3.59824240891e-03
  -2.95986940665e-03
  -2.30954354679e-03
  +8.93277905344e-05
  +4.85956584819e-03
  +1.88912163835e-03
  -2.02455808409e-03
  -2.51694656451e-03
  -3.12455686338e-03
  -3.71936808679e-03
  -4.17824241178e-03
  -4.40566878474e-03
  -4.35282890322e-03
  -4.02651313330e-03
  -3.48733397776e-03
  -2.83714159484e-03
  -2.19842698364e-03
  +2.84004705619e-03
  +4.65023040705e-03
  +8.89060044868e-04
  -2.10126991113e-03
  -2.62384386165e-03
  -3.23880481218e-03
  -3.81721958523e-03
  -4.23942671567e-03
  -4.41750099817e-03
  -4.31241080709e-03
  -3.94121350023e-03
  -3.37326619161e-03
  -2.71587768579e-03
  -2.09258447973e-03
  +4.20583910875e-03
  +4.30444877919e-03
  -2.03647736620e-04
  -2.18431430964e-03
  -2.73301500124e-03
  -3.35131940470e-03
  -3.90970075760e-03
  -4.29248801049e-03
  -4.41971144646e-03
  -4.26254673913e-03
  -3.84844763478e-03
  -3.25511470705e-03
  -2.59465992997e-03
  -1.99091526677e-03
  +4.87690385667e-03
  +3.78500906685e-03
  -1.35876526159e-03
  -2.27468883654e-03
  -2.84569325229e-03
  -3.46242744669e-03
  -3.99606183084e-03
  -4.33644252720e-03
  -4.41206555369e-03
  -4.20410994104e-03
  -3.74991843284e-03
  -3.13532103222e-03
  -2.47603483412e-03
  -1.82897688174e-03
  +5.04095622954e-03
  +3.11138141335e-03
  -1.92172244455e-03
  -2.37023925606e-03
  -2.95924818931e-03
  -3.57024468659e-03
  -4.07622679725e-03
  -4.37174715795e-03
  -4.39469004818e-03
  -4.13696496109e-03
  -3.64572688502e-03
  -3.01373528345e-03
  -2.35967822807e-03
  -5.84438281115e-04
</dep>
<dep Vn.It time>
  -1.91261579950e-03
  -1.91261579950e-03
  -1.91261579950e-03
  -1.91261579950e-03
  -1.91261579950e-03
  -1.91261579950e-03
  -1.91261579950e-03
  -1.91261579950e-03
  -1.91261579950e-03
  -1.91261579950e-03
  -1.91261579950e-03
  -1.91261579950e-03
  -1.91261579950e-03
  -1.91261579950e-03
  -1.91261579950e-03
  -1.91261579950e-03
  -1.91261579950e-03
  -1.91261579950e-03
  -1.91261579950e-03
  -1.91261579950e-03
  -1.91261579950e-03
  -1.91261579950e-03
  -1.91261579950e-03
  -1.91261579950e-03
  -1.91261579950e-03
  -1.91261579950e-03
  -1.91261579949e-03
  -1.91261579949e-03
  -1.91261579949e-03
  -1.91261579949e-03
  -1.91261579950e-03
  -1.91261579951e-03
  -1.91261579951e-03
  -1.91261579951e-03
  -1.91261579950e-03
  -1.91261579948e-03
  -1.91261579946e-03
  -1.91261579945e-03
  -1.91261579947e-03
  -1.91261579952e-03
  -1.91261579960e-03
  -1.91261579966e-03
  -1.91261579965e-03
  -1.91261579952e-03
  -1.91261579929e-03
  -1.91261579902e-03
  -1.91261579889e-03
  -1.91261579909e-03
  -1.91261579972e-03
  -1.91261580065e-03
  -1.91261580147e-03
  -1.91261580151e-03
  -1.91261580017e-03
  -1.91261579738e-03
  -1.91261579403e-03
  -1.91261579202e-03
  -1.91261579375e-03
  -1.91261580077e-03
  -1.91261581206e-03
  -1.91261582288e-03
  -1.91261582533e-03
  -1.91261581156e-03
  -1.91261577925e-03
  -1.91261573732e-03
  -1.91261570797e-03
  -1.91261572093e-03
  -1.91261579825e-03
  -1.91261593325e-03
  -1.91261607412e-03
  -1.91261612686e-03
  -1.91261598990e-03
  -1.91261561942e-03
  -1.91261510236e-03
  -1.91261469183e-03
  -1.91261475265e-03
  -1.91261558874e-03
  -1.91261718636e-03
  -1.91261899021e-03
  -1.91261989305e-03
  -1.91261860278e-03
  -1.91261440821e-03
  -1.91260810233e-03
  -1.91260253469e-03
  -1.91260213438e-03
  -1.91261097919e-03
  -1.91262969063e-03
  -1.91265246265e-03
  -1.91266639581e-03
  -1.91265528612e-03
  -1.91260849129e-03
  -1.91253244462e-03
  -1.91245876728e-03
  -1.91244077037e-03
  -1.91253210713e-03
  -1.91274941253e-03
  -1.91303374092e-03
  -1.91323703402e-03
  -1.91316015506e-03
  -1.91265243555e-03
  -1.91175154657e-03
  -1.91080254696e-03
  -1.91045354145e-03
  -1.91141707373e-03
  -1.91399273477e-03
  -1.91758146924e-03
  -1.92056564925e-03
  -1.92075135005e-03
  -1.91626335980e-03
  -1.90668341613e-03
  -1.89510215156e-03
  -1.89093338508e-03
  -1.90732311493e-03
  -1.94926157142e-03
  -2.00777846657e-03
  -2.06700293406e-03
  -2.11082920698e-03
  -2.12638207034e-03
  -2.10653572873e-03
  -2.05124742983e-03
  -1.96749059717e-03
  -1.86917269506e-03
  -1.81602512437e-03
  -1.94637660733e-03
  -2.30137639362e-03
  -2.81909564220e-03
  -3.38854570847e-03
  -3.89058068533e-03
  -4.22056999846e-03
  -4.30854466722e-03
  -4.13340219866e-03
  -3.72579703321e-03
  -3.16193568355e-03
  -2.54795632311e-03
  -1.99861872146e-03
  -1.67734440838e-03
  -1.70224420112e-03
  -1.93498014540e-03
  -2.36263402483e-03
  -2.93869222504e-03
  -3.54113723148e-03
  -4.04428624092e-03
  -4.34378943359e-03
  -4.37643705962e-03
  -4.13195088828e-03
  -3.65481758782e-03
  -3.03492791416e-03
  -2.38928769761e-03
  -1.83950265351e-03
  -1.61914174893e-03
  -1.70943614619e-03
  -1.98700293899e-03
  -2.45837796504e-03
  -3.05748331320e-03
  -3.65812819346e-03
  -4.13534111844e-03
  -4.38986243742e-03
  -4.36741508547e-03
  -4.06886558401e-03
  -3.54942870591e-03
  -2.90719617105e-03
  -2.26333682118e-03
  -1.74791463986e-03
  -1.60920077824e-03
  -1.74533151437e-03
  -2.05807233588e-03
  -2.56382225615e-03
  -3.17488867615e-03
  -3.76268695245e-03
  -4.20539891618e-03
  -4.41109599420e-03
  -4.33529490237e-03
  -3.98925860830e-03
  -3.43742653729e-03
  -2.78403380887e-03
  -2.15199865260e-03
  -1.69067041883e-03
  -1.61563830351e-03
  -1.78983593679e-03
  -2.13706167093e-03
  -2.67151654814e-03
  -3.28846918478e-03
  -3.85853008462e-03
  -4.26373878191e-03
  -4.41952460160e-03
  -4.29135967165e-03
  -3.90095172233e-03
  -3.32139787046e-03
  -2.66220663374e-03
  -2.04714848050e-03
  -1.65165868847e-03
  -1.63203371330e-03
  -1.84002759646e-03
  -2.22350735405e-03
  -2.78256126949e-03
  -3.40069031567e-03
  -3.94859901048e-03
  -4.31300288465e-03
  -4.41752458121e-03
  -4.23773464411e-03
  -3.80544924695e-03
  -3.20194930727e-03
  -2.54133099032e-03
  -1.94758593774e-03
  -1.62594181021e-03
  -1.65666202345e-03
  -1.89509526813e-03
  -2.31677712304e-03
  -2.89642216229e-03
  -3.51098439241e-03
  -4.03274881195e-03
  -4.35342642232e-03
  -4.40552346652e-03
  -4.17514389621e-03
  -3.70411126300e-03
  -3.08129460259e-03
  -2.42366815517e-03
  -1.85538252200e-03
  -1.61131188809e-03
  -1.68816909157e-03
  -1.95602456343e-03
  -2.41479356739e-03
  -3.01052006291e-03
  -3.61751834105e-03
  -4.10925210084e-03
  -4.38418145516e-03
  -4.38392112530e-03
  -4.10483474687e-03
  -3.59824240890e-03
  -2.95986940665e-03
  -2.30954354679e-03
  -1.77481265017e-03
  -1.60633735656e-03
  -1.72567310527e-03
  -2.02455956957e-03
  -2.51694656451e-03
  -3.12455686338e-03
  -3.71936808678e-03
  -4.17824241178e-03
  -4.40566878474e-03
  -4.35282890322e-03
  -4.02651313330e-03
  -3.48733397776e-03
  -2.83714159484e-03
  -2.19842698364e-03
  -1.71161186606e-03
  -1.61059658032e-03
  -1.76911296655e-03
  -2.10126991330e-03
  -2.62384386165e-03
  -3.23880481218e-03
  -3.81721958522e-03
  -4.23942671567e-03
  -4.41750099817e-03
  -4.31241080709e-03
  -3.94121350023e-03
  -3.37326619160e-03
  -2.71587768579e-03
  -2.09258448427e-03
  -1.66683844055e-03
  -1.62353247231e-03
  -1.81710481848e-03
  -2.18431430963e-03
  -2.73301500124e-03
  -3.35131940470e-03
  -3.90970075760e-03
  -4.29248801049e-03
  -4.41971144646e-03
  -4.26254673913e-03
  -3.84844763478e-03
  -3.25511470705e-03
  -2.59465992997e-03
  -1.99094122638e-03
  -1.63581685021e-03
  -1.64477047066e-03
  -1.87011206570e-03
  -2.27468883654e-03
  -2.84569325229e-03
  -3.46242744669e-03
  -3.99606183084e-03
  -4.33644252720e-03
  -4.41206555369e-03
  -4.20410994104e-03
  -3.74991843284e-03
  -3.13532103222e-03
  -2.47603483412e-03
  -1.89565420381e-03
  -1.61660776268e-03
  -1.67318264768e-03
  -1.92771322449e-03
  -2.37023925606e-03
  -2.95924818929e-03
  -3.57024468658e-03
  -4.07622679724e-03
  -4.37174715795e-03
  -4.39469004818e-03
  -4.13696496109e-03
  -3.64572688501e-03
  -3.01373528345e-03
  -2.35967822807e-03
  -1.80883161678e-03
</dep>
<dep _net2.Vt time>
  -7.92245241108e-01
  -7.92245241108e-01
  -7.92245241108e-01
  -7.92245241108e-01
  -7.92245241108e-01
  -7.92245241108e-01
  -7.92245241108e-01
  -7.92245241108e-01
  -7.92245241108e-01
  -7.92245241108e-01
  -7.92245241108e-01
  -7.92245241108e-01
  -7.92245241107e-01
  -7.92245241107e-01
  -7.92245241107e-01
  -7.92245241107e-01
  -7.92245241108e-01
  -7.92245241108e-01
  -7.92245241108e-01
  -7.92245241108e-01
  -7.92245241108e-01
  -7.92245241107e-01
  -7.92245241106e-01
  -7.92245241105e-01
  -7.92245241106e-01
  -7.92245241108e-01
  -7.92245241112e-01
  -7.92245241115e-01
  -7.92245241116e-01
  -7.92245241111e-01
  -7.92245241101e-01
  -7.92245241087e-01
  -7.92245241078e-01
  -7.92245241082e-01
  -7.92245241108e-01
  -7.92245241152e-01
  -7.92245241197e-01
  -7.92245241214e-01
  -7.92245241168e-01
  -7.92245241046e-01
  -7.92245240878e-01
  -7.92245240746e-01
  -7.92245240770e-01
  -7.92245241047e-01
  -7.92245241569e-01
  -7.92245242154e-01
