<Qucs Dataset 0.0.18>
<indep Versus.0001 201>
  +1.00000000000e-01
  +1.05000000000e-01
  +1.10000000000e-01
  +1.15000000000e-01
  +1.20000000000e-01
  +1.25000000000e-01
  +1.30000000000e-01
  +1.35000000000e-01
  +1.40000000000e-01
  +1.45000000000e-01
  +1.50000000000e-01
  +1.55000000000e-01
  +1.60000000000e-01
  +1.65000000000e-01
  +1.70000000000e-01
  +1.75000000000e-01
  +1.80000000000e-01
  +1.85000000000e-01
  +1.90000000000e-01
  +1.95000000000e-01
  +2.00000000000e-01
  +2.05000000000e-01
  +2.10000000000e-01
  +2.15000000000e-01
  +2.20000000000e-01
  +2.25000000000e-01
  +2.30000000000e-01
  +2.35000000000e-01
  +2.40000000000e-01
  +2.45000000000e-01
  +2.50000000000e-01
  +2.55000000000e-01
  +2.60000000000e-01
  +2.65000000000e-01
  +2.70000000000e-01
  +2.75000000000e-01
  +2.80000000000e-01
  +2.85000000000e-01
  +2.90000000000e-01
  +2.95000000000e-01
  +3.00000000000e-01
  +3.05000000000e-01
  +3.10000000000e-01
  +3.15000000000e-01
  +3.20000000000e-01
  +3.25000000000e-01
  +3.30000000000e-01
  +3.35000000000e-01
  +3.40000000000e-01
  +3.45000000000e-01
  +3.50000000000e-01
  +3.55000000000e-01
  +3.60000000000e-01
  +3.65000000000e-01
  +3.70000000000e-01
  +3.75000000000e-01
  +3.80000000000e-01
  +3.85000000000e-01
  +3.90000000000e-01
  +3.95000000000e-01
  +4.00000000000e-01
  +4.05000000000e-01
  +4.10000000000e-01
  +4.15000000000e-01
  +4.20000000000e-01
  +4.25000000000e-01
  +4.30000000000e-01
  +4.35000000000e-01
  +4.40000000000e-01
  +4.45000000000e-01
  +4.50000000000e-01
  +4.55000000000e-01
  +4.60000000000e-01
  +4.65000000000e-01
  +4.70000000000e-01
  +4.75000000000e-01
  +4.80000000000e-01
  +4.85000000000e-01
  +4.90000000000e-01
  +4.95000000000e-01
  +5.00000000000e-01
  +5.05000000000e-01
  +5.10000000000e-01
  +5.15000000000e-01
  +5.20000000000e-01
  +5.25000000000e-01
  +5.30000000000e-01
  +5.35000000000e-01
  +5.40000000000e-01
  +5.45000000000e-01
  +5.50000000000e-01
  +5.55000000000e-01
  +5.60000000000e-01
  +5.65000000000e-01
  +5.70000000000e-01
  +5.75000000000e-01
  +5.80000000000e-01
  +5.85000000000e-01
  +5.90000000000e-01
  +5.95000000000e-01
  +6.00000000000e-01
  +6.05000000000e-01
  +6.10000000000e-01
  +6.15000000000e-01
  +6.20000000000e-01
  +6.25000000000e-01
  +6.30000000000e-01
  +6.35000000000e-01
  +6.40000000000e-01
  +6.45000000000e-01
  +6.50000000000e-01
  +6.55000000000e-01
  +6.60000000000e-01
  +6.65000000000e-01
  +6.70000000000e-01
  +6.75000000000e-01
  +6.80000000000e-01
  +6.85000000000e-01
  +6.90000000000e-01
  +6.95000000000e-01
  +7.00000000000e-01
  +7.05000000000e-01
  +7.10000000000e-01
  +7.15000000000e-01
  +7.20000000000e-01
  +7.25000000000e-01
  +7.30000000000e-01
  +7.35000000000e-01
  +7.40000000000e-01
  +7.45000000000e-01
  +7.50000000000e-01
  +7.55000000000e-01
  +7.60000000000e-01
  +7.65000000000e-01
  +7.70000000000e-01
  +7.75000000000e-01
  +7.80000000000e-01
  +7.85000000000e-01
  +7.90000000000e-01
  +7.95000000000e-01
  +8.00000000000e-01
  +8.05000000000e-01
  +8.10000000000e-01
  +8.15000000000e-01
  +8.20000000000e-01
  +8.25000000000e-01
  +8.30000000000e-01
  +8.35000000000e-01
  +8.40000000000e-01
  +8.45000000000e-01
  +8.50000000000e-01
  +8.55000000000e-01
  +8.60000000000e-01
  +8.65000000000e-01
  +8.70000000000e-01
  +8.75000000000e-01
  +8.80000000000e-01
  +8.85000000000e-01
  +8.90000000000e-01
  +8.95000000000e-01
  +9.00000000000e-01
  +9.05000000000e-01
  +9.10000000000e-01
  +9.15000000000e-01
  +9.20000000000e-01
  +9.25000000000e-01
  +9.30000000000e-01
  +9.35000000000e-01
  +9.40000000000e-01
  +9.45000000000e-01
  +9.50000000000e-01
  +9.55000000000e-01
  +9.60000000000e-01
  +9.65000000000e-01
  +9.70000000000e-01
  +9.75000000000e-01
  +9.80000000000e-01
  +9.85000000000e-01
  +9.90000000000e-01
  +9.95000000000e-01
  +1.00000000000e+00
  +1.00500000000e+00
  +1.01000000000e+00
  +1.01500000000e+00
  +1.02000000000e+00
  +1.02500000000e+00
  +1.03000000000e+00
  +1.03500000000e+00
  +1.04000000000e+00
  +1.04500000000e+00
  +1.05000000000e+00
  +1.05500000000e+00
  +1.06000000000e+00
  +1.06500000000e+00
  +1.07000000000e+00
  +1.07500000000e+00
  +1.08000000000e+00
  +1.08500000000e+00
  +1.09000000000e+00
  +1.09500000000e+00
  +1.10000000000e+00
</indep>
<indep Versus.0002 201>
  +1.00000000000e-01
  +1.05000000000e-01
  +1.10000000000e-01
  +1.15000000000e-01
  +1.20000000000e-01
  +1.25000000000e-01
  +1.30000000000e-01
  +1.35000000000e-01
  +1.40000000000e-01
  +1.45000000000e-01
  +1.50000000000e-01
  +1.55000000000e-01
  +1.60000000000e-01
  +1.65000000000e-01
  +1.70000000000e-01
  +1.75000000000e-01
  +1.80000000000e-01
  +1.85000000000e-01
  +1.90000000000e-01
  +1.95000000000e-01
  +2.00000000000e-01
  +2.05000000000e-01
  +2.10000000000e-01
  +2.15000000000e-01
  +2.20000000000e-01
  +2.25000000000e-01
  +2.30000000000e-01
  +2.35000000000e-01
  +2.40000000000e-01
  +2.45000000000e-01
  +2.50000000000e-01
  +2.55000000000e-01
  +2.60000000000e-01
  +2.65000000000e-01
  +2.70000000000e-01
  +2.75000000000e-01
  +2.80000000000e-01
  +2.85000000000e-01
  +2.90000000000e-01
  +2.95000000000e-01
  +3.00000000000e-01
  +3.05000000000e-01
  +3.10000000000e-01
  +3.15000000000e-01
  +3.20000000000e-01
  +3.25000000000e-01
  +3.30000000000e-01
  +3.35000000000e-01
  +3.40000000000e-01
  +3.45000000000e-01
  +3.50000000000e-01
  +3.55000000000e-01
  +3.60000000000e-01
  +3.65000000000e-01
  +3.70000000000e-01
  +3.75000000000e-01
  +3.80000000000e-01
  +3.85000000000e-01
  +3.90000000000e-01
  +3.95000000000e-01
  +4.00000000000e-01
  +4.05000000000e-01
  +4.10000000000e-01
  +4.15000000000e-01
  +4.20000000000e-01
  +4.25000000000e-01
  +4.30000000000e-01
  +4.35000000000e-01
  +4.40000000000e-01
  +4.45000000000e-01
  +4.50000000000e-01
  +4.55000000000e-01
  +4.60000000000e-01
  +4.65000000000e-01
  +4.70000000000e-01
  +4.75000000000e-01
  +4.80000000000e-01
  +4.85000000000e-01
  +4.90000000000e-01
  +4.95000000000e-01
  +5.00000000000e-01
  +5.05000000000e-01
  +5.10000000000e-01
  +5.15000000000e-01
  +5.20000000000e-01
  +5.25000000000e-01
  +5.30000000000e-01
  +5.35000000000e-01
  +5.40000000000e-01
  +5.45000000000e-01
  +5.50000000000e-01
  +5.55000000000e-01
  +5.60000000000e-01
  +5.65000000000e-01
  +5.70000000000e-01
  +5.75000000000e-01
  +5.80000000000e-01
  +5.85000000000e-01
  +5.90000000000e-01
  +5.95000000000e-01
  +6.00000000000e-01
  +6.05000000000e-01
  +6.10000000000e-01
  +6.15000000000e-01
  +6.20000000000e-01
  +6.25000000000e-01
  +6.30000000000e-01
  +6.35000000000e-01
  +6.40000000000e-01
  +6.45000000000e-01
  +6.50000000000e-01
  +6.55000000000e-01
  +6.60000000000e-01
  +6.65000000000e-01
  +6.70000000000e-01
  +6.75000000000e-01
  +6.80000000000e-01
  +6.85000000000e-01
  +6.90000000000e-01
  +6.95000000000e-01
  +7.00000000000e-01
  +7.05000000000e-01
  +7.10000000000e-01
  +7.15000000000e-01
  +7.20000000000e-01
  +7.25000000000e-01
  +7.30000000000e-01
  +7.35000000000e-01
  +7.40000000000e-01
  +7.45000000000e-01
  +7.50000000000e-01
  +7.55000000000e-01
  +7.60000000000e-01
  +7.65000000000e-01
  +7.70000000000e-01
  +7.75000000000e-01
  +7.80000000000e-01
  +7.85000000000e-01
  +7.90000000000e-01
  +7.95000000000e-01
  +8.00000000000e-01
  +8.05000000000e-01
  +8.10000000000e-01
  +8.15000000000e-01
  +8.20000000000e-01
  +8.25000000000e-01
  +8.30000000000e-01
  +8.35000000000e-01
  +8.40000000000e-01
  +8.45000000000e-01
  +8.50000000000e-01
  +8.55000000000e-01
  +8.60000000000e-01
  +8.65000000000e-01
  +8.70000000000e-01
  +8.75000000000e-01
  +8.80000000000e-01
  +8.85000000000e-01
  +8.90000000000e-01
  +8.95000000000e-01
  +9.00000000000e-01
  +9.05000000000e-01
  +9.10000000000e-01
  +9.15000000000e-01
  +9.20000000000e-01
  +9.25000000000e-01
  +9.30000000000e-01
  +9.35000000000e-01
  +9.40000000000e-01
  +9.45000000000e-01
  +9.50000000000e-01
  +9.55000000000e-01
  +9.60000000000e-01
  +9.65000000000e-01
  +9.70000000000e-01
  +9.75000000000e-01
  +9.80000000000e-01
  +9.85000000000e-01
  +9.90000000000e-01
  +9.95000000000e-01
  +1.00000000000e+00
  +1.00500000000e+00
  +1.01000000000e+00
  +1.01500000000e+00
  +1.02000000000e+00
  +1.02500000000e+00
  +1.03000000000e+00
  +1.03500000000e+00
  +1.04000000000e+00
  +1.04500000000e+00
  +1.05000000000e+00
  +1.05500000000e+00
  +1.06000000000e+00
  +1.06500000000e+00
  +1.07000000000e+00
  +1.07500000000e+00
  +1.08000000000e+00
  +1.08500000000e+00
  +1.09000000000e+00
  +1.09500000000e+00
  +1.10000000000e+00
</indep>
<indep Vce 201>
  -1.00000000000e-01
  -1.05000000000e-01
  -1.10000000000e-01
  -1.15000000000e-01
  -1.20000000000e-01
  -1.25000000000e-01
  -1.30000000000e-01
  -1.35000000000e-01
  -1.40000000000e-01
  -1.45000000000e-01
  -1.50000000000e-01
  -1.55000000000e-01
  -1.60000000000e-01
  -1.65000000000e-01
  -1.70000000000e-01
  -1.75000000000e-01
  -1.80000000000e-01
  -1.85000000000e-01
  -1.90000000000e-01
  -1.95000000000e-01
  -2.00000000000e-01
  -2.05000000000e-01
  -2.10000000000e-01
  -2.15000000000e-01
  -2.20000000000e-01
  -2.25000000000e-01
  -2.30000000000e-01
  -2.35000000000e-01
  -2.40000000000e-01
  -2.45000000000e-01
  -2.50000000000e-01
  -2.55000000000e-01
  -2.60000000000e-01
  -2.65000000000e-01
  -2.70000000000e-01
  -2.75000000000e-01
  -2.80000000000e-01
  -2.85000000000e-01
  -2.90000000000e-01
  -2.95000000000e-01
  -3.00000000000e-01
  -3.05000000000e-01
  -3.10000000000e-01
  -3.15000000000e-01
  -3.20000000000e-01
  -3.25000000000e-01
  -3.30000000000e-01
  -3.35000000000e-01
  -3.40000000000e-01
  -3.45000000000e-01
  -3.50000000000e-01
  -3.55000000000e-01
  -3.60000000000e-01
  -3.65000000000e-01
  -3.70000000000e-01
  -3.75000000000e-01
  -3.80000000000e-01
  -3.85000000000e-01
  -3.90000000000e-01
  -3.95000000000e-01
  -4.00000000000e-01
  -4.05000000000e-01
  -4.10000000000e-01
  -4.15000000000e-01
  -4.20000000000e-01
  -4.25000000000e-01
  -4.30000000000e-01
  -4.35000000000e-01
  -4.40000000000e-01
  -4.45000000000e-01
  -4.50000000000e-01
  -4.55000000000e-01
  -4.60000000000e-01
  -4.65000000000e-01
  -4.70000000000e-01
  -4.75000000000e-01
  -4.80000000000e-01
  -4.85000000000e-01
  -4.90000000000e-01
  -4.95000000000e-01
  -5.00000000000e-01
  -5.05000000000e-01
  -5.10000000000e-01
  -5.15000000000e-01
  -5.20000000000e-01
  -5.25000000000e-01
  -5.30000000000e-01
  -5.35000000000e-01
  -5.40000000000e-01
  -5.45000000000e-01
  -5.50000000000e-01
  -5.55000000000e-01
  -5.60000000000e-01
  -5.65000000000e-01
  -5.70000000000e-01
  -5.75000000000e-01
  -5.80000000000e-01
  -5.85000000000e-01
  -5.90000000000e-01
  -5.95000000000e-01
  -6.00000000000e-01
  -6.05000000000e-01
  -6.10000000000e-01
  -6.15000000000e-01
  -6.20000000000e-01
  -6.25000000000e-01
  -6.30000000000e-01
  -6.35000000000e-01
  -6.40000000000e-01
  -6.45000000000e-01
  -6.50000000000e-01
  -6.55000000000e-01
  -6.60000000000e-01
  -6.65000000000e-01
  -6.70000000000e-01
  -6.75000000000e-01
  -6.80000000000e-01
  -6.85000000000e-01
  -6.90000000000e-01
  -6.95000000000e-01
  -7.00000000000e-01
  -7.05000000000e-01
  -7.10000000000e-01
  -7.15000000000e-01
  -7.20000000000e-01
  -7.25000000000e-01
  -7.30000000000e-01
  -7.35000000000e-01
  -7.40000000000e-01
  -7.45000000000e-01
  -7.50000000000e-01
  -7.55000000000e-01
  -7.60000000000e-01
  -7.65000000000e-01
  -7.70000000000e-01
  -7.75000000000e-01
  -7.80000000000e-01
  -7.85000000000e-01
  -7.90000000000e-01
  -7.95000000000e-01
  -8.00000000000e-01
  -8.05000000000e-01
  -8.10000000000e-01
  -8.15000000000e-01
  -8.20000000000e-01
  -8.25000000000e-01
  -8.30000000000e-01
  -8.35000000000e-01
  -8.40000000000e-01
  -8.45000000000e-01
  -8.50000000000e-01
  -8.55000000000e-01
  -8.60000000000e-01
  -8.65000000000e-01
  -8.70000000000e-01
  -8.75000000000e-01
  -8.80000000000e-01
  -8.85000000000e-01
  -8.90000000000e-01
  -8.95000000000e-01
  -9.00000000000e-01
  -9.05000000000e-01
  -9.10000000000e-01
  -9.15000000000e-01
  -9.20000000000e-01
  -9.25000000000e-01
  -9.30000000000e-01
  -9.35000000000e-01
  -9.40000000000e-01
  -9.45000000000e-01
  -9.50000000000e-01
  -9.55000000000e-01
  -9.60000000000e-01
  -9.65000000000e-01
  -9.70000000000e-01
  -9.75000000000e-01
  -9.80000000000e-01
  -9.85000000000e-01
  -9.90000000000e-01
  -9.95000000000e-01
  -1.00000000000e+00
  -1.00500000000e+00
  -1.01000000000e+00
  -1.01500000000e+00
  -1.02000000000e+00
  -1.02500000000e+00
  -1.03000000000e+00
  -1.03500000000e+00
  -1.04000000000e+00
  -1.04500000000e+00
  -1.05000000000e+00
  -1.05500000000e+00
  -1.06000000000e+00
  -1.06500000000e+00
  -1.07000000000e+00
  -1.07500000000e+00
  -1.08000000000e+00
  -1.08500000000e+00
  -1.09000000000e+00
  -1.09500000000e+00
  -1.10000000000e+00
</indep>
<dep Beta Versus.0002>
  +2.28810696387e+00
  +2.29932828563e+00
  +2.31162055733e+00
  +2.32486774561e+00
  +2.33822637666e+00
  +2.35271662123e+00
  +2.36767466824e+00
  +2.38328237496e+00
  +2.39968799631e+00
  +2.41687416913e+00
  +2.43498883922e+00
  +2.45373871638e+00
  +2.47310561855e+00
  +2.49342275575e+00
  +2.51443299858e+00
  +2.53644429765e+00
  +2.55938285935e+00
  +2.58293806437e+00
  +2.60754800501e+00
  +2.63324025663e+00
  +2.65949005624e+00
  +2.68691199853e+00
  +2.71506213024e+00
  +2.74428520230e+00
  +2.77438513720e+00
  +2.80532975971e+00
  +2.83725967663e+00
  +2.87010409799e+00
  +2.90379368965e+00
  +2.93841049453e+00
  +2.97395259831e+00
  +3.01027976500e+00
  +3.04742106563e+00
  +3.08535298573e+00
  +3.12412433589e+00
  +3.16358113864e+00
  +3.20373132895e+00
  +3.24454772507e+00
  +3.28602037555e+00
  +3.32804281404e+00
  +3.37061525563e+00
  +3.41366125889e+00
  +3.45713758611e+00
  +3.50096205891e+00
  +3.54512925295e+00
  +3.58955026263e+00
  +3.63415974508e+00
  +3.67890714068e+00
  +3.72373772808e+00
  +3.76857315359e+00
  +3.81336817188e+00
  +3.85805382027e+00
  +3.90256620119e+00
  +3.94685329551e+00
  +3.99085647066e+00
  +4.03451045720e+00
  +4.07776097505e+00
  +4.12056163277e+00
  +4.16286080039e+00
  +4.20460433607e+00
  +4.24574947130e+00
  +4.28625263302e+00
  +4.32607750846e+00
  +4.36518599528e+00
  +4.40354130342e+00
  +4.44111876185e+00
  +4.47788810847e+00
  +4.51382762619e+00
  +4.54891465520e+00
  +4.58313553633e+00
  +4.61647377041e+00
  +4.64891849519e+00
  +4.68046249534e+00
  +4.71110097147e+00
  +4.74083004897e+00
  +4.76965102583e+00
  +4.79756520641e+00
  +4.82457847003e+00
  +4.85069741006e+00
  +4.87592958026e+00
  +4.90028670647e+00
  +4.92377982024e+00
  +4.94642298511e+00
  +4.96823076038e+00
  +4.98921914206e+00
  +5.00940480911e+00
  +5.02880578037e+00
  +5.04744019911e+00
  +5.06532752933e+00
  +5.08248705491e+00
  +5.09893882589e+00
  +5.11470295987e+00
  +5.12979999369e+00
  +5.14425035007e+00
  +5.15807450630e+00
  +5.17129288680e+00
  +5.18392582853e+00
  +5.19599345191e+00
  +5.20751566502e+00
  +5.21851203149e+00
  +5.22900180475e+00
  +5.23900395712e+00
  +5.24853696510e+00
  +5.25761894434e+00
  +5.26626749368e+00
  +5.27449983648e+00
  +5.28233266424e+00
  +5.28978216053e+00
  +5.29686404027e+00
  +5.30359348200e+00
  +5.30998515267e+00
  +5.31605318895e+00
  +5.32181119742e+00
  +5.32727225895e+00
  +5.33244891275e+00
  +5.33735315655e+00
  +5.34199645528e+00
  +5.34638972643e+00
  +5.35054333616e+00
  +5.35446709543e+00
  +5.35817025019e+00
  +5.36166147239e+00
  +5.36494884419e+00
  +5.36803984004e+00
  +5.37094130505e+00
  +5.37365942560e+00
  +5.37619969647e+00
  +5.37856688033e+00
  +5.38076495575e+00
  +5.38279705738e+00
  +5.38466540865e+00
  +5.38637123274e+00
  +5.38791465680e+00
  +5.38929459413e+00
  +5.39050860836e+00
  +5.39155275451e+00
  +5.39242139429e+00
  +5.39310698232e+00
  +5.39359981857e+00
  +5.39388776372e+00
  +5.39395591178e+00
  +5.39378621581e+00
  +5.39335706113e+00
  +5.39264278051e+00
  +5.39161310688e+00
  +5.39023255772e+00
  +5.38845974874e+00
  +5.38624663262e+00
  +5.38353766478e+00
  +5.38026889720e+00
  +5.37636701018e+00
  +5.37174829462e+00
  +5.36631760832e+00
  +5.35996733907e+00
  +5.35257642092e+00
  +5.34400946611e+00
  +5.33411609352e+00
  +5.32273055452e+00
  +5.30967177877e+00
  +5.29474398132e+00
  +5.27773798787e+00
  +5.25843344103e+00
  +5.23660204304e+00
  +5.21201196297e+00
  +5.18443348521e+00
  +5.15364589574e+00
  +5.11944549496e+00
  +5.08165449462e+00
  +5.04013041400e+00
  +4.99477545429e+00
  +4.94554522337e+00
  +4.89245612893e+00
  +4.83559077630e+00
  +4.77510080709e+00
  +4.71120679230e+00
  +4.64419502874e+00
  +4.57441134975e+00
  +4.50225231278e+00
  +4.42815433264e+00
  +4.35258146485e+00
  +4.27601259673e+00
  +4.19892877778e+00
  +4.12180133010e+00
  +4.04508124556e+00
  +3.96919022251e+00
  +3.89451354177e+00
  +3.82139484413e+00
  +3.75013275938e+00
  +3.68097925303e+00
  +3.61413949973e+00
  +3.54977306004e+00
  +3.48799612267e+00
  +3.42888457466e+00
  +3.37247767200e+00
  +3.31878209997e+00
  +3.26777623428e+00
  +3.21941443829e+00
  +3.17363125830e+00
  +3.13034540567e+00
  +3.08946344258e+00
  +3.05088311271e+00
</dep>
<dep Ie Versus.0002>
  +1.47562879172e-14
  +1.66502189396e-14
  +1.87686993598e-14
  +2.11388657675e-14
  +2.37836444203e-14
  +2.67472218701e-14
  +3.00618314595e-14
  +3.37731926738e-14
  +3.79332063961e-14
  +4.25983911143e-14
  +4.78358912268e-14
  +5.37130565073e-14
  +6.03109619457e-14
  +6.77308786405e-14
  +7.60726670758e-14
  +8.54664454148e-14
  +9.60489941664e-14
  +1.07965323445e-13
  +1.21411376751e-13
  +1.36595275270e-13
  +1.53723130960e-13
  +1.73094266753e-13
  +1.94986448687e-13
  +2.19770718177e-13
  +2.47831504726e-13
  +2.79619972069e-13
  +3.15670958713e-13
  +3.56575995242e-13
  +4.03011170381e-13
  +4.55772837919e-13
  +5.15764872738e-13
  +5.83999232833e-13
  +6.61667702747e-13
  +7.50130274733e-13
  +8.50970180357e-13
  +9.65953283182e-13
  +1.09715483271e-12
  +1.24695414825e-12
  +1.41809931067e-12
  +1.61371309366e-12
  +1.83744137272e-12
  +2.09344697376e-12
  +2.38654599394e-12
  +2.72226313149e-12
  +3.10702964525e-12
  +3.54819704196e-12
  +4.05426398003e-12
  +4.63505462916e-12
  +5.30190735413e-12
  +6.06787817869e-12
  +6.94809449430e-12
  +7.95998958602e-12
  +9.12370850163e-12
  +1.04625548840e-11
  +1.20034450480e-11
  +1.37774650400e-11
  +1.58205799970e-11
  +1.81744040996e-11
  +2.08870383867e-11
  +2.40140920325e-11
  +2.76199417934e-11
  +3.17790533764e-11
  +3.65776315963e-11
  +4.21154092244e-11
  +4.85078002980e-11
  +5.58885078151e-11
  +6.44122266630e-11
  +7.42581435344e-11
  +8.56336900949e-11
  +9.87792034604e-11
  +1.13972930163e-10
  +1.31537219940e-10
  +1.51845513618e-10
  +1.75330443988e-10
  +2.02493193501e-10
  +2.33914582437e-10
  +2.70267538713e-10
  +3.12332007910e-10
  +3.61011814938e-10
  +4.17354398196e-10
  +4.82573993891e-10
  +5.58077837733e-10
  +6.45497326547e-10
  +7.46723543784e-10
  +8.63948839670e-10
  +9.99714837372e-10
  +1.15696835731e-09
  +1.33912591122e-09
  +1.55014905292e-09
  +1.79463110000e-09
  +2.07789839823e-09
  +2.40612728837e-09
  +2.78648017385e-09
  +3.22726296728e-09
  +3.73810805144e-09
  +4.33018639654e-09
  +5.01645367660e-09
  +5.81193569355e-09
  +6.73405960500e-09
  +7.80303801627e-09
  +9.04231475264e-09
  +1.04790820645e-08
  +1.21448801763e-08
  +1.40762934678e-08
  +1.63157575042e-08
  +1.89124960614e-08
  +2.19236073492e-08
  +2.54153246409e-08
  +2.94644789329e-08
  +3.41601953166e-08
  +3.96058614024e-08
  +4.59214106881e-08
  +5.32459716184e-08
  +6.17409408203e-08
  +7.15935481105e-08
  +8.30209922803e-08
  +9.62752389858e-08
  +1.11648586098e-07
  +1.29480119620e-07
  +1.50163202345e-07
  +1.74154160009e-07
  +2.01982356174e-07
  +2.34261877108e-07
  +2.71705083273e-07
  +3.15138324557e-07
  +3.65520163093e-07
  +4.23962502092e-07
  +4.91755081342e-07
  +5.70393871927e-07
  +6.61613986392e-07
  +7.67427816314e-07
  +8.90169217143e-07
  +1.03254468967e-06
  +1.19769264822e-06
  +1.38925203302e-06
  +1.61144171075e-06
  +1.86915232129e-06
  +2.16805246993e-06
  +2.51471143633e-06
  +2.91674087707e-06
