<Qucs Dataset 0.0.17>
<indep VBAT 101>
  +4.00000000000e+00
  +4.10000000000e+00
  +4.20000000000e+00
  +4.30000000000e+00
  +4.40000000000e+00
  +4.50000000000e+00
  +4.60000000000e+00
  +4.70000000000e+00
  +4.80000000000e+00
  +4.90000000000e+00
  +5.00000000000e+00
  +5.10000000000e+00
  +5.20000000000e+00
  +5.30000000000e+00
  +5.40000000000e+00
  +5.50000000000e+00
  +5.60000000000e+00
  +5.70000000000e+00
  +5.80000000000e+00
  +5.90000000000e+00
  +6.00000000000e+00
  +6.10000000000e+00
  +6.20000000000e+00
  +6.30000000000e+00
  +6.40000000000e+00
  +6.50000000000e+00
  +6.60000000000e+00
  +6.70000000000e+00
  +6.80000000000e+00
  +6.90000000000e+00
  +7.00000000000e+00
  +7.10000000000e+00
  +7.20000000000e+00
  +7.30000000000e+00
  +7.40000000000e+00
  +7.50000000000e+00
  +7.60000000000e+00
  +7.70000000000e+00
  +7.80000000000e+00
  +7.90000000000e+00
  +8.00000000000e+00
  +8.10000000000e+00
  +8.20000000000e+00
  +8.30000000000e+00
  +8.40000000000e+00
  +8.50000000000e+00
  +8.60000000000e+00
  +8.70000000000e+00
  +8.80000000000e+00
  +8.90000000000e+00
  +9.00000000000e+00
  +9.10000000000e+00
  +9.20000000000e+00
  +9.30000000000e+00
  +9.40000000000e+00
  +9.50000000000e+00
  +9.60000000000e+00
  +9.70000000000e+00
  +9.80000000000e+00
  +9.90000000000e+00
  +1.00000000000e+01
  +1.01000000000e+01
  +1.02000000000e+01
  +1.03000000000e+01
  +1.04000000000e+01
  +1.05000000000e+01
  +1.06000000000e+01
  +1.07000000000e+01
  +1.08000000000e+01
  +1.09000000000e+01
  +1.10000000000e+01
  +1.11000000000e+01
  +1.12000000000e+01
  +1.13000000000e+01
  +1.14000000000e+01
  +1.15000000000e+01
  +1.16000000000e+01
  +1.17000000000e+01
  +1.18000000000e+01
  +1.19000000000e+01
  +1.20000000000e+01
  +1.21000000000e+01
  +1.22000000000e+01
  +1.23000000000e+01
  +1.24000000000e+01
  +1.25000000000e+01
  +1.26000000000e+01
  +1.27000000000e+01
  +1.28000000000e+01
  +1.29000000000e+01
  +1.30000000000e+01
  +1.31000000000e+01
  +1.32000000000e+01
  +1.33000000000e+01
  +1.34000000000e+01
  +1.35000000000e+01
  +1.36000000000e+01
  +1.37000000000e+01
  +1.38000000000e+01
  +1.39000000000e+01
  +1.40000000000e+01
</indep>
<dep V1.I VBAT>
  -2.85688829545e-02
  -2.94714760846e-02
  -3.03742882563e-02
  -3.12773067823e-02
  -3.21805200440e-02
  -3.30839173752e-02
  -3.39874889606e-02
  -3.48912257481e-02
  -3.57951193715e-02
  -3.66991620832e-02
  -3.76033466949e-02
  -3.85076665247e-02
  -3.94121153511e-02
  -4.03166873715e-02
  -4.12213771653e-02
  -4.21261796618e-02
  -4.30310901098e-02
  -4.39361040520e-02
  -4.48412172958e-02
  -4.57464257215e-02
  -4.66517194927e-02
  -4.75568880085e-02
  -4.84551577553e-02
  -4.92276322814e-02
  -4.96635755211e-02
  -4.99279133357e-02
  -5.01299729378e-02
  -5.03028027867e-02
  -5.04590673588e-02
  -5.06047672767e-02
  -5.07431775337e-02
  -5.08762692326e-02
  -5.10053161868e-02
  -5.11311871871e-02
  -5.12545003237e-02
  -5.13757104936e-02
  -5.14951619330e-02
  -5.16131212598e-02
  -5.17297990804e-02
  -5.18453645903e-02
  -5.19599557224e-02
  -5.20736863749e-02
  -5.21866516697e-02
  -5.22989318513e-02
  -5.24105952260e-02
  -5.25217004107e-02
  -5.26322980782e-02
  -5.27424323262e-02
  -5.28521417647e-02
  -5.29614603884e-02
  -5.30704182818e-02
  -5.31790421956e-02
  -5.32873560205e-02
  -5.33953811800e-02
  -5.35031369580e-02
  -5.36106407741e-02
  -5.37179084156e-02
  -5.38249542352e-02
  -5.39317913193e-02
  -5.40384316322e-02
  -5.41448861409e-02
  -5.42511649225e-02
  -5.43572772579e-02
  -5.44632317134e-02
  -5.45690362119e-02
  -5.46746980960e-02
  -5.47802241830e-02
  -5.48856208137e-02
  -5.49908938959e-02
  -5.50960489430e-02
  -5.52010911077e-02
  -5.53060252136e-02
  -5.54108557819e-02
  -5.55155870565e-02
  -5.56202230261e-02
  -5.57247674440e-02
  -5.58292238467e-02
  -5.59335955700e-02
  -5.60378857637e-02
  -5.61420974056e-02
  -5.62462333134e-02
  -5.63502961562e-02
  -5.64542884646e-02
  -5.65582126400e-02
  -5.66620709638e-02
  -5.67658656046e-02
  -5.68695986258e-02
  -5.69732719923e-02
  -5.70768875766e-02
  -5.71804471645e-02
  -5.72839524604e-02
  -5.73874050923e-02
  -5.74908066159e-02
  -5.75941585192e-02
  -5.76974622263e-02
  -5.78007191008e-02
  -5.79039304495e-02
  -5.80070975250e-02
  -5.81102215293e-02
  -5.82133036160e-02
  -5.83163448930e-02
</dep>
<dep _net0.V VBAT>
  +3.71713977272e+00
  +3.80820320708e+00
  +3.89926447271e+00
  +3.99032369522e+00
  +4.08138098966e+00
  +4.17243646163e+00
  +4.26349020831e+00
  +4.35454231932e+00
  +4.44559287750e+00
  +4.53664195957e+00
  +4.62768963668e+00
  +4.71873597500e+00
  +4.80978103612e+00
  +4.90082487750e+00
  +4.99186755281e+00
  +5.08290911225e+00
  +5.17394960287e+00
  +5.26498906877e+00
  +5.35602755080e+00
  +5.44706506750e+00
  +5.53810096296e+00
  +5.62911186381e+00
  +5.71933268103e+00
  +5.79532838919e+00
  +5.83329045943e+00
  +5.85186025988e+00
  +5.86339256381e+00
  +5.87162193601e+00
  +5.87797947018e+00
  +5.88314323264e+00
  +5.88748329237e+00
  +5.89122237935e+00
  +5.89450443076e+00
  +5.89742761694e+00
  +5.90006177968e+00
  +5.90245832037e+00
  +5.90465613612e+00
  +5.90668535343e+00
  +5.90856976970e+00
  +5.91032850310e+00
  +5.91197713925e+00
  +5.91352854795e+00
  +5.91499347740e+00
  +5.91638099471e+00
  +5.91769881802e+00
  +5.91895357068e+00
  +5.92015097832e+00
  +5.92129602369e+00
  +5.92239306945e+00
  +5.92344595672e+00
  +5.92445808485e+00
  +5.92543247644e+00
  +5.92637183096e+00
  +5.92727856909e+00
  +5.92815486977e+00
  +5.92900270125e+00
  +5.92982384738e+00
  +5.93061992989e+00
  +5.93139242744e+00
  +5.93214269187e+00
  +5.93287196238e+00
  +5.93358137757e+00
  +5.93427198612e+00
  +5.93494475593e+00
  +5.93560058222e+00
  +5.93624029465e+00
  +5.93686466348e+00
  +5.93747440520e+00
  +5.93807018731e+00
  +5.93865263276e+00
  +5.93922232380e+00
  +5.93977980541e+00
  +5.94032558846e+00
  +5.94086015246e+00
  +5.94138394809e+00
  +5.94189739946e+00
  +5.94240090613e+00
  +5.94289484503e+00
  +5.94337957205e+00
  +5.94385542366e+00
  +5.94432271821e+00
  +5.94478175729e+00
  +5.94523282683e+00
  +5.94567619819e+00
  +5.94611212911e+00
  +5.94654086463e+00
  +5.94696263789e+00
  +5.94737767090e+00
  +5.94778617525e+00
  +5.94818835270e+00
  +5.94858439584e+00
  +5.94897448859e+00
  +5.94935880676e+00
  +5.94973751847e+00
  +5.95011078462e+00
  +5.95047875928e+00
  +5.95084159009e+00
  +5.95119941862e+00
  +5.95155238065e+00
  +5.95190060653e+00
  +5.95224422145e+00
</dep>
<dep out.V VBAT>
  +2.85688829545e+00
  +2.94714760846e+00
  +3.03742882563e+00
  +3.12773067823e+00
  +3.21805200440e+00
  +3.30839173752e+00
  +3.39874889606e+00
  +3.48912257481e+00
  +3.57951193715e+00
  +3.66991620832e+00
  +3.76033466949e+00
  +3.85076665247e+00
  +3.94121153511e+00
  +4.03166873715e+00
  +4.12213771653e+00
  +4.21261796618e+00
  +4.30310901098e+00
  +4.39361040519e+00
  +4.48412172950e+00
  +4.57464256969e+00
  +4.66517186602e+00
  +4.75568598710e+00
  +4.84542353407e+00
  +4.92101902772e+00
  +4.95878346404e+00
  +4.97725713315e+00
  +4.98872991567e+00
  +4.99691689699e+00
  +5.00324172973e+00
  +5.00837896144e+00
  +5.01269674343e+00
  +5.01641665280e+00
  +5.01968188237e+00
  +5.02259009521e+00
  +5.02521077244e+00
  +5.02759505021e+00
  +5.02978162498e+00
  +5.03180046794e+00
  +5.03367525386e+00
  +5.03542500243e+00
  +5.03706521902e+00
  +5.03860870721e+00
  +5.04006615986e+00
  +5.04144659745e+00
  +5.04275769844e+00
  +5.04400605212e+00
  +5.04519735471e+00
  +5.04633656333e+00
  +5.04742801825e+00
  +5.04847554086e+00
  +5.04948251303e+00
  +5.05045194188e+00
  +5.05138651300e+00
  +5.05228863466e+00
  +5.05316047461e+00
  +5.05400399101e+00
  +5.05482095856e+00
  +5.05561299067e+00
  +5.05638155842e+00
  +5.05712800673e+00
  +5.05785356843e+00
  +5.05855937631e+00
  +5.05924647365e+00
  +5.05991582340e+00
  +5.06056831621e+00
  +5.06120477746e+00
  +5.06182597349e+00
  +5.06243261711e+00
  +5.06302537241e+00
  +5.06360485915e+00
  +5.06417165658e+00
  +5.06472630692e+00
  +5.06526931841e+00
  +5.06580116811e+00
  +5.06632230439e+00
  +5.06683314919e+00
  +5.06733410004e+00
  +5.06782553192e+00
  +5.06830779891e+00
  +5.06878123576e+00
  +5.06924615920e+00
  +5.06970286926e+00
  +5.07015165043e+00
  +5.07059277266e+00
  +5.07102649239e+00
  +5.07145305339e+00
  +5.07187268763e+00
  +5.07228561598e+00
  +5.07269204893e+00
  +5.07309218723e+00
  +5.07348622248e+00
  +5.07387433767e+00
  +5.07425670769e+00
  +5.07463349981e+00
  +5.07500487410e+00
  +5.07537098387e+00
  +5.07573197600e+00
  +5.07608799130e+00
  +5.07643916490e+00
  +5.07678562647e+00
  +5.07712750056e+00
</dep>
<dep in.V VBAT>
  +4.00000000000e+00
  +4.10000000000e+00
  +4.20000000000e+00
  +4.30000000000e+00
  +4.40000000000e+00
  +4.50000000000e+00
  +4.60000000000e+00
  +4.70000000000e+00
  +4.80000000000e+00
  +4.90000000000e+00
  +5.00000000000e+00
  +5.10000000000e+00
  +5.20000000000e+00
  +5.30000000000e+00
  +5.40000000000e+00
  +5.50000000000e+00
  +5.60000000000e+00
  +5.70000000000e+00
  +5.80000000000e+00
  +5.90000000000e+00
  +6.00000000000e+00
  +6.10000000000e+00
  +6.20000000000e+00
  +6.30000000000e+00
  +6.40000000000e+00
  +6.50000000000e+00
  +6.60000000000e+00
  +6.70000000000e+00
  +6.80000000000e+00
  +6.90000000000e+00
  +7.00000000000e+00
  +7.10000000000e+00
  +7.20000000000e+00
  +7.30000000000e+00
  +7.40000000000e+00
  +7.50000000000e+00
  +7.60000000000e+00
  +7.70000000000e+00
  +7.80000000000e+00
  +7.90000000000e+00
  +8.00000000000e+00
  +8.10000000000e+00
  +8.20000000000e+00
  +8.30000000000e+00
  +8.40000000000e+00
  +8.50000000000e+00
  +8.60000000000e+00
  +8.70000000000e+00
  +8.80000000000e+00
  +8.90000000000e+00
  +9.00000000000e+00
  +9.10000000000e+00
  +9.20000000000e+00
  +9.30000000000e+00
  +9.40000000000e+00
  +9.50000000000e+00
  +9.60000000000e+00
  +9.70000000000e+00
  +9.80000000000e+00
  +9.90000000000e+00
  +1.00000000000e+01
  +1.01000000000e+01
  +1.02000000000e+01
  +1.03000000000e+01
  +1.04000000000e+01
  +1.05000000000e+01
  +1.06000000000e+01
  +1.07000000000e+01
  +1.08000000000e+01
  +1.09000000000e+01
  +1.10000000000e+01
  +1.11000000000e+01
  +1.12000000000e+01
  +1.13000000000e+01
  +1.14000000000e+01
  +1.15000000000e+01
  +1.16000000000e+01
  +1.17000000000e+01
  +1.18000000000e+01
  +1.19000000000e+01
  +1.20000000000e+01
  +1.21000000000e+01
  +1.22000000000e+01
  +1.23000000000e+01
  +1.24000000000e+01
  +1.25000000000e+01
  +1.26000000000e+01
  +1.27000000000e+01
  +1.28000000000e+01
  +1.29000000000e+01
  +1.30000000000e+01
  +1.31000000000e+01
  +1.32000000000e+01
  +1.33000000000e+01
  +1.34000000000e+01
  +1.35000000000e+01
  +1.36000000000e+01
  +1.37000000000e+01
  +1.38000000000e+01
  +1.39000000000e+01
  +1.40000000000e+01
</dep>
