<Qucs Dataset 0.0.20>
<indep Vx 101>
  +0.00000000000000000000e+00
  +2.99999999999999988898e-02
  +5.99999999999999977796e-02
  +8.99999999999999966693e-02
  +1.19999999999999995559e-01
  +1.49999999999999994449e-01
  +1.79999999999999993339e-01
  +2.09999999999999992228e-01
  +2.39999999999999991118e-01
  +2.70000000000000017764e-01
  +2.99999999999999988898e-01
  +3.29999999999999960032e-01
  +3.59999999999999986677e-01
  +3.90000000000000013323e-01
  +4.19999999999999984457e-01
  +4.49999999999999955591e-01
  +4.79999999999999982236e-01
  +5.10000000000000008882e-01
  +5.40000000000000035527e-01
  +5.69999999999999951150e-01
  +5.99999999999999977796e-01
  +6.30000000000000004441e-01
  +6.59999999999999920064e-01
  +6.89999999999999946709e-01
  +7.19999999999999973355e-01
  +7.50000000000000000000e-01
  +7.80000000000000026645e-01
  +8.09999999999999942268e-01
  +8.39999999999999968914e-01
  +8.69999999999999995559e-01
  +8.99999999999999911182e-01
  +9.29999999999999937828e-01
  +9.59999999999999964473e-01
  +9.89999999999999991118e-01
  +1.02000000000000001776e+00
  +1.05000000000000004441e+00
  +1.08000000000000007105e+00
  +1.10999999999999987566e+00
  +1.13999999999999990230e+00
  +1.16999999999999992895e+00
  +1.19999999999999995559e+00
  +1.22999999999999998224e+00
  +1.26000000000000000888e+00
  +1.29000000000000003553e+00
  +1.31999999999999984013e+00
  +1.34999999999999986677e+00
  +1.37999999999999989342e+00
  +1.40999999999999992006e+00
  +1.43999999999999994671e+00
  +1.46999999999999997335e+00
  +1.50000000000000000000e+00
  +1.53000000000000002665e+00
  +1.56000000000000005329e+00
  +1.58999999999999985789e+00
  +1.61999999999999988454e+00
  +1.64999999999999991118e+00
  +1.67999999999999993783e+00
  +1.70999999999999996447e+00
  +1.73999999999999999112e+00
  +1.77000000000000001776e+00
  +1.79999999999999982236e+00
  +1.82999999999999984901e+00
  +1.85999999999999987566e+00
  +1.88999999999999990230e+00
  +1.91999999999999992895e+00
  +1.94999999999999995559e+00
  +1.97999999999999998224e+00
  +2.00999999999999978684e+00
  +2.04000000000000003553e+00
  +2.06999999999999984013e+00
  +2.10000000000000008882e+00
  +2.12999999999999989342e+00
  +2.16000000000000014211e+00
  +2.18999999999999994671e+00
  +2.21999999999999975131e+00
  +2.25000000000000000000e+00
  +2.27999999999999980460e+00
  +2.31000000000000005329e+00
  +2.33999999999999985789e+00
  +2.37000000000000010658e+00
  +2.39999999999999991118e+00
  +2.42999999999999971578e+00
  +2.45999999999999996447e+00
  +2.48999999999999976907e+00
  +2.52000000000000001776e+00
  +2.54999999999999982236e+00
  +2.58000000000000007105e+00
  +2.60999999999999987566e+00
  +2.63999999999999968026e+00
  +2.66999999999999992895e+00
  +2.69999999999999973355e+00
  +2.72999999999999998224e+00
  +2.75999999999999978684e+00
  +2.79000000000000003553e+00
  +2.81999999999999984013e+00
  +2.85000000000000008882e+00
  +2.87999999999999989342e+00
  +2.90999999999999969802e+00
  +2.93999999999999994671e+00
  +2.96999999999999975131e+00
  +3.00000000000000000000e+00
</indep>
<dep Rout Vx>
  +6.83339287783276562500e+13
  +4.46805256143720781250e+13
  +1.37762003449436914062e+13
  +4.28470056175445263672e+12
  +1.34312453245659423828e+12
  +4.21652852647818237305e+11
  +1.32110151382955551147e+11
  +4.13959026767264556885e+10
  +1.29700207206089344025e+10
  +4.06415342060598468781e+09
  +1.27348005750430822372e+09
  +3.99038650201496005058e+08
  +1.25036759644480392337e+08
  +3.91796618350723087788e+07
  +1.22767574479998573661e+07
  +3.84686813124790787697e+06
  +1.20540433671483979560e+06
  +3.77714872592301515397e+05
  +1.18362526473084479221e+05
  +3.70957963501473932411e+04
  +1.16313741025910258031e+04
  +3.65258442672727414902e+03
  +1.15418619776665764221e+03
  +4.15519691323408551398e+02
  +1.59489197361451215329e+03
  +1.54248708203420919745e+04
  +6.00126277277698391117e+04
  +1.43407641817848925712e+05
  +2.40261384636789676733e+05
  +3.09544477706140372902e+05
  +3.42356503373938612640e+05
  +3.54466768132998375222e+05
  +3.58485426673305977602e+05
  +3.59773579253649455495e+05
  +3.60185720060465217102e+05
  +3.60321369489685166627e+05
  +3.60370203904586029239e+05
  +3.60391821507154672872e+05
  +3.60404910005316603929e+05
  +3.60415328127181681339e+05
  +3.60424909141408395953e+05
  +3.60434226842870994005e+05
  +3.60443463303327560425e+05
  +3.60452673940669046715e+05
  +3.60461876857127761468e+05
  +3.60471075293612026144e+05
  +3.60480273906629532576e+05
  +3.60489472186459461227e+05
  +3.60498669561240589246e+05
  +3.60507866667832771782e+05
  +3.60517064375935937278e+05
  +3.60526262615062762052e+05
  +3.60535458832047996111e+05
  +3.60544656553602661006e+05
  +3.60553852229485928547e+05
  +3.60563048698697239161e+05
  +3.60572245645306655206e+05
  +3.60581441216423118021e+05
  +3.60590636773258098401e+05
  +3.60599833133536507376e+05
  +3.60609029117209662218e+05
  +3.60618223916030721739e+05
  +3.60627419403084029909e+05
  +3.60636614584664348513e+05
  +3.60645810478304745629e+05
  +3.60655005340799340047e+05
  +3.60664198152031691279e+05
  +3.60673392279331572354e+05
  +3.60682587983458768576e+05
  +3.60691783087680465542e+05
  +3.60700977874277392402e+05
  +3.60710169801327108871e+05
  +3.60719363219312741421e+05
  +3.60728556415058206767e+05
  +3.60737749821214238182e+05
  +3.60746943568324495573e+05
  +3.60756136383459903300e+05
  +3.60765329471990873571e+05
  +3.60774524217801168561e+05
  +3.60783714929901994765e+05
  +3.60792903674908913672e+05
  +3.60802097399700083770e+05
  +3.60811292174634931143e+05
  +3.60820483909358503297e+05
  +3.60829674395844922401e+05
  +3.60838866110686736647e+05
  +3.60848055715331342071e+05
  +3.60857249758389370982e+05
  +3.60866441962434444577e+05
  +3.60875629814004641958e+05
  +3.60884822375128627755e+05
  +3.60894013347828993574e+05
  +3.60903201948545174673e+05
  +3.60912394098929245956e+05
  +3.60921583611515758093e+05
  +3.60930771583720692433e+05
  +3.60939962199617060833e+05
  +3.60949153440236113966e+05
  +3.60958342546734143980e+05
  +3.60967533554943394847e+05
  +3.60972131299207510892e+05
</dep>
<dep Ix Vx>
  -9.99999999998834937162e-05
  -9.99999999994444731515e-05
  -9.99999999980177444077e-05
  -9.99999999934202393054e-05
  -9.99999999787440179127e-05
  -9.99999999320242284172e-05
  -9.99999997829036850298e-05
  -9.99999993070212358061e-05
  -9.99999977881128778844e-05
  -9.99999929408144390538e-05
  -9.99999774712545747360e-05
  -9.99999281021674008138e-05
  -9.99997705470806799982e-05
  -9.99992677306878419109e-05
  -9.99976630576898472364e-05
  -9.99925419583003817535e-05
  -9.99761986988059367897e-05
  -9.99240419774918094045e-05
  -9.97575974361967603979e-05
  -9.92264814521116866874e-05
  -9.75322128249036428629e-05
  -9.21326378920883854503e-05
  -7.49817046350069243629e-05
  -2.13332948086984906474e-05
  +8.90245469179157207290e-05
  +9.93057691605793972254e-05
  +1.00379813773567881977e-04
  +1.00705569822762941424e-04
  +1.00859635754574423669e-04
  +1.00964603918610477604e-04
  +1.01054616156237480414e-04
  +1.01139982879436661641e-04
  +1.01223896957754845105e-04
  +1.01307354942803905760e-04
  +1.01390668639647423769e-04
  +1.01473935685359849951e-04
  +1.01557186658392657698e-04
  +1.01640431137650790556e-04
  +1.01723672123505318285e-04
  +1.01806910556627691123e-04
  +1.01890146730239803861e-04
  +1.01973380738039641523e-04
  +1.02056612608176670376e-04
  +1.02139842350243477561e-04
  +1.02223069966791407629e-04
  +1.02306295459051856751e-04
  +1.02389518828079076015e-04
  +1.02472740072954122763e-04
  +1.02555959194966479298e-04
  +1.02639176193461287507e-04
  +1.02722391069433844984e-04
  +1.02805603821827867763e-04
  +1.02888814451671111740e-04
  +1.02972022959085902027e-04
  +1.03055229343472024299e-04
  +1.03138433606590399069e-04
  +1.03221635746530553688e-04
  +1.03304835765199057676e-04
  +1.03388033661540684163e-04
  +1.03471229436833626197e-04
  +1.03554423089645449420e-04
  +1.03637614621798711235e-04
  +1.03720804032233997042e-04
  +1.03803991321909484065e-04
  +1.03887176490224307458e-04
  +1.03970359537667144246e-04
  +1.04053540464441309442e-04
  +1.04136719271505901840e-04
  +1.04219895957511021973e-04
  +1.04303070523295462850e-04
  +1.04386242968513391085e-04
  +1.04469413293873305691e-04
  +1.04552581500201544908e-04
  +1.04635747586200359392e-04
  +1.04718911553485982875e-04
  +1.04802073400561308338e-04
  +1.04885233128982220110e-04
  +1.04968390737838611782e-04
  +1.05051546228130497228e-04
  +1.05134699598309947453e-04
  +1.05217850852000162831e-04
  +1.05300999986700634338e-04
  +1.05384147002832317020e-04
  +1.05467291899706241054e-04
  +1.05550434679628396041e-04
  +1.05633575341083948257e-04
  +1.05716713885237371495e-04
  +1.05799850312112369123e-04
  +1.05882984619855890552e-04
  +1.05966116811384046602e-04
  +1.06049246886001850127e-04
  +1.06132374842450176488e-04
  +1.06215500682935553287e-04
  +1.06298624406559840999e-04
  +1.06381746012801633246e-04
  +1.06464865503612927619e-04
  +1.06547982877966808477e-04
  +1.06631098135888049841e-04
  +1.06714211277279737589e-04
  +1.06797322303437100294e-04
  +1.06880431212404738680e-04
</dep>
<dep V1.I Vx>
  +9.99999999998834937162e-05
  +9.99999999994444731515e-05
  +9.99999999980177444077e-05
  +9.99999999934202393054e-05
  +9.99999999787440179127e-05
  +9.99999999320242284172e-05
  +9.99999997829036850298e-05
  +9.99999993070212358061e-05
  +9.99999977881128778844e-05
  +9.99999929408144390538e-05
  +9.99999774712545747360e-05
  +9.99999281021674008138e-05
  +9.99997705470806799982e-05
  +9.99992677306878419109e-05
  +9.99976630576898472364e-05
  +9.99925419583003817535e-05
  +9.99761986988059367897e-05
  +9.99240419774918094045e-05
  +9.97575974361967603979e-05
  +9.92264814521116866874e-05
  +9.75322128249036428629e-05
  +9.21326378920883854503e-05
  +7.49817046350069243629e-05
  +2.13332948086984906474e-05
  -8.90245469179157207290e-05
  -9.93057691605793972254e-05
  -1.00379813773567881977e-04
  -1.00705569822762941424e-04
  -1.00859635754574423669e-04
  -1.00964603918610477604e-04
  -1.01054616156237480414e-04
  -1.01139982879436661641e-04
  -1.01223896957754845105e-04
  -1.01307354942803905760e-04
  -1.01390668639647423769e-04
  -1.01473935685359849951e-04
  -1.01557186658392657698e-04
  -1.01640431137650790556e-04
  -1.01723672123505318285e-04
  -1.01806910556627691123e-04
  -1.01890146730239803861e-04
  -1.01973380738039641523e-04
  -1.02056612608176670376e-04
  -1.02139842350243477561e-04
  -1.02223069966791407629e-04
  -1.02306295459051856751e-04
  -1.02389518828079076015e-04
  -1.02472740072954122763e-04
  -1.02555959194966479298e-04
  -1.02639176193461287507e-04
  -1.02722391069433844984e-04
  -1.02805603821827867763e-04
  -1.02888814451671111740e-04
  -1.02972022959085902027e-04
  -1.03055229343472024299e-04
  -1.03138433606590399069e-04
  -1.03221635746530553688e-04
  -1.03304835765199057676e-04
  -1.03388033661540684163e-04
  -1.03471229436833626197e-04
  -1.03554423089645449420e-04
  -1.03637614621798711235e-04
  -1.03720804032233997042e-04
  -1.03803991321909484065e-04
  -1.03887176490224307458e-04
  -1.03970359537667144246e-04
  -1.04053540464441309442e-04
  -1.04136719271505901840e-04
  -1.04219895957511021973e-04
  -1.04303070523295462850e-04
  -1.04386242968513391085e-04
  -1.04469413293873305691e-04
  -1.04552581500201544908e-04
  -1.04635747586200359392e-04
  -1.04718911553485982875e-04
  -1.04802073400561308338e-04
  -1.04885233128982220110e-04
  -1.04968390737838611782e-04
  -1.05051546228130497228e-04
  -1.05134699598309947453e-04
  -1.05217850852000162831e-04
  -1.05300999986700634338e-04
  -1.05384147002832317020e-04
  -1.05467291899706241054e-04
  -1.05550434679628396041e-04
  -1.05633575341083948257e-04
  -1.05716713885237371495e-04
  -1.05799850312112369123e-04
  -1.05882984619855890552e-04
  -1.05966116811384046602e-04
  -1.06049246886001850127e-04
  -1.06132374842450176488e-04
  -1.06215500682935553287e-04
  -1.06298624406559840999e-04
  -1.06381746012801633246e-04
  -1.06464865503612927619e-04
  -1.06547982877966808477e-04
  -1.06631098135888049841e-04
  -1.06714211277279737589e-04
  -1.06797322303437100294e-04
  -1.06880431212404738680e-04
</dep>
<dep V3.I Vx>
  +2.80943652055949031568e-16
  +5.03401040419855011177e-16
  +1.21241109142169923813e-15
  +3.47372472989111185995e-15
  +1.07804701424735520588e-14
  +3.39906269354566089094e-14
  +1.08072347098310585664e-13
  +3.44518615914812036128e-13
  +1.09915572932173162048e-12
  +3.50749302668326141428e-12
  +1.11933655801969001939e-11
  +3.57217690311520489839e-11
  +1.14001015544150935121e-10
  +3.63819105218855844551e-10
  +1.16108091318831370460e-09
  +3.70543579556990837586e-09
  +1.18253853970595785024e-08
  +3.77388518282852892287e-08
  +1.20435253967302491079e-07
  +3.84318772173400226003e-07
  +1.22614755684044719296e-06
  +3.90939247394264296885e-06
  +1.24359944997003205703e-05
  +3.91429165509162645229e-05
  +9.42233590712468797260e-05
  +9.93152856381581528424e-05
  +9.98086530313807649556e-05
  +9.99292839949519835817e-05
  +9.99644952994951235814e-05
  +9.99752963718910492687e-05
  +9.99786661090608375080e-05
  +9.99797292975965966018e-05
  +9.99800722466644901758e-05
  +9.99801898608440755114e-05
  +9.99802369244584608447e-05
  +9.99802618846188506782e-05
  +9.99802799089005163986e-05
  +9.99802957462672670097e-05
  +9.99803108836756700443e-05
  +9.99803257867414171215e-05
  +9.99803406012698459883e-05
  +9.99803553729614741252e-05
  +9.99803701161746077430e-05
  +9.99803848354141068682e-05
  +9.99803995321280454750e-05
  +9.99804142068138555202e-05
  +9.99804288596564747892e-05
  +9.99804434907264170810e-05
  +9.99804581001238355711e-05
  +9.99804726878697502292e-05
  +9.99804872540279934582e-05
  +9.99805017986367020695e-05
  +9.99805163217530135176e-05
  +9.99805308234669301353e-05
  +9.99805453037290665138e-05
  +9.99805597626503907453e-05
  +9.99805742002616670665e-05
  +9.99805886166197347762e-05
  +9.99806030117726375834e-05
  +9.99806173857428862354e-05
  +9.99806317385984059986e-05
  +9.99806460703917129155e-05
  +9.99806603811735612004e-05
  +9.99806746709507271169e-05
  +9.99806889398001890192e-05
  +9.99807031877583218902e-05
  +9.99807174148941894083e-05
  +9.99807316212147169148e-05
  +9.99807458067923833251e-05
  +9.99807599716653796606e-05
  +9.99807741158864252519e-05
  +9.99807882394868264369e-05
  +9.99808023425140035079e-05
  +9.99808164250317617629e-05
  +9.99808304870559034485e-05
  +9.99808445286458970539e-05
  +9.99808585498456256621e-05
  +9.99808725507037563979e-05
  +9.99808865312556206998e-05
  +9.99809004915615679712e-05
  +9.99809144316459249982e-05
  +9.99809283515552582643e-05
  +9.99809422513493344141e-05
  +9.99809561310536457513e-05
  +9.99809699907297207491e-05
  +9.99809838303932667865e-05
  +9.99809976501098916475e-05
  +9.99810114499260940528e-05
  +9.99810252298767311021e-05
  +9.99810389899990180351e-05
  +9.99810527303350625537e-05
  +9.99810664509491442940e-05
  +9.99810801518424694312e-05
  +9.99810938331080625114e-05
  +9.99811074947439448659e-05
  +9.99811211368285585217e-05
  +9.99811347593741549635e-05
  +9.99811483624359878444e-05
  +9.99811619460676438568e-05
  +9.99811755102914982230e-05
  +9.99811890551499432480e-05
</dep>
<dep _net3.V Vx>
  +3.61888188511626219222e-04
  +3.03618881885099126117e-02
  +6.03618881885050334590e-02
  +9.03618881884887814593e-02
  +1.20361888188443497127e-01
  +1.50361888188296516367e-01
  +1.80361888187825225582e-01
  +2.10361888186326007055e-01
  +2.40361888181546606846e-01
  +2.70361888166267438915e-01
  +3.00361888117543163190e-01
  +3.30361887962025535526e-01
  +3.60361887465748653714e-01
  +3.90361885881903514228e-01
  +4.20361880827243128422e-01
  +4.50361864695527469582e-01
  +4.80361813208919574691e-01
  +5.10361648852039717639e-01
  +5.40361123879745774978e-01
  +5.70359443913302843754e-01
  +6.00354035290448950768e-01
  +6.30336275617659036463e-01
  +6.60273868052557721953e-01
  +6.89983568098265664936e-01
  +7.12840711705862717373e-01
  +7.14220688091228739225e-01
  +7.14351320503937570194e-01
  +7.14383212995688743341e-01
  +7.14392522662935292033e-01
  +7.14395381628080250458e-01
  +7.14396276988925160722e-01
  +7.14396562897380738022e-01
  +7.14396658496940228922e-01
  +7.14396694553425692931e-01
  +7.14396711964741859546e-01
  +7.14396723531983135480e-01
  +7.14396733262881777904e-01
  +7.14396742412253704657e-01
  +7.14396751373040816979e-01
  +7.14396760268269370719e-01
  +7.14396769136475207063e-01
  +7.14396777989733000602e-01
  +7.14396786831834051945e-01
  +7.14396795663989059300e-01
  +7.14396804486591485706e-01
  +7.14396813299764010807e-01
  +7.14396822103565254380e-01
  +7.14396830898007095811e-01
  +7.14396839683160145285e-01
  +7.14396848458982436370e-01
  +7.14396857225529147151e-01
  +7.14396865982816153817e-01
  +7.14396874730852449176e-01
  +7.14396883469655574750e-01
  +7.14396892199247512956e-01
  +7.14396900919642918737e-01
  +7.14396909630877541275e-01
  +7.14396918332928954065e-01
  +7.14396927025854666660e-01
  +7.14396935709657232572e-01
  +7.14396944384343091095e-01
  +7.14396953049939442693e-01
  +7.14396961706473598852e-01
  +7.14396970353946225707e-01
  +7.14396978992368203443e-01
  +7.14396987621786161426e-01
  +7.14396996242218751405e-01
  +7.14397004853624340015e-01
  +7.14397013456074647664e-01
  +7.14397022049603980243e-01
  +7.14397030634156271489e-01
  +7.14397039209821338446e-01
  +7.14397047776574090072e-01
  +7.14397056334450386572e-01
  +7.14397064883439569805e-01
  +7.14397073423577833040e-01
  +7.14397081954921131519e-01
  +7.14397090477410068310e-01
  +7.14397098991098156162e-01
  +7.14397107496025141060e-01
  +7.14397115992164266629e-01
  +7.14397124479571821176e-01
  +7.14397132958258573865e-01
  +7.14397141428179116573e-01
  +7.14397149889441251958e-01
  +7.14397158341996241226e-01
  +7.14397166785883830364e-01
  +7.14397175221111346843e-01
  +7.14397183647720979138e-01
  +7.14397192065692299145e-01
  +7.14397200475061833203e-01
  +7.14397208875850786569e-01
  +7.14397217268065931606e-01
  +7.14397225651740130914e-01
  +7.14397234026863281464e-01
  +7.14397242393453923981e-01
  +7.14397250751559909077e-01
  +7.14397259101145598592e-01
  +7.14397267442251626690e-01
  +7.14397275774920292868e-01
  +7.14397284099122953371e-01
</dep>
<dep _net2.V Vx>
  +7.17163329955277761840e-01
  +7.47163329955215282929e-01
  +7.77163329955009363204e-01
  +8.07163329954353581108e-01
  +8.37163329952238632892e-01
  +8.67163329945517036279e-01
  +8.97163329924062447063e-01
  +9.27163329855589801731e-01
  +9.57163329637055193544e-01
  +9.87163328939619888480e-01
  +1.01716332671385289999e+00
  +1.04716331961062336653e+00
  +1.07716329694156942587e+00
  +1.10716322459611848927e+00
  +1.13716299371397266960e+00
  +1.16716225687335306560e+00
  +1.19715990523849757921e+00
  +1.22715239924678409800e+00
  +1.25712843410806729416e+00
  +1.28705184286025242635e+00
  +1.31680628737211469215e+00
  +1.34601090757277619403e+00
  +1.37334367866797646407e+00
  +1.39310659716190365920e+00
  +1.36044328585891438621e+00
  +1.33448124097995446391e+00
  +1.32943449866417040539e+00
  +1.32801203353469077229e+00
  +1.32756735158233141192e+00
  +1.32741592575919753472e+00
  +1.32735517402673508514e+00
  +1.32732272669048256830e+00
  +1.32729914709148033580e+00
  +1.32727835509282954263e+00
  +1.32725844645145230061e+00
  +1.32723882454794761543e+00
  +1.32721930242414032364e+00
  +1.32719982147696669017e+00
  +1.32718036333218947220e+00
  +1.32716092221588155553e+00
  +1.32714149630243127831e+00
  +1.32712208500890938012e+00
  +1.32710268813244169905e+00
  +1.32708330560018339384e+00
  +1.32706393737240091468e+00
  +1.32704458342183784225e+00
  +1.32702524372572838729e+00
  +1.32700591826261415918e+00
  +1.32698660701029780284e+00
  +1.32696730994973677298e+00
  +1.32694802705813685861e+00
  +1.32692875831364176520e+00
  +1.32690950369885740656e+00
  +1.32689026318874425669e+00
  +1.32687103676528295182e+00
