<Qucs Dataset 0.0.17>
<indep frequency 70>
  +1.00000000000e+00
  +1.44351163873e+00
  +2.08372585114e+00
  +3.00788251804e+00
  +4.34191342272e+00
  +6.26760256005e+00
  +9.04735724235e+00
  +1.30599654791e+01
  +1.88522121704e+01
  +2.72133876838e+01
  +3.92828418507e+01
  +5.67052394138e+01
  +8.18546730707e+01
  +1.18158173262e+02
  +1.70562698314e+02
  +2.46209240149e+02
  +3.55405903718e+02
  +5.13032558490e+02
  +7.40568469226e+02
  +1.06901920460e+03
  +1.54314166387e+03
  +2.22754295200e+03
  +3.21548417698e+03
  +4.64158883361e+03
  +6.70018750351e+03
  +9.67179864298e+03
  +1.39613539086e+04
  +2.01533768594e+04
  +2.90916340562e+04
  +4.19941123498e+04
  +6.06189899350e+04
  +8.75042174991e+04
  +1.26313356398e+05
  +1.82334800087e+05
  +2.63202406070e+05
  +3.79935736504e+05
  +5.48441657612e+05
  +7.91681915926e+05
  +1.14280205981e+06
  +1.64964807410e+06
  +2.38128619477e+06
  +3.43741433729e+06
  +4.96194760300e+06
  +7.16262911569e+06
  +1.03393384924e+07
  +1.49249554505e+07
  +2.15443469003e+07
  +3.10995154994e+07
  +4.48925125822e+07
  +6.48028644041e+07
  +9.35436889903e+07
  +1.35031403787e+08
  +1.94919402960e+08
  +2.81368426787e+08
  +4.06158598838e+08
  +5.86294664592e+08
  +8.46323172062e+08
  +1.22167734900e+09
  +1.76350547205e+09
  +2.54564067386e+09
  +3.67466194074e+09
  +5.30441727984e+09
  +7.65698808012e+09
  +1.10529514113e+10
  +1.59550640044e+10
  +2.30313205871e+10
  +3.32459793227e+10
  +4.79909580932e+10
  +6.92755065613e+10
  +1.00000000000e+11
</indep>
<dep NF frequency>
  +3.15836959187e+01
  +2.99917266975e+01
  +2.84007461134e+01
  +2.68111904508e+01
  +2.52236871333e+01
  +2.36391369673e+01
  +2.20588301718e+01
  +2.04846083671e+01
  +1.89190872418e+01
  +1.73659555827e+01
  +1.58303627697e+01
  +1.43193931733e+01
  +1.28425932289e+01
  +1.14124543566e+01
  +1.00446568831e+01
  +8.75776619133e+00
  +7.57201656562e+00
  +6.50695810955e+00
  +5.57819556024e+00
  +4.79410811869e+00
  +4.15384547222e+00
  +3.64753879612e+00
  +3.25862326959e+00
  +2.96720601450e+00
  +2.75321126724e+00
  +2.59853004281e+00
  +2.48804928233e+00
  +2.40983120293e+00
  +2.35480723245e+00
  +2.31627618040e+00
  +2.28938173565e+00
  +2.27065233664e+00
  +2.25762992812e+00
  +2.24858563890e+00
  +2.24230909997e+00
  +2.23795567132e+00
  +2.23493725131e+00
  +2.23284499586e+00
  +2.23139498621e+00
  +2.23039020521e+00
  +2.22969401106e+00
  +2.22921167297e+00
  +2.22887753979e+00
  +2.22864613643e+00
  +2.22848599874e+00
  +2.22837542454e+00
  +2.22829958359e+00
  +2.22824863046e+00
  +2.22821663866e+00
  +2.22820136606e+00
  +2.22820514263e+00
  +2.22823767369e+00
  +2.22832254043e+00
  +2.22851119616e+00
  +2.22891241859e+00
  +2.22975377376e+00
  +2.23150930426e+00
  +2.23516345938e+00
  +2.24275214900e+00
  +2.25845687793e+00
  +2.29077474527e+00
  +2.35671472564e+00
  +2.48949784566e+00
  +2.75055568284e+00
  +3.24033708787e+00
  +4.08589811375e+00
  +5.37255303702e+00
  +7.03737130985e+00
  +8.82771786026e+00
  +1.03821752702e+01
</dep>
<dep NFmin frequency>
  +3.09881805058e+01
  +2.93976285797e+01
  +2.78086870125e+01
  +2.62220604702e+01
  +2.46387559734e+01
  +2.30602063091e+01
  +2.14884372533e+01
  +1.99262874279e+01
  +1.83776842650e+01
  +1.68479655017e+01
  +1.53442076314e+01
  +1.38754776803e+01
  +1.24528697462e+01
  +1.10891522982e+01
  +9.79789064828e+00
  +8.59206890154e+00
  +7.48248609606e+00
  +6.47639208612e+00
  +5.57678851995e+00
  +4.78254169043e+00
  +4.08913044334e+00
  +3.48968744398e+00
  +2.97602452542e+00
  +2.53946429731e+00
  +2.17142485571e+00
  +1.86377759260e+00
  +1.60902474577e+00
  +1.40034491443e+00
  +1.23154961048e+00
  +1.09699174396e+00
  +9.91468461903e-01
  +9.10158637170e-01
  +8.48619780059e-01
  +8.02839621120e-01
  +7.69309184409e-01
  +7.45075973401e-01
  +7.27751361629e-01
  +7.15470677577e-01
  +7.06821347114e-01
  +7.00758557861e-01
  +6.96523512222e-01
  +6.93572574876e-01
  +6.91520121460e-01
  +6.90094610738e-01
  +6.89105938334e-01
  +6.88421789166e-01
  +6.87950937827e-01
  +6.87631936558e-01
  +6.87426268114e-01
  +6.87315885920e-01
  +6.87306373328e-01
  +6.87439303699e-01
  +6.87821957762e-01
  +6.88691721847e-01
  +6.90550784672e-01
  +6.94442005365e-01
  +7.02498942902e-01
  +7.18989229014e-01
  +7.52105593636e-01
  +8.16475479201e-01
  +9.35428599872e-01
  +1.14131054191e+00
  +1.47396091186e+00
  +1.98007812182e+00
  +2.71306418912e+00
  +3.72594802697e+00
  +5.04580096806e+00
  +6.62296953552e+00
  +8.27724784664e+00
  +9.70585052829e+00
</dep>
<dep Rn frequency>
  +7.42272152443e+03
  +5.15199129447e+03
  +3.57893142502e+03
  +2.48918623195e+03
  +1.73425972923e+03
  +1.21128057030e+03
  +8.48984108738e+02
  +5.98001399740e+02
  +4.24131856700e+02
  +3.03682850003e+02
  +2.20241190466e+02
  +1.62436558139e+02
  +1.22392106278e+02
  +9.46511094016e+01
  +7.54333932904e+01
  +6.21202231049e+01
  +5.28974570195e+01
  +4.65083390948e+01
  +4.20822452878e+01
  +3.90160463820e+01
  +3.68919215579e+01
  +3.54204233260e+01
  +3.44010354718e+01
  +3.36948493720e+01
  +3.32056353741e+01
  +3.28667298989e+01
  +3.26319514141e+01
  +3.24693074296e+01
  +3.23566349853e+01
  +3.22785805789e+01
  +3.22245079934e+01
  +3.21870489359e+01
  +3.21610989842e+01
  +3.21431220238e+01
  +3.21306683936e+01
  +3.21220410787e+01
  +3.21160644637e+01
  +3.21119241355e+01
  +3.21090559066e+01
  +3.21070689360e+01
  +3.21056924715e+01
  +3.21047389594e+01
  +3.21040784939e+01
  +3.21036211298e+01
  +3.21033046566e+01
  +3.21030861852e+01
  +3.21029364365e+01
  +3.21028360279e+01
  +3.21027734092e+01
  +3.21027444899e+01
  +3.21027545845e+01
  +3.21028243457e+01
  +3.21030034154e+01
  +3.21033996847e+01
  +3.21042405072e+01
  +3.21059990459e+01
  +3.21096509392e+01
  +3.21171811751e+01
  +3.21325332179e+01
  +3.21632327589e+01
  +3.22229126230e+01
  +3.23357115119e+01
  +3.25474817157e+01
  +3.29544430481e+01
  +3.37585423706e+01
  +3.53545593550e+01
  +3.84341363309e+01
  +4.39623752289e+01
  +5.25442737714e+01
  +6.26474070134e+01
</dep>
<dep Fmin frequency>
  +1.25550385512e+03
  +8.70488139084e+02
  +6.03766067274e+02
  +4.18992305015e+02
  +2.90988346921e+02
  +2.02311528333e+02
  +1.40878177718e+02
  +9.83170282007e+01
  +6.88285192642e+01
  +4.83945605051e+01
  +3.42310927435e+01
  +2.44088752636e+01
  +1.75908560470e+01
  +1.28503580860e+01
  +9.54528862392e+00
  +7.23114200285e+00
  +5.60078123540e+00
  +4.44262042156e+00
  +3.61142709457e+00
  +3.00783611122e+00
  +2.56397061969e+00
  +2.23341148137e+00
  +1.98427770404e+00
  +1.79451225991e+00
  +1.64870321785e+00
  +1.53595240841e+00
  +1.44844655302e+00
  +1.38049389836e+00
  +1.32786817118e+00
  +1.28735752042e+00
  +1.25645473170e+00
  +1.23314987636e+00
  +1.21579954916e+00
  +1.20305078857e+00
  +1.19379819646e+00
  +1.18715546839e+00
  +1.18242917307e+00
  +1.17909030320e+00
  +1.17674438507e+00
  +1.17510278564e+00
  +1.17395743647e+00
  +1.17316002866e+00
  +1.17260573024e+00
  +1.17222090202e+00
  +1.17195407603e+00
  +1.17176947127e+00
  +1.17164243781e+00
  +1.17155638061e+00
  +1.17150090063e+00
  +1.17147112563e+00
  +1.17146855969e+00
  +1.17150441696e+00
  +1.17160764200e+00
  +1.17184230405e+00
  +1.17234403614e+00
  +1.17339491149e+00
  +1.17557378890e+00
  +1.18004596142e+00
  +1.18907858969e+00
  +1.20683403033e+00
  +1.24034602730e+00
  +1.30056198086e+00
  +1.40409370149e+00
  +1.57763964837e+00
  +1.86769699017e+00
  +2.35827693106e+00
  +3.19580371161e+00
  +4.59512101816e+00
  +6.72550321548e+00
  +9.34512366524e+00
</dep>
<dep Sopt frequency>
  -3.57918916144e-01-j4.58602569245e-14
  -3.57502450567e-01-j5.38528199276e-14
  -3.56902436201e-01-j5.20483549994e-14
  -3.56038710833e-01-j2.17205677416e-14
  -3.54796884111e-01+j7.95931119533e-14
  -3.53014547080e-01+j3.45037270598e-13
  -3.50462784065e-01+j9.74534208135e-13
  -3.46822275367e-01+j2.39046077537e-12
  -3.41654152520e-01+j5.47369557221e-12
  -3.34367819367e-01+j1.20392163208e-11
  -3.24191837501e-01+j2.57791197227e-11
  -3.10159996154e-01+j5.40946164863e-11
  -2.91131663082e-01+j1.11564741125e-10
  -2.65869178639e-01+j2.26312158265e-10
  -2.33187793073e-01+j4.51271899508e-10
  -1.92169100955e-01+j8.83374811117e-10
  -1.42392149036e-01+j1.69494601975e-09
  -8.41094313058e-02+j3.18325017843e-09
  -1.83028532541e-02+j5.84623219251e-09
  +5.34011944752e-02+j1.04953448282e-08
  +1.28926389030e-01+j1.84202785880e-08
  +2.05990176261e-01+j3.16259437361e-08
  +2.82337907447e-01+j5.31699718477e-08
  +3.55928988249e-01+j8.76403724548e-08
  +4.25059860008e-01+j1.41829282473e-07
  +4.88426336824e-01+j2.25682248897e-07
  +5.45138055648e-01+j3.53637028384e-07
  +5.94701395071e-01+j5.46518120095e-07
  +6.36985454602e-01+j8.34233902058e-07
  +6.72179938532e-01+j1.25964726204e-06
  +7.00746347581e-01+j1.88417484432e-06
  +7.23358603347e-01+j2.79593000812e-06
  +7.40830132545e-01+j4.12157781232e-06
  +7.54031811353e-01+j6.04355296374e-06
  +7.63813361835e-01+j8.82497983390e-06
  +7.70942554622e-01+j1.28456488326e-05
  +7.76070348093e-01+j1.86539030654e-05
  +7.79721000888e-01+j2.70414729430e-05
  +7.82300059446e-01+j3.91514444828e-05
  +7.84111762410e-01+j5.66340762058e-05
  +7.85379203032e-01+j8.18717049487e-05
  +7.86263271526e-01+j1.18303394958e-04
  +7.86878610868e-01+j1.70893573121e-04
  +7.87306197382e-01+j2.46808508144e-04
  +7.87602838689e-01+j3.56392801757e-04
  +7.87808121231e-01+j5.14578909394e-04
  +7.87949343068e-01+j7.42921620483e-04
  +7.88044856433e-01+j1.07253430591e-03
  +7.88106067191e-01+j1.54832576823e-03
  +7.88138082818e-01+j2.23511119501e-03
  +7.88138588151e-01+j3.22641838660e-03
  +7.88093775558e-01+j4.65715455545e-03
  +7.87968683145e-01+j6.72175563033e-03
  +7.87686344103e-01+j9.69997949854e-03
  +7.87084289897e-01+j1.39929296696e-02
  +7.85825793347e-01+j2.01714834275e-02
  +7.83224191966e-01+j2.90358443402e-02
  +7.77914969848e-01+j4.16726465007e-02
  +7.67314419287e-01+j5.94629724291e-02
  +7.46943496721e-01+j8.39289036906e-02
  +7.10106642584e-01+j1.16236403972e-01
  +6.48800674232e-01+j1.56222706053e-01
  +5.56163814757e-01+j2.01099955804e-01
  +4.29685772254e-01+j2.44440481279e-01
  +2.74429144228e-01+j2.76607101393e-01
  +1.05095829747e-01+j2.87959234615e-01
  -5.61878281717e-02+j2.74418730485e-01
  -1.88497869954e-01+j2.41309375909e-01
  -2.82376762036e-01+j2.00813227277e-01
  -3.42414199583e-01+j1.64785968143e-01
</dep>
<dep F frequency>
  +1.44002354109e+03
  +9.98096815057e+02
  +6.91949836969e+02
  +4.79864967077e+02
  +3.32942099119e+02
  +2.31160538087e+02
  +1.60650846096e+02
  +1.11804899794e+02
  +7.79666230589e+01
  +5.45249854390e+01
  +3.82856722316e+01
  +2.70358057451e+01
  +1.92424037491e+01
  +1.38434850380e+01
  +1.01033567521e+01
  +7.51236393593e+00
  +5.71744053760e+00
  +4.47399826101e+00
  +3.61259732511e+00
  +3.01585746324e+00
  +2.60246290107e+00
  +2.31608172404e+00
  +2.11768971295e+00
  +1.98025264229e+00
  +1.88504241539e+00
  +1.81908504841e+00
  +1.77339274831e+00
  +1.74173917597e+00
  +1.71981100338e+00
  +1.70462015074e+00
  +1.69409661062e+00
  +1.68680637491e+00
  +1.68175602719e+00
  +1.67825737325e+00
  +1.67583366306e+00
  +1.67415462563e+00
  +1.67299146414e+00
  +1.67218567852e+00
  +1.67162746727e+00
  +1.67124076532e+00
  +1.67097287917e+00
  +1.67078730713e+00
  +1.67065876670e+00
  +1.67056975204e+00
  +1.67050815415e+00
  +1.67046562246e+00
  +1.67043645134e+00
  +1.67041685324e+00
  +1.67040454835e+00
  +1.67039867414e+00
  +1.67040012670e+00
  +1.67041263897e+00
  +1.67044528130e+00
  +1.67051784633e+00
  +1.67067218405e+00
  +1.67099587337e+00
  +1.67167146961e+00
  +1.67307860640e+00
  +1.67600463330e+00
  +1.68207628460e+00
  +1.69464008319e+00
  +1.72056653872e+00
  +1.77398435154e+00
  +1.88389011913e+00
  +2.10879182242e+00
  +2.56206303968e+00
  +3.44552419308e+00
  +5.05518589963e+00
  +7.63434506991e+00
  +1.09198714798e+01
</dep>
<dep S[1,1] frequency>
  +9.59512640432e-01-j1.19755651648e-10
  +9.59512640432e-01-j1.72868676958e-10
  +9.59512640432e-01-j2.49537947160e-10
  +9.59512640432e-01-j3.60210931030e-10
  +9.59512640432e-01-j5.19968671339e-10
  +9.59512640432e-01-j7.50580828851e-10
  +9.59512640432e-01-j1.08347216225e-09
  +9.59512640432e-01-j1.56400467645e-09
  +9.59512640432e-01-j2.25765895348e-09
  +9.59512640432e-01-j3.25895697563e-09
  +9.59512640432e-01-j4.70434232443e-09
  +9.59512640432e-01-j6.79077289788e-09
  +9.59512640432e-01-j9.80255971404e-09
  +9.59512640432e-01-j1.41501090365e-08
  +9.59512640432e-01-j2.04258470835e-08
  +9.59512640432e-01-j2.94849479959e-08
  +9.59512640432e-01-j4.25618655994e-08
  +9.59512640432e-01-j6.14385483588e-08
  +9.59512640432e-01-j8.86872596224e-08
  +9.59512640432e-01-j1.28021091472e-07
  +9.59512640432e-01-j1.84799935542e-07
  +9.59512640432e-01-j2.66760857791e-07
  +9.59512640432e-01-j3.85072402979e-07
  +9.59512640432e-01-j5.55856495453e-07
  +9.59512640432e-01-j8.02385320649e-07
  +9.59512640432e-01-j1.15825254910e-06
  +9.59512640430e-01-j1.67195103521e-06
  +9.59512640428e-01-j2.41348077871e-06
  +9.59512640424e-01-j3.48388759390e-06
  +9.59512640414e-01-j5.02903228978e-06
  +9.59512640395e-01-j7.25946664173e-06
  +9.59512640354e-01-j1.04791245880e-05
  +9.59512640270e-01-j1.51267383055e-05
  +9.59512640094e-01-j2.18356227972e-05
  +9.59512639726e-01-j3.15199756383e-05
  +9.59512638961e-01-j4.54994516612e-05
  +9.59512637367e-01-j6.56789879531e-05
  +9.59512634044e-01-j9.48083833029e-05
  +9.59512627120e-01-j1.36857004063e-04
  +9.59512612694e-01-j1.97554676150e-04
  +9.59512582633e-01-j2.85172468122e-04
  +9.59512519994e-01-j4.11649758173e-04
  +9.59512389472e-01-j5.94221161037e-04
  +9.59512117499e-01-j8.57764993600e-04
  +9.59511550784e-01-j1.23819324522e-03
  +9.59510369906e-01-j1.78734483749e-03
  +9.59507909286e-01-j2.58004849439e-03
  +9.59502782058e-01-j3.72431625128e-03
  +9.59492098448e-01-j5.37605241038e-03
  +9.59469837287e-01-j7.76026956750e-03
  +9.59423453529e-01-j1.12016645068e-02
  +9.59326812911e-01-j1.61686054642e-02
  +9.59125485570e-01-j2.33361792308e-02
  +9.58706170768e-01-j3.36758519339e-02
  +9.57833284311e-01-j4.85808529498e-02
  +9.56018111017e-01-j7.00350929397e-02
  +9.52251682795e-01-j1.00821200021e-01
  +9.44471651908e-01-j1.44716335661e-01
  +9.28548869100e-01-j2.06479645302e-01
  +8.96562124900e-01-j2.91054857373e-01
  +8.34604979542e-01-j4.00642709644e-01
  +7.22499656241e-01-j5.27671328041e-01
  +5.42316654199e-01-j6.44792312398e-01
  +3.01294015433e-01-j7.05936154893e-01
  +4.76448739201e-02-j6.78165015380e-01
  -1.59595013939e-01-j5.76750826705e-01
  -2.96039309356e-01-j4.48266896176e-01
  -3.72476185656e-01-j3.29896601940e-01
  -4.09688724568e-01-j2.37115471197e-01
  -4.24359632767e-01-j1.72426944847e-01
</dep>
<dep S[1,2] frequency>
  +6.99475755859e-05+j1.18748654488e-11
  +6.99475755859e-05+j1.71415064837e-11
  +6.99475755859e-05+j2.47439641146e-11
  +6.99475755859e-05+j3.57182001877e-11
  +6.99475755859e-05+j5.15596376853e-11
  +6.99475755859e-05+j7.44269370873e-11
  +6.99475755859e-05+j1.07436149920e-10
  +6.99475755859e-05+j1.55085332830e-10
  +6.99475755859e-05+j2.23867482936e-10
  +6.99475755859e-05+j3.23155317151e-10
  +6.99475755859e-05+j4.66478461425e-10
  +6.99475755859e-05+j6.73367088283e-10
  +6.99475755859e-05+j9.72013229072e-10
  +6.99475755859e-05+j1.40311240916e-09
  +6.99475755860e-05+j2.02540909307e-09
  +6.99475755860e-05+j2.92370159903e-09
  +6.99475755861e-05+j4.22039728637e-09
  +6.99475755862e-05+j6.09219260293e-09
  +6.99475755865e-05+j8.79415092771e-09
  +6.99475755870e-05+j1.26944592169e-08
  +6.99475755882e-05+j1.83245996269e-08
  +6.99475755907e-05+j2.64517728365e-08
  +6.99475755958e-05+j3.81834419545e-08
  +6.99475756066e-05+j5.51182428679e-08
  +6.99475756290e-05+j7.95638250861e-08
  +6.99475756756e-05+j1.14851307533e-07
  +6.99475757728e-05+j1.65789199148e-07
  +6.99475759752e-05+j2.39318638544e-07
  +6.99475763971e-05+j3.45459240102e-07
  +6.99475772762e-05+j4.98674433791e-07
  +6.99475791079e-05+j7.19842349103e-07
  +6.99475829248e-05+j1.03910080895e-06
  +6.99475908782e-05+j1.49995411144e-06
  +6.99476074508e-05+j2.16520121715e-06
  +6.99476419835e-05+j3.12549315633e-06
  +6.99477139403e-05+j4.51168574547e-06
  +6.99478638785e-05+j6.51267087650e-06
  +6.99481763086e-05+j9.40111618726e-06
  +6.99488273273e-05+j1.35706205666e-05
  +6.99501838718e-05+j1.95893485321e-05
  +6.99530105385e-05+j2.82774519976e-05
  +6.99589005365e-05+j4.08188292569e-05
  +6.99711736755e-05+j5.89224496514e-05
  +6.99967475240e-05+j8.50552254309e-05
  +7.00500363753e-05+j1.22778158445e-04
  +7.01610755686e-05+j1.77231552109e-04
  +7.03924500946e-05+j2.55835361288e-04
  +7.08745680861e-05+j3.69299977310e-04
  +7.18791563946e-05+j5.33084771973e-04
  +7.39723847838e-05+j7.69501910930e-04
  +7.83338460461e-05+j1.11074838555e-03
  +8.74208380192e-05+j1.60326821279e-03
  +1.06350874380e-04+j2.31400552736e-03
  +1.45775214877e-04+j3.33929952152e-03
  +2.27835166673e-04+j4.81733054298e-03
  +3.98438186296e-04+j6.94491147358e-03
  +7.52259018464e-04+j9.99825428432e-03
  +1.48239275040e-03+j1.43528759998e-02
  +2.97381326870e-03+j2.04842288533e-02
  +5.95941899324e-03+j2.88961316526e-02
  +1.17105577680e-02+j3.98588266650e-02
  +2.20457959286e-02+j5.27974522386e-02
  +3.85728171005e-02+j6.54567968142e-02
  +6.07274743223e-02+j7.40583478523e-02
  +8.45080445794e-02+j7.61155305455e-02
  +1.05292710979e-01+j7.34498328125e-02
  +1.22051456784e-01+j7.04886647914e-02
  +1.37554990887e-01+j7.01455850548e-02
  +1.55799801544e-01+j7.17332153239e-02
  +1.79007778739e-01+j7.09642432214e-02
</dep>
<dep S[2,1] frequency>
  -4.31680676956e+00+j4.24715967813e-10
  -4.31680676956e+00+j6.13082442692e-10
  -4.31680676956e+00+j8.84991641525e-10
  -4.31680676956e+00+j1.27749573472e-09
  -4.31680676956e+00+j1.84407996149e-09
  -4.31680676956e+00+j2.66195088716e-09
  -4.31680676956e+00+j3.84255708733e-09
  -4.31680676956e+00+j5.54677587804e-09
  -4.31680676956e+00+j8.00683553737e-09
  -4.31680676956e+00+j1.15579602876e-08
  -4.31680676956e+00+j1.66840501951e-08
  -4.31680676956e+00+j2.40836206377e-08
  -4.31680676956e+00+j3.47649866932e-08
  -4.31680676956e+00+j5.01836629119e-08
  -4.31680676956e+00+j7.24407014873e-08
  -4.31680676956e+00+j1.04568995715e-07
  -4.31680676956e+00+j1.50946562364e-07
  -4.31680676956e+00+j2.17893119599e-07
  -4.31680676956e+00+j3.14531254139e-07
  -4.31680676956e+00+j4.54029526094e-07
  -4.31680676956e+00+j6.55396905242e-07
  -4.31680676956e+00+j9.46073060704e-07
  -4.31680676956e+00+j1.36566747421e-06
  -4.31680676956e+00+j1.97135689366e-06
  -4.31680676956e+00+j2.84567662008e-06
  -4.31680676956e+00+j4.10776732114e-06
  -4.31680676955e+00+j5.92960993725e-06
  -4.31680676955e+00+j8.55946095752e-06
  -4.31680676953e+00+j1.23556815134e-05
  -4.31680676949e+00+j1.78355700688e-05
  -4.31680676942e+00+j2.57458529773e-05
  -4.31680676927e+00+j3.71644384204e-05
  -4.31680676895e+00+j5.36472994028e-05
  -4.31680676829e+00+j7.74405010628e-05
  -4.31680676691e+00+j1.11786264559e-04
  -4.31680676403e+00+j1.61364773836e-04
  -4.31680675803e+00+j2.32931928801e-04
  -4.31680674553e+00+j3.36239949316e-04
  -4.31680671949e+00+j4.85366277417e-04
  -4.31680666523e+00+j7.00631861995e-04
  -4.31680655215e+00+j1.01137022168e-03
  -4.31680631654e+00+j1.45992460915e-03
  -4.31680582560e+00+j2.10741793361e-03
  -4.31680480259e+00+j3.04208161895e-03
  -4.31680267094e+00+j4.39127812977e-03
  -4.31679822917e+00+j6.33885479331e-03
  -4.31678897377e+00+j9.15019173307e-03
  -4.31676968820e+00+j1.32083513027e-02
  -4.31672950296e+00+j1.90662375063e-02
  -4.31664577061e+00+j2.75218204339e-02
  -4.31647130688e+00+j3.97265182384e-02
  -4.31610782241e+00+j5.73410303784e-02
  -4.31535063790e+00+j8.27584296933e-02
  -4.31377381626e+00+j1.19420631565e-01
  -4.31049223896e+00+j1.72258556567e-01
  -4.30367199488e+00+j2.48277884065e-01
  -4.28953644911e+00+j3.57258386599e-01
  -4.26040539733e+00+j5.12342119313e-01
  -4.20105531500e+00+j7.29722276076e-01
  -4.08282042351e+00+j1.02527917044e+00
  -3.85692118186e+00+j1.40365074794e+00
  -3.45574347730e+00+j1.83435557293e+00
