<Qucs Dataset 0.0.18>
<indep time 401>
  +0.00000000000e+00
  +5.00000000000e-10
  +1.00000000000e-09
  +1.50000000000e-09
  +2.00000000000e-09
  +2.50000000000e-09
  +3.00000000000e-09
  +3.50000000000e-09
  +4.00000000000e-09
  +4.50000000000e-09
  +5.00000000000e-09
  +5.50000000000e-09
  +6.00000000000e-09
  +6.50000000000e-09
  +7.00000000000e-09
  +7.50000000000e-09
  +8.00000000000e-09
  +8.50000000000e-09
  +9.00000000000e-09
  +9.50000000000e-09
  +1.00000000000e-08
  +1.05000000000e-08
  +1.10000000000e-08
  +1.15000000000e-08
  +1.20000000000e-08
  +1.25000000000e-08
  +1.30000000000e-08
  +1.35000000000e-08
  +1.40000000000e-08
  +1.45000000000e-08
  +1.50000000000e-08
  +1.55000000000e-08
  +1.60000000000e-08
  +1.65000000000e-08
  +1.70000000000e-08
  +1.75000000000e-08
  +1.80000000000e-08
  +1.85000000000e-08
  +1.90000000000e-08
  +1.95000000000e-08
  +2.00000000000e-08
  +2.05000000000e-08
  +2.10000000000e-08
  +2.15000000000e-08
  +2.20000000000e-08
  +2.25000000000e-08
  +2.30000000000e-08
  +2.35000000000e-08
  +2.40000000000e-08
  +2.45000000000e-08
  +2.50000000000e-08
  +2.55000000000e-08
  +2.60000000000e-08
  +2.65000000000e-08
  +2.70000000000e-08
  +2.75000000000e-08
  +2.80000000000e-08
  +2.85000000000e-08
  +2.90000000000e-08
  +2.95000000000e-08
  +3.00000000000e-08
  +3.05000000000e-08
  +3.10000000000e-08
  +3.15000000000e-08
  +3.20000000000e-08
  +3.25000000000e-08
  +3.30000000000e-08
  +3.35000000000e-08
  +3.40000000000e-08
  +3.45000000000e-08
  +3.50000000000e-08
  +3.55000000000e-08
  +3.60000000000e-08
  +3.65000000000e-08
  +3.70000000000e-08
  +3.75000000000e-08
  +3.80000000000e-08
  +3.85000000000e-08
  +3.90000000000e-08
  +3.95000000000e-08
  +4.00000000000e-08
  +4.05000000000e-08
  +4.10000000000e-08
  +4.15000000000e-08
  +4.20000000000e-08
  +4.25000000000e-08
  +4.30000000000e-08
  +4.35000000000e-08
  +4.40000000000e-08
  +4.45000000000e-08
  +4.50000000000e-08
  +4.55000000000e-08
  +4.60000000000e-08
  +4.65000000000e-08
  +4.70000000000e-08
  +4.75000000000e-08
  +4.80000000000e-08
  +4.85000000000e-08
  +4.90000000000e-08
  +4.95000000000e-08
  +5.00000000000e-08
  +5.05000000000e-08
  +5.10000000000e-08
  +5.15000000000e-08
  +5.20000000000e-08
  +5.25000000000e-08
  +5.30000000000e-08
  +5.35000000000e-08
  +5.40000000000e-08
  +5.45000000000e-08
  +5.50000000000e-08
  +5.55000000000e-08
  +5.60000000000e-08
  +5.65000000000e-08
  +5.70000000000e-08
  +5.75000000000e-08
  +5.80000000000e-08
  +5.85000000000e-08
  +5.90000000000e-08
  +5.95000000000e-08
  +6.00000000000e-08
  +6.05000000000e-08
  +6.10000000000e-08
  +6.15000000000e-08
  +6.20000000000e-08
  +6.25000000000e-08
  +6.30000000000e-08
  +6.35000000000e-08
  +6.40000000000e-08
  +6.45000000000e-08
  +6.50000000000e-08
  +6.55000000000e-08
  +6.60000000000e-08
  +6.65000000000e-08
  +6.70000000000e-08
  +6.75000000000e-08
  +6.80000000000e-08
  +6.85000000000e-08
  +6.90000000000e-08
  +6.95000000000e-08
  +7.00000000000e-08
  +7.05000000000e-08
  +7.10000000000e-08
  +7.15000000000e-08
  +7.20000000000e-08
  +7.25000000000e-08
  +7.30000000000e-08
  +7.35000000000e-08
  +7.40000000000e-08
  +7.45000000000e-08
  +7.50000000000e-08
  +7.55000000000e-08
  +7.60000000000e-08
  +7.65000000000e-08
  +7.70000000000e-08
  +7.75000000000e-08
  +7.80000000000e-08
  +7.85000000000e-08
  +7.90000000000e-08
  +7.95000000000e-08
  +8.00000000000e-08
  +8.05000000000e-08
  +8.10000000000e-08
  +8.15000000000e-08
  +8.20000000000e-08
  +8.25000000000e-08
  +8.30000000000e-08
  +8.35000000000e-08
  +8.40000000000e-08
  +8.45000000000e-08
  +8.50000000000e-08
  +8.55000000000e-08
  +8.60000000000e-08
  +8.65000000000e-08
  +8.70000000000e-08
  +8.75000000000e-08
  +8.80000000000e-08
  +8.85000000000e-08
  +8.90000000000e-08
  +8.95000000000e-08
  +9.00000000000e-08
  +9.05000000000e-08
  +9.10000000000e-08
  +9.15000000000e-08
  +9.20000000000e-08
  +9.25000000000e-08
  +9.30000000000e-08
  +9.35000000000e-08
  +9.40000000000e-08
  +9.45000000000e-08
  +9.50000000000e-08
  +9.55000000000e-08
  +9.60000000000e-08
  +9.65000000000e-08
  +9.70000000000e-08
  +9.75000000000e-08
  +9.80000000000e-08
  +9.85000000000e-08
  +9.90000000000e-08
  +9.95000000000e-08
  +1.00000000000e-07
  +1.00500000000e-07
  +1.01000000000e-07
  +1.01500000000e-07
  +1.02000000000e-07
  +1.02500000000e-07
  +1.03000000000e-07
  +1.03500000000e-07
  +1.04000000000e-07
  +1.04500000000e-07
  +1.05000000000e-07
  +1.05500000000e-07
  +1.06000000000e-07
  +1.06500000000e-07
  +1.07000000000e-07
  +1.07500000000e-07
  +1.08000000000e-07
  +1.08500000000e-07
  +1.09000000000e-07
  +1.09500000000e-07
  +1.10000000000e-07
  +1.10500000000e-07
  +1.11000000000e-07
  +1.11500000000e-07
  +1.12000000000e-07
  +1.12500000000e-07
  +1.13000000000e-07
  +1.13500000000e-07
  +1.14000000000e-07
  +1.14500000000e-07
  +1.15000000000e-07
  +1.15500000000e-07
  +1.16000000000e-07
  +1.16500000000e-07
  +1.17000000000e-07
  +1.17500000000e-07
  +1.18000000000e-07
  +1.18500000000e-07
  +1.19000000000e-07
  +1.19500000000e-07
  +1.20000000000e-07
  +1.20500000000e-07
  +1.21000000000e-07
  +1.21500000000e-07
  +1.22000000000e-07
  +1.22500000000e-07
  +1.23000000000e-07
  +1.23500000000e-07
  +1.24000000000e-07
  +1.24500000000e-07
  +1.25000000000e-07
  +1.25500000000e-07
  +1.26000000000e-07
  +1.26500000000e-07
  +1.27000000000e-07
  +1.27500000000e-07
  +1.28000000000e-07
  +1.28500000000e-07
  +1.29000000000e-07
  +1.29500000000e-07
  +1.30000000000e-07
  +1.30500000000e-07
  +1.31000000000e-07
  +1.31500000000e-07
  +1.32000000000e-07
  +1.32500000000e-07
  +1.33000000000e-07
  +1.33500000000e-07
  +1.34000000000e-07
  +1.34500000000e-07
  +1.35000000000e-07
  +1.35500000000e-07
  +1.36000000000e-07
  +1.36500000000e-07
  +1.37000000000e-07
  +1.37500000000e-07
  +1.38000000000e-07
  +1.38500000000e-07
  +1.39000000000e-07
  +1.39500000000e-07
  +1.40000000000e-07
  +1.40500000000e-07
  +1.41000000000e-07
  +1.41500000000e-07
  +1.42000000000e-07
  +1.42500000000e-07
  +1.43000000000e-07
  +1.43500000000e-07
  +1.44000000000e-07
  +1.44500000000e-07
  +1.45000000000e-07
  +1.45500000000e-07
  +1.46000000000e-07
  +1.46500000000e-07
  +1.47000000000e-07
  +1.47500000000e-07
  +1.48000000000e-07
  +1.48500000000e-07
  +1.49000000000e-07
  +1.49500000000e-07
  +1.50000000000e-07
  +1.50500000000e-07
  +1.51000000000e-07
  +1.51500000000e-07
  +1.52000000000e-07
  +1.52500000000e-07
  +1.53000000000e-07
  +1.53500000000e-07
  +1.54000000000e-07
  +1.54500000000e-07
  +1.55000000000e-07
  +1.55500000000e-07
  +1.56000000000e-07
  +1.56500000000e-07
  +1.57000000000e-07
  +1.57500000000e-07
  +1.58000000000e-07
  +1.58500000000e-07
  +1.59000000000e-07
  +1.59500000000e-07
  +1.60000000000e-07
  +1.60500000000e-07
  +1.61000000000e-07
  +1.61500000000e-07
  +1.62000000000e-07
  +1.62500000000e-07
  +1.63000000000e-07
  +1.63500000000e-07
  +1.64000000000e-07
  +1.64500000000e-07
  +1.65000000000e-07
  +1.65500000000e-07
  +1.66000000000e-07
  +1.66500000000e-07
  +1.67000000000e-07
  +1.67500000000e-07
  +1.68000000000e-07
  +1.68500000000e-07
  +1.69000000000e-07
  +1.69500000000e-07
  +1.70000000000e-07
  +1.70500000000e-07
  +1.71000000000e-07
  +1.71500000000e-07
  +1.72000000000e-07
  +1.72500000000e-07
  +1.73000000000e-07
  +1.73500000000e-07
  +1.74000000000e-07
  +1.74500000000e-07
  +1.75000000000e-07
  +1.75500000000e-07
  +1.76000000000e-07
  +1.76500000000e-07
  +1.77000000000e-07
  +1.77500000000e-07
  +1.78000000000e-07
  +1.78500000000e-07
  +1.79000000000e-07
  +1.79500000000e-07
  +1.80000000000e-07
  +1.80500000000e-07
  +1.81000000000e-07
  +1.81500000000e-07
  +1.82000000000e-07
  +1.82500000000e-07
  +1.83000000000e-07
  +1.83500000000e-07
  +1.84000000000e-07
  +1.84500000000e-07
  +1.85000000000e-07
  +1.85500000000e-07
  +1.86000000000e-07
  +1.86500000000e-07
  +1.87000000000e-07
  +1.87500000000e-07
  +1.88000000000e-07
  +1.88500000000e-07
  +1.89000000000e-07
  +1.89500000000e-07
  +1.90000000000e-07
  +1.90500000000e-07
  +1.91000000000e-07
  +1.91500000000e-07
  +1.92000000000e-07
  +1.92500000000e-07
  +1.93000000000e-07
  +1.93500000000e-07
  +1.94000000000e-07
  +1.94500000000e-07
  +1.95000000000e-07
  +1.95500000000e-07
  +1.96000000000e-07
  +1.96500000000e-07
  +1.97000000000e-07
  +1.97500000000e-07
  +1.98000000000e-07
  +1.98500000000e-07
  +1.99000000000e-07
  +1.99500000000e-07
  +2.00000000000e-07
</indep>
<dep VDC.It time>
  -2.22044604925e-26
  -9.09494701773e-13
  +9.09494701773e-13
  -2.27373675443e-12
  +1.36424205266e-12
  +1.36424205266e-12
  +1.36424205266e-12
  -2.27373675443e-12
  -2.27373675443e-12
  +1.36424205266e-12
  +1.36424205266e-12
  +1.36424205266e-12
  +1.36424205266e-12
  +1.36424205266e-12
  +1.36424205266e-12
  +1.36424205266e-12
  -2.27373675443e-12
  +1.36424205266e-12
  +1.36424205266e-12
  +1.36424205266e-12
  +6.36646291241e-12
  -7.42617074612e-12
  -1.83211447684e-11
  +7.16115493181e-12
  -1.00535835406e-13
  -8.81595935905e-14
  -1.46293369268e-11
  +1.44838116550e-11
  -6.00158258684e-14
  +1.44989208776e-11
  -4.68969534748e-14
  -1.45935156528e-11
  +1.45149172245e-11
  +1.45189180431e-11
  -2.95178124214e-14
  -2.64904298968e-14
  -1.45757700828e-11
  +1.45303562914e-11
  -1.95574893479e-14
  -1.78113554708e-14
  -1.45682018338e-11
  -1.49538379026e-14
  -1.37875752933e-14
  -1.27657399761e-14
  -1.18692002463e-14
  -1.10813769900e-14
  -1.03879028616e-14
  -9.77632697119e-15
  -9.23585900464e-15
  -8.75714751206e-15
  -8.33208780090e-15
  -7.95365548123e-15
  -7.61576223745e-15
  -7.31313085887e-15
  -7.04118695705e-15
  +1.45451192632e-11
  -6.57402772742e-15
  -6.37239428830e-15
  +1.45457267477e-11
  -6.02004589289e-15
  -5.86514674767e-15
  -5.72209767175e-15
  -5.58943655513e-15
  -5.46589488878e-15
  -5.35037193508e-15
  -5.24191234699e-15
  -7.28109730096e-12
  -7.28100058925e-12
  -4.95115170050e-15
  -4.86367317711e-15
  -7.28073768127e-12
  +7.27125769156e-12
  -1.45565381108e-11
  -4.54863532597e-15
  -4.47691043709e-15
  -4.40747156535e-15
  -7.28029772689e-12
  -7.28023226821e-12
  -1.45561261667e-11
  -4.14882817880e-15
  +7.27186941108e-12
  -1.45559441859e-11
  -3.97099854887e-15
  -3.91424464983e-15
  -3.85862382521e-15
  -3.80407250927e-15
  -3.75053442997e-15
  -3.69795965139e-15
  -3.64630374363e-15
  +7.27236208712e-12
  +1.45483696342e-11
  +7.27246114110e-12
  -3.44813523054e-15
  -3.40055460385e-15
  -3.35370764732e-15
  -3.30757289116e-15
  -3.26213069116e-15
  -3.21736299911e-15
  -3.17325316364e-15
  -3.12978575750e-15
  -3.08694642771e-15
  -3.04472176554e-15
  -3.00309919363e-15
  -2.96206686804e-15
  -2.92161359321e-15
  +7.27307588544e-12
  -2.84240222185e-15
  -2.80362435833e-15
  -2.76538590729e-15
  -2.72767798235e-15
  +7.27326712216e-12
  -2.65381976880e-15
  -2.61765321917e-15
  -2.58198462142e-15
  -2.54680644337e-15
  -2.51211135604e-15
  -2.47789221746e-15
  -2.44414205846e-15
  -2.41085407022e-15
  -2.37802159337e-15
  -2.34563810835e-15
  -2.31369722694e-15
  -2.28219268480e-15
  +7.27370649585e-12
  -2.22046814141e-15
  -2.19023617495e-15
  -7.27811803079e-12
  -2.13100370836e-15
  -2.10199184058e-15
  -2.07337545741e-15
  -2.04514909933e-15
  -2.01730739131e-15
  -1.98984504029e-15
  -1.96275683290e-15
  -1.93603763332e-15
  -1.90968238139e-15
  -1.88368609079e-15
  +7.27409957034e-12
  +3.63614605628e-12
  +3.63617100489e-12
  +7.27417442087e-12
  +3.63621988759e-12
  -1.73497620657e-15
  -1.71135890614e-15
  -1.68806315497e-15
  -1.66508456721e-15
  -1.64241881791e-15
  -1.62006164198e-15
  -1.59800883331e-15
  -1.57625624380e-15
  -1.55479978248e-15
  +3.63644517168e-12
  -1.51275916105e-15
  -1.49216709698e-15
  -1.47185535156e-15
  -1.45182010694e-15
  -1.43205759750e-15
  -1.41256410914e-15
  -1.39333597853e-15
  -1.37436959236e-15
  -1.35566138670e-15
  -3.63931601494e-12
  -1.31900550370e-15
  -1.30105093901e-15
  -1.28334077881e-15
  -1.26587169572e-15
  -1.24864040772e-15
  -1.23164367752e-15
  -1.21487831194e-15
  -1.19834116134e-15
  +3.63679677797e-12
  -1.16593912036e-15
  +3.63682873895e-12
  -1.13441320499e-15
  -1.11897136579e-15
  -1.10373972442e-15
  -3.63906752251e-12
  -1.07389562871e-15
  +3.63691952952e-12
  -1.04485849140e-15
  +3.63694817140e-12
  -1.01660649258e-15
  -1.00276826319e-15
  -9.89118402479e-16
  +3.63700315275e-12
  -3.63894118066e-12
  -9.49273565049e-16
  -3.63891515898e-12
  -9.23606095954e-16
  -9.11033805602e-16
  -8.98632651582e-16
  -8.86400304345e-16
  -8.74334466053e-16
  -8.62432870146e-16
  -8.50693280920e-16
  -8.39113493106e-16
  -8.27691331452e-16
  -8.16424650317e-16
  -3.63878411842e-12
  -7.94349292686e-16
  -7.83536469361e-16
  -7.72870832120e-16
  -7.62350377437e-16
  -7.51973129059e-16
  -7.41737137636e-16
  -7.31640480351e-16
  -7.21681260561e-16
  -7.11857607441e-16
  -7.02167675634e-16
  -6.92609644900e-16
  -6.83181719777e-16
  -6.73882129244e-16
  -6.64709126388e-16
  -6.55660988074e-16
  -6.46736014623e-16
  -6.37932529493e-16
  -6.29248878963e-16
  -6.20683431824e-16
  -6.12234579068e-16
  -6.03900733594e-16
  -5.95680329900e-16
  -5.87571823798e-16
  -5.79573692117e-16
  +3.63740712266e-12
  -5.63902562725e-16
  -5.56226621218e-16
  -5.48655165985e-16
  -5.41186774743e-16
  -5.33820044564e-16
  -5.26553591620e-16
  -5.19386050921e-16
  -5.12316076055e-16
  -5.05342338938e-16
  -4.98463529566e-16
  -4.91678355765e-16
  -4.84985542950e-16
  +3.63750042326e-12
  -4.71871988460e-16
  -4.65448783424e-16
  -4.59113012191e-16
  +3.80904717555e-12
  -4.46699026682e-16
  +9.16542431954e-12
  -4.34620703705e-16
  +5.54326117168e-12
  +5.55216589878e-12
  -4.17112800024e-16
  +3.69609129782e-12
  -4.05834460884e-16
  +3.71838926101e-12
  +9.24428074205e-12
  -3.89486158580e-16
  +1.88061568775e-12
  -3.78954817930e-16
  +3.67111259700e-12
  -3.68708234860e-16
  +5.57760374708e-12
  +5.59377862376e-12
  -3.53855494971e-16
  +7.38992758846e-12
  -3.44287574067e-16
  +5.55025232290e-12
  -3.34978360776e-16
  +3.71267337641e-12
  +3.77464344386e-14
  -3.21484367449e-16
  +3.66017437811e-12
  -3.12791731491e-16
  +7.39824663304e-12
  +3.09446517586e-14
  -3.00191486127e-16
  +5.53400030996e-12
  -2.92074589721e-16
  +5.46822874395e-12
  -2.84177166586e-16
  +7.33691182070e-12
  +1.90544226905e-12
  +1.81871667394e-12
  -1.73710843558e-12
  +1.81872404829e-12
  +3.66010507124e-12
  +5.56351261082e-12
  -2.54665900697e-16
  +5.56300843530e-12
  -2.47779973449e-16
  +5.50721146613e-12
  -2.41080235219e-16
  -4.04501593889e-15
  +8.30506562286e-14
  -2.31368756908e-16
  +3.72577151492e-12
  -2.25112762591e-16
  +9.13204713043e-12
  +3.70709238636e-12
  -2.16044504841e-16
  +1.86787415601e-12
  -2.10202863936e-16
  +7.30592900474e-12
  -2.04519175525e-16
  +3.70716015056e-12
  +4.66228651643e-14
  -1.96280492933e-16
  +7.33522397171e-12
  -1.90973252385e-16
  +5.53007318511e-12
  +5.48058711358e-12
  -1.83280242642e-16
  +1.88660100301e-12
  -1.78324516675e-16
  +3.66543394265e-12
  -1.73502788894e-16
  +3.65478498132e-12
  +1.87350162779e-12
  -1.66513544962e-16
  +7.32139476793e-12
  -1.62011174785e-16
  +3.64693305869e-12
  +5.50489603803e-12
  -1.55484849603e-16
  +1.86032568550e-12
  -1.51280685011e-16
  +1.85468086566e-12
  -1.47190197089e-16
  +1.84995717285e-12
  +1.83372208458e-12
  -1.41260908008e-16
  +1.85875530337e-12
  -1.37441345464e-16
  +5.49420573781e-12
  -1.33725060311e-16
  +5.46409251694e-12
  +4.92178423526e-14
  -1.28338189747e-16
  +7.32469700137e-12
  -1.24868045392e-16
  +3.65859946304e-12
  +1.82583710600e-12
  -1.19837963547e-16
  +1.82727279609e-12
  -1.16597657341e-16
  +5.49583867936e-12
  -1.13444965978e-16
  +1.86073518592e-12
  +1.84822219882e-12
  -1.08875042087e-16
  +5.49010540960e-12
  -1.05931163002e-16
  +5.49467273825e-12
  +1.83079886231e-12
  -1.01663918983e-16
  +3.66952737952e-12
  -9.89150219068e-17
  +1.85668525236e-12
  -9.62404524311e-17
  +5.47299190620e-12
  +1.85281948041e-12
  -9.23635810425e-17
  +5.46999915748e-12
  -8.98661563870e-17
  +3.65919472233e-12
  +5.48248273772e-12
  -8.62460619081e-17
  +2.03038410265e-14
  -8.39140492358e-17
  +5.48679736058e-12
  -8.16450920002e-17
  +3.66363335219e-12
  +3.66883874798e-12
  -7.83561681311e-17
  +2.74259608036e-14
  -7.62374907910e-17
  +1.82924762935e-12
  +5.48723914570e-12
  -7.31664022903e-17
  +3.66598443281e-12
  -7.11880513541e-17
  +1.19749616989e-14
  -6.92631931728e-17
  +5.46755681716e-12
  +1.83614913009e-12
  -6.64730515527e-17
  +3.65438048366e-12
  -6.46756825465e-17
  +5.45880572766e-12
  +5.46588285041e-12
  -6.20703404390e-17
  +1.84234828385e-12
  -6.03920166145e-17
  +3.66194901088e-12
  -5.87590730931e-17
  +5.48191745648e-12
  +1.83745751982e-12
  -5.63920708243e-17
  +3.65795898491e-12
  -5.48672820878e-17
  +1.82661415165e-12
  -5.33837222095e-17
  +5.47388789034e-12
  +3.64901025878e-12
  -5.12332561635e-17
  +7.28966282832e-12
</dep>
<dep VGEN.It time>
  -1.63775251097e-10
  -9.07440227649e-11
  -3.16973674879e-10
  -7.56248369449e-11
  -3.31170665345e-10
  -5.66955163226e-11
  -3.54832316123e-10
  -3.77661957003e-11
  -3.78493966901e-10
  -1.41045449225e-11
  -3.97423287523e-10
  +9.55710585533e-12
  -4.21084938301e-10
  +4.74157470999e-11
  -4.58943579546e-10
  +7.88627801982e-11
  -4.55072154497e-10
  +4.38506533330e-11
  -2.75635059981e-24
  -5.25746102969e-24
  -8.65860215342e-24
  -1.42923862363e-11
  -3.01130981387e-11
  -4.39456560923e-11
  -5.60519936668e-11
  -6.66606127410e-11
  -7.59698880300e-11
  -8.41517269921e-11
  -9.13551037430e-11
  -9.77091210842e-11
  -1.03325663659e-10
  -1.08301696830e-10
  -1.12721258592e-10
  -1.16657185503e-10
  -1.20172608151e-10
  -1.23322246938e-10
  -1.26153534834e-10
  -1.28707590213e-10
  -1.31020059792e-10
  -1.33121849012e-10
  -1.35039754891e-10
  -1.36797014379e-10
  -1.38413779491e-10
  -1.39907528999e-10
  -1.41293425156e-10
  -1.42584622782e-10
  -1.43792537089e-10
  -1.44927075743e-10
  -1.45996839938e-10
  -1.47009298629e-10
  -1.47970939499e-10
  -1.48887399768e-10
  -1.49763579549e-10
  -1.50603740052e-10
  -1.51411588695e-10
  -1.52190352844e-10
  -1.52942843709e-10
  -1.53671511714e-10
  -1.54378494474e-10
  -1.55065658370e-10
  -1.55734634572e-10
  -1.56386850259e-10
  -1.57023555666e-10
  -1.57645847531e-10
  -1.58254689406e-10
  -1.58850929259e-10
  -1.59435314736e-10
  -1.60008506373e-10
  -1.60571089065e-10
  -1.61123581984e-10
  -1.61666447198e-10
  -1.62200097120e-10
  -1.62724900981e-10
  -1.63241190433e-10
  -1.63749264404e-10
  -1.64249393316e-10
  -1.64741822729e-10
  -1.65226776516e-10
  -1.65704459601e-10
  -1.66175060344e-10
  -1.66638752603e-10
  -1.67095697529e-10
  -1.67546045116e-10
  -1.67989935555e-10
  -1.68427500396e-10
  -1.68858863573e-10
  -1.69284142279e-10
  -1.69703447736e-10
  -1.70116885861e-10
  -1.70524557842e-10
  -1.70926560643e-10
  -1.71322987442e-10
  -1.71713928009e-10
  -1.72099469041e-10
  -1.72479694453e-10
  -1.72854685622e-10
  -1.73224521617e-10
  -1.73589279384e-10
  -1.73949033919e-10
  -1.74303858411e-10
  -1.74653824377e-10
  -1.74999001768e-10
  -1.75339459077e-10
  -1.75675263421e-10
  -1.76006480620e-10
  -1.76333175267e-10
  -1.76655410789e-10
  -1.76973249499e-10
  -1.77286752649e-10
  -1.77595980468e-10
  -1.77900992202e-10
  -1.78201846153e-10
  -1.78498599707e-10
  -1.78791309362e-10
  -1.79080030758e-10
  -1.79364818696e-10
  -1.79645727164e-10
  -1.79922809355e-10
  -1.80196117688e-10
  -1.80465703822e-10
  -1.80731618676e-10
  -1.80993912439e-10
  -1.81252634592e-10
  -1.81507833915e-10
  -1.81759558503e-10
  -1.82007855777e-10
  -1.82252772496e-10
  -1.82494354769e-10
  -1.82732648064e-10
  -1.82967697221e-10
  -1.83199546459e-10
  -1.83428239388e-10
  -1.83653819017e-10
  -1.83876327764e-10
  -1.84095807464e-10
  -1.84312299378e-10
  -1.84525844201e-10
  -1.84736482072e-10
  -1.84944252580e-10
  -1.85149194772e-10
  -1.85351347162e-10
  -1.85550747738e-10
  -1.85747433968e-10
  -1.85941442811e-10
  -1.86132810718e-10
  -1.86321573647e-10
