<Qucs Dataset 0.0.18>
<indep time 401>
  +0.00000000000e+00
  +5.00000000000e-10
  +1.00000000000e-09
  +1.50000000000e-09
  +2.00000000000e-09
  +2.50000000000e-09
  +3.00000000000e-09
  +3.50000000000e-09
  +4.00000000000e-09
  +4.50000000000e-09
  +5.00000000000e-09
  +5.50000000000e-09
  +6.00000000000e-09
  +6.50000000000e-09
  +7.00000000000e-09
  +7.50000000000e-09
  +8.00000000000e-09
  +8.50000000000e-09
  +9.00000000000e-09
  +9.50000000000e-09
  +1.00000000000e-08
  +1.05000000000e-08
  +1.10000000000e-08
  +1.15000000000e-08
  +1.20000000000e-08
  +1.25000000000e-08
  +1.30000000000e-08
  +1.35000000000e-08
  +1.40000000000e-08
  +1.45000000000e-08
  +1.50000000000e-08
  +1.55000000000e-08
  +1.60000000000e-08
  +1.65000000000e-08
  +1.70000000000e-08
  +1.75000000000e-08
  +1.80000000000e-08
  +1.85000000000e-08
  +1.90000000000e-08
  +1.95000000000e-08
  +2.00000000000e-08
  +2.05000000000e-08
  +2.10000000000e-08
  +2.15000000000e-08
  +2.20000000000e-08
  +2.25000000000e-08
  +2.30000000000e-08
  +2.35000000000e-08
  +2.40000000000e-08
  +2.45000000000e-08
  +2.50000000000e-08
  +2.55000000000e-08
  +2.60000000000e-08
  +2.65000000000e-08
  +2.70000000000e-08
  +2.75000000000e-08
  +2.80000000000e-08
  +2.85000000000e-08
  +2.90000000000e-08
  +2.95000000000e-08
  +3.00000000000e-08
  +3.05000000000e-08
  +3.10000000000e-08
  +3.15000000000e-08
  +3.20000000000e-08
  +3.25000000000e-08
  +3.30000000000e-08
  +3.35000000000e-08
  +3.40000000000e-08
  +3.45000000000e-08
  +3.50000000000e-08
  +3.55000000000e-08
  +3.60000000000e-08
  +3.65000000000e-08
  +3.70000000000e-08
  +3.75000000000e-08
  +3.80000000000e-08
  +3.85000000000e-08
  +3.90000000000e-08
  +3.95000000000e-08
  +4.00000000000e-08
  +4.05000000000e-08
  +4.10000000000e-08
  +4.15000000000e-08
  +4.20000000000e-08
  +4.25000000000e-08
  +4.30000000000e-08
  +4.35000000000e-08
  +4.40000000000e-08
  +4.45000000000e-08
  +4.50000000000e-08
  +4.55000000000e-08
  +4.60000000000e-08
  +4.65000000000e-08
  +4.70000000000e-08
  +4.75000000000e-08
  +4.80000000000e-08
  +4.85000000000e-08
  +4.90000000000e-08
  +4.95000000000e-08
  +5.00000000000e-08
  +5.05000000000e-08
  +5.10000000000e-08
  +5.15000000000e-08
  +5.20000000000e-08
  +5.25000000000e-08
  +5.30000000000e-08
  +5.35000000000e-08
  +5.40000000000e-08
  +5.45000000000e-08
  +5.50000000000e-08
  +5.55000000000e-08
  +5.60000000000e-08
  +5.65000000000e-08
  +5.70000000000e-08
  +5.75000000000e-08
  +5.80000000000e-08
  +5.85000000000e-08
  +5.90000000000e-08
  +5.95000000000e-08
  +6.00000000000e-08
  +6.05000000000e-08
  +6.10000000000e-08
  +6.15000000000e-08
  +6.20000000000e-08
  +6.25000000000e-08
  +6.30000000000e-08
  +6.35000000000e-08
  +6.40000000000e-08
  +6.45000000000e-08
  +6.50000000000e-08
  +6.55000000000e-08
  +6.60000000000e-08
  +6.65000000000e-08
  +6.70000000000e-08
  +6.75000000000e-08
  +6.80000000000e-08
  +6.85000000000e-08
  +6.90000000000e-08
  +6.95000000000e-08
  +7.00000000000e-08
  +7.05000000000e-08
  +7.10000000000e-08
  +7.15000000000e-08
  +7.20000000000e-08
  +7.25000000000e-08
  +7.30000000000e-08
  +7.35000000000e-08
  +7.40000000000e-08
  +7.45000000000e-08
  +7.50000000000e-08
  +7.55000000000e-08
  +7.60000000000e-08
  +7.65000000000e-08
  +7.70000000000e-08
  +7.75000000000e-08
  +7.80000000000e-08
  +7.85000000000e-08
  +7.90000000000e-08
  +7.95000000000e-08
  +8.00000000000e-08
  +8.05000000000e-08
  +8.10000000000e-08
  +8.15000000000e-08
  +8.20000000000e-08
  +8.25000000000e-08
  +8.30000000000e-08
  +8.35000000000e-08
  +8.40000000000e-08
  +8.45000000000e-08
  +8.50000000000e-08
  +8.55000000000e-08
  +8.60000000000e-08
  +8.65000000000e-08
  +8.70000000000e-08
  +8.75000000000e-08
  +8.80000000000e-08
  +8.85000000000e-08
  +8.90000000000e-08
  +8.95000000000e-08
  +9.00000000000e-08
  +9.05000000000e-08
  +9.10000000000e-08
  +9.15000000000e-08
  +9.20000000000e-08
  +9.25000000000e-08
  +9.30000000000e-08
  +9.35000000000e-08
  +9.40000000000e-08
  +9.45000000000e-08
  +9.50000000000e-08
  +9.55000000000e-08
  +9.60000000000e-08
  +9.65000000000e-08
  +9.70000000000e-08
  +9.75000000000e-08
  +9.80000000000e-08
  +9.85000000000e-08
  +9.90000000000e-08
  +9.95000000000e-08
  +1.00000000000e-07
  +1.00500000000e-07
  +1.01000000000e-07
  +1.01500000000e-07
  +1.02000000000e-07
  +1.02500000000e-07
  +1.03000000000e-07
  +1.03500000000e-07
  +1.04000000000e-07
  +1.04500000000e-07
  +1.05000000000e-07
  +1.05500000000e-07
  +1.06000000000e-07
  +1.06500000000e-07
  +1.07000000000e-07
  +1.07500000000e-07
  +1.08000000000e-07
  +1.08500000000e-07
  +1.09000000000e-07
  +1.09500000000e-07
  +1.10000000000e-07
  +1.10500000000e-07
  +1.11000000000e-07
  +1.11500000000e-07
  +1.12000000000e-07
  +1.12500000000e-07
  +1.13000000000e-07
  +1.13500000000e-07
  +1.14000000000e-07
  +1.14500000000e-07
  +1.15000000000e-07
  +1.15500000000e-07
  +1.16000000000e-07
  +1.16500000000e-07
  +1.17000000000e-07
  +1.17500000000e-07
  +1.18000000000e-07
  +1.18500000000e-07
  +1.19000000000e-07
  +1.19500000000e-07
  +1.20000000000e-07
  +1.20500000000e-07
  +1.21000000000e-07
  +1.21500000000e-07
  +1.22000000000e-07
  +1.22500000000e-07
  +1.23000000000e-07
  +1.23500000000e-07
  +1.24000000000e-07
  +1.24500000000e-07
  +1.25000000000e-07
  +1.25500000000e-07
  +1.26000000000e-07
  +1.26500000000e-07
  +1.27000000000e-07
  +1.27500000000e-07
  +1.28000000000e-07
  +1.28500000000e-07
  +1.29000000000e-07
  +1.29500000000e-07
  +1.30000000000e-07
  +1.30500000000e-07
  +1.31000000000e-07
  +1.31500000000e-07
  +1.32000000000e-07
  +1.32500000000e-07
  +1.33000000000e-07
  +1.33500000000e-07
  +1.34000000000e-07
  +1.34500000000e-07
  +1.35000000000e-07
  +1.35500000000e-07
  +1.36000000000e-07
  +1.36500000000e-07
  +1.37000000000e-07
  +1.37500000000e-07
  +1.38000000000e-07
  +1.38500000000e-07
  +1.39000000000e-07
  +1.39500000000e-07
  +1.40000000000e-07
  +1.40500000000e-07
  +1.41000000000e-07
  +1.41500000000e-07
  +1.42000000000e-07
  +1.42500000000e-07
  +1.43000000000e-07
  +1.43500000000e-07
  +1.44000000000e-07
  +1.44500000000e-07
  +1.45000000000e-07
  +1.45500000000e-07
  +1.46000000000e-07
  +1.46500000000e-07
  +1.47000000000e-07
  +1.47500000000e-07
  +1.48000000000e-07
  +1.48500000000e-07
  +1.49000000000e-07
  +1.49500000000e-07
  +1.50000000000e-07
  +1.50500000000e-07
  +1.51000000000e-07
  +1.51500000000e-07
  +1.52000000000e-07
  +1.52500000000e-07
  +1.53000000000e-07
  +1.53500000000e-07
  +1.54000000000e-07
  +1.54500000000e-07
  +1.55000000000e-07
  +1.55500000000e-07
  +1.56000000000e-07
  +1.56500000000e-07
  +1.57000000000e-07
  +1.57500000000e-07
  +1.58000000000e-07
  +1.58500000000e-07
  +1.59000000000e-07
  +1.59500000000e-07
  +1.60000000000e-07
  +1.60500000000e-07
  +1.61000000000e-07
  +1.61500000000e-07
  +1.62000000000e-07
  +1.62500000000e-07
  +1.63000000000e-07
  +1.63500000000e-07
  +1.64000000000e-07
  +1.64500000000e-07
  +1.65000000000e-07
  +1.65500000000e-07
  +1.66000000000e-07
  +1.66500000000e-07
  +1.67000000000e-07
  +1.67500000000e-07
  +1.68000000000e-07
  +1.68500000000e-07
  +1.69000000000e-07
  +1.69500000000e-07
  +1.70000000000e-07
  +1.70500000000e-07
  +1.71000000000e-07
  +1.71500000000e-07
  +1.72000000000e-07
  +1.72500000000e-07
  +1.73000000000e-07
  +1.73500000000e-07
  +1.74000000000e-07
  +1.74500000000e-07
  +1.75000000000e-07
  +1.75500000000e-07
  +1.76000000000e-07
  +1.76500000000e-07
  +1.77000000000e-07
  +1.77500000000e-07
  +1.78000000000e-07
  +1.78500000000e-07
  +1.79000000000e-07
  +1.79500000000e-07
  +1.80000000000e-07
  +1.80500000000e-07
  +1.81000000000e-07
  +1.81500000000e-07
  +1.82000000000e-07
  +1.82500000000e-07
  +1.83000000000e-07
  +1.83500000000e-07
  +1.84000000000e-07
  +1.84500000000e-07
  +1.85000000000e-07
  +1.85500000000e-07
  +1.86000000000e-07
  +1.86500000000e-07
  +1.87000000000e-07
  +1.87500000000e-07
  +1.88000000000e-07
  +1.88500000000e-07
  +1.89000000000e-07
  +1.89500000000e-07
  +1.90000000000e-07
  +1.90500000000e-07
  +1.91000000000e-07
  +1.91500000000e-07
  +1.92000000000e-07
  +1.92500000000e-07
  +1.93000000000e-07
  +1.93500000000e-07
  +1.94000000000e-07
  +1.94500000000e-07
  +1.95000000000e-07
  +1.95500000000e-07
  +1.96000000000e-07
  +1.96500000000e-07
  +1.97000000000e-07
  +1.97500000000e-07
  +1.98000000000e-07
  +1.98500000000e-07
  +1.99000000000e-07
  +1.99500000000e-07
  +2.00000000000e-07
</indep>
<dep VDC.It time>
  -2.22044604925e-26
  -1.81898940355e-12
  -1.81898940355e-12
  -1.81898940355e-12
  +1.81898940355e-12
  +7.27595761418e-12
  +1.09139364213e-11
  +1.27329258248e-11
  -1.27329258248e-11
  -1.09139364213e-11
  -7.27595761418e-12
  -7.27595761418e-12
  -5.45696821064e-12
  -3.63797880709e-12
  -3.63797880709e-12
  -2.22044604925e-26
  +1.81898940355e-12
  +1.81898940355e-12
  +1.81898940355e-12
  +5.45696821064e-12
  +5.29265836280e-12
  -1.43577432323e-13
  -1.46774977603e-11
  -3.74794236320e-12
  -3.73438427585e-12
  -8.46346200889e-14
  -7.44137197384e-14
  -6.55370054621e-14
  -5.78260537630e-14
  -5.11261471961e-14
  -4.53031243806e-14
  -4.02406485767e-14
  -3.58378392094e-14
  -7.30796483229e-12
  -2.86729286648e-14
  -7.30172680576e-12
  -7.29919658006e-12
  -1.45729480161e-11
  +7.25684985034e-12
  -1.74266980719e-14
  -1.59573347420e-14
  -1.46717020350e-14
  -1.35455428241e-14
  -1.25578210993e-14
  -1.16902939793e-14
  -1.09271405932e-14
  -1.45621698686e-11
  -9.66089352527e-15
  -9.13558003329e-15
  -8.66974887527e-15
  +7.26770197761e-12
  -7.88650933830e-15
  -7.28351414045e-12
  -7.26062073858e-15
  -6.99439752682e-15
  +7.26920357055e-12
  +7.26942136323e-12
  -6.33814917369e-15
  -6.15724766498e-15
  -7.28194899921e-12
  -7.28179629957e-12
  -5.69752045063e-15
  -5.56647665620e-15
  -5.44432665016e-15
  -5.33000456832e-15
  -5.22258459929e-15
  +7.27083635179e-12
  -7.28098295314e-12
  -4.93420664808e-15
  +7.27111027710e-12
  -7.28072188480e-12
  +7.27127300696e-12
  -4.60799860766e-15
  -4.53414132614e-15
  -4.46277087383e-15
  -4.39365651386e-15
  -4.32659681249e-15
  -4.26141576381e-15
  +3.63378084766e-12
  -4.13609302261e-15
  -4.07569838417e-15
  -3.64199547888e-12
  +3.63401988505e-12
  -3.90236883282e-15
  -3.84694131353e-15
  +3.63418623025e-12
  -3.64171802702e-12
  +3.63429198582e-12
  +3.63434347010e-12
  +3.63439407921e-12
  -3.53495884866e-15
  +3.63449280876e-12
  -3.43781789942e-15
  +3.63458841529e-12
  -3.34369666550e-15
  -3.29771116827e-15
  -3.25241579349e-15
  -3.20779259934e-15
  -3.16382502434e-15
  -3.12049771759e-15
  -3.07779639140e-15
  -3.64101451478e-12
  -2.99421909475e-15
  -2.95331879491e-15
  +3.63506581146e-12
  -2.87323903230e-15
  -3.64081284599e-12
  -2.79538562173e-15
  -2.75726996432e-15
  -2.71968306991e-15
  -2.68261640326e-15
  -3.64062486882e-12
  -2.61001105559e-15
  -3.64055326376e-12
  -2.53939104933e-15
  -2.50480689194e-15
  -2.47069707444e-15
  -2.43705464811e-15
  -2.40387282445e-15
  -3.64034995206e-12
  -2.33886456788e-15
  -2.30702526710e-15
  -2.27562081733e-15
  -2.24464509116e-15
  -2.21409207247e-15
  -2.18395585116e-15
  -2.15423061857e-15
  -2.12491066325e-15
  -2.09599036725e-15
  -2.06746420275e-15
  -2.03932672899e-15
  -2.01157258955e-15
  +3.63599461058e-12
  -1.95719329465e-15
  +3.63604824927e-12
  -1.90428506272e-15
  -1.87837003508e-15
  -1.85280784684e-15
  -3.63980640076e-12
  -1.80272275278e-15
  +3.63620061669e-12
  +3.63622481510e-12
  -3.63970893006e-12
  -1.70657883048e-15
  +3.63629545194e-12
  -1.66044756685e-15
  -3.63961665885e-12
  -1.61556348062e-15
  -1.59357854147e-15
  -1.57189280834e-15
  -1.55050220515e-15
  -1.52940271188e-15
  +3.63647021673e-12
  -1.48806125028e-15
  -1.46781151475e-15
  -1.44783735315e-15
  -1.42813501355e-15
  -1.40870079534e-15
  -1.38953104847e-15
  -1.37062217276e-15
  -1.35197061720e-15
  -1.33357287921e-15
  -1.31542550403e-15
  -1.29752508401e-15
  -1.82026927180e-12
  -1.82025185526e-12
  -1.24527217144e-15
  -1.82021772996e-12
  +1.81777779229e-12
  -1.19512356772e-15
  -1.17886024258e-15
  -1.16281823123e-15
  -1.82013639807e-12
  -1.13138614347e-15
  -1.11599016586e-15
  -1.10080369847e-15
  -1.08582389016e-15
  -1.07104792862e-15
  -1.05647303980e-15
  -1.04209648742e-15
  -1.02791557245e-15
  -1.01392763257e-15
  +1.81798927350e-12
  -9.86520209628e-16
  -9.73095581166e-16
  +1.81802954991e-12
  -9.46791888324e-16
  -9.33907885792e-16
  -9.21199209679e-16
  -9.08663474116e-16
  -8.96298325701e-16
  +1.81810530210e-12
  -8.72070536415e-16
  +1.81812920020e-12
  -8.48497647355e-16
  -8.36951239491e-16
  +1.81816384159e-12
  -8.14327658385e-16
  -8.03246237916e-16
  -7.92315614117e-16
  -7.81533734934e-16
  +1.81821850497e-12
  -7.60408141447e-16
  -7.50060461145e-16
  -1.81972925714e-12
  -7.29785619989e-16
  -7.19854652854e-16
  -7.10058826932e-16
  -7.00396303213e-16
  -6.90865267710e-16
  -6.81463931122e-16
  -6.72190528500e-16
  -1.81965244686e-12
  -6.54020585104e-16
  -1.81963452418e-12
  -1.81962574534e-12
  -6.27682414610e-16
  -6.19140874151e-16
  -6.10715567495e-16
  -6.02404912926e-16
  -5.94207350251e-16
  +1.81840328221e-12
  -5.78145365679e-16
  -5.70277928400e-16
  -5.62517551686e-16
  -5.54862778652e-16
  -5.47312172234e-16
  -5.39864314928e-16
  -5.32517808518e-16
  -5.25271273813e-16
  -5.18123350393e-16
  -5.11072696350e-16
  -5.04117988036e-16
  -1.81948666147e-12
  -4.90491203821e-16
  -4.83816569709e-16
  -4.77232764423e-16
  -4.70738551960e-16
  -4.64332713135e-16
  -4.58014045355e-16
  -4.51781362389e-16
  -4.45633494152e-16
  -1.81942897283e-12
  -4.33587600915e-16
  -4.27687314490e-16
  -4.21867319521e-16
  -4.16126523398e-16
  -1.81939986739e-12
  -4.04878231383e-16
  -3.99368623803e-16
  -3.93933991299e-16
  -3.88573313604e-16
  -3.83285584337e-16
  -3.78069810811e-16
  -3.72925013848e-16
  -3.67850227595e-16
  -3.62844499342e-16
  -3.57906889343e-16
  -3.53036470641e-16
  +1.81864117122e-12
  -3.43493562198e-16
  -3.38819280927e-16
  -3.34208607561e-16
  -3.29660676518e-16
  -3.25174633997e-16
  -3.20749637815e-16
  -3.16384857250e-16
  -3.12079472884e-16
  -3.07832676451e-16
  -3.03643670681e-16
  -2.99511669157e-16
  +1.81869396765e-12
  -2.91415586530e-16
  -2.87449985518e-16
  -2.83538348645e-16
  -2.79679941565e-16
  -2.75874039923e-16
  -2.72119929221e-16
  -2.68416904687e-16
  -2.64764271135e-16
  -2.61161342842e-16
  -2.57607443417e-16
  -2.54101905671e-16
  -2.50644071495e-16
  -2.47233291738e-16
  -2.43868926078e-16
  -2.40550342911e-16
  -2.37276919226e-16
  -2.34048040488e-16
  -2.30863100529e-16
  -2.27721501427e-16
  -2.24622653396e-16
  -2.21565974677e-16
  -2.18550891428e-16
  -2.15576837615e-16
  -2.12643254908e-16
  -2.09749592572e-16
  -2.06895307368e-16
  -2.04079863452e-16
  -2.01302732267e-16
  -1.98563392453e-16
  -1.95861329741e-16
  -1.93196036862e-16
  -1.90567013451e-16
  -1.87973765951e-16
  -1.85415807520e-16
  -1.82892657942e-16
  -1.80403843538e-16
  -1.77948897071e-16
  -1.75527357665e-16
  -1.73138770715e-16
  -1.70782687800e-16
  -1.68458666606e-16
  -1.66166270833e-16
  -1.63905070121e-16
  -1.61674639965e-16
  -1.59474561639e-16
  -1.57304422112e-16
  -1.55163813976e-16
  -1.53052335366e-16
  -1.50969589885e-16
  -1.48915186531e-16
  -1.46888739622e-16
  -1.44889868726e-16
  -1.42918198587e-16
  -1.40973359055e-16
  -1.39054985018e-16
  -1.37162716331e-16
  -1.35296197751e-16
  -1.33455078870e-16
  -1.31639014046e-16
  -1.29847662343e-16
  -1.28080687462e-16
  -1.26337757683e-16
  -1.24618545799e-16
  -1.22922729054e-16
  -1.21249989087e-16
  -1.19600011866e-16
  -1.17972487637e-16
  -1.16367110855e-16
  -1.14783580139e-16
  -1.13221598204e-16
  -1.11680871815e-16
  -9.09604862885e-13
  -1.08662032621e-16
  -1.07183353078e-16
  -1.05724795495e-16
  -1.04286086053e-16
  -9.09597568728e-13
  -9.09596168908e-13
  -1.00086363948e-16
  -9.87243826245e-17
  -9.73809352260e-17
  -9.60557695414e-17
  -9.47486367919e-17
  -9.34592915844e-17
  -9.21874918647e-17
  -9.09329988730e-17
  -8.96955770981e-17
  -8.84749942339e-17
  +9.09407430752e-13
  -8.60834317763e-17
  -8.49120032052e-17
  -8.37565155053e-17
  -8.26167517523e-17
  -8.14924979737e-17
  +9.09414318230e-13
  -7.92896789691e-17
  -7.82107001991e-17
  -7.71464042378e-17
  -7.60965912806e-17
  -7.50610642419e-17
  -7.40396287181e-17
  +9.09421669680e-13
  -7.20382677919e-17
  -7.10579666659e-17
  -7.00910055372e-17
  -6.91372028743e-17
  -6.81963796161e-17
  -6.72683591379e-17
  +9.09428348806e-13
  -6.54500320085e-17
  -6.45593839955e-17
  -9.09558382629e-13
  -6.28142830167e-17
  -6.19595024361e-17
  -6.11163537616e-17
  -6.02846787056e-17
  -5.94643211342e-17
  -5.86551270385e-17
  -5.78569445053e-17
  -5.70696236885e-17
  -5.62930167812e-17
  -5.55269779879e-17
  -5.47713634970e-17
  -5.40260314541e-17
  -5.32908419349e-17
  -5.25656569194e-17
  -5.18503402656e-17
  -5.11447576843e-17
  -5.04487767137e-17
</dep>
<dep VGEN.It time>
  -2.00000000000e-10
  -2.00000000000e-10
  -2.00000000000e-10
  -2.00000000000e-10
  -2.00000000000e-10
  -2.00000000000e-10
  -2.00000000000e-10
  -2.00000000000e-10
  -2.00000000000e-10
  -2.00000000000e-10
  -2.00000000000e-10
  -2.00000000000e-10
  -2.00000000000e-10
  -2.00000000000e-10
  -2.00000000000e-10
  -2.00000000000e-10
  -2.00000000000e-10
  -2.00000000000e-10
  -2.78421709430e-25
  -2.80795384874e-24
  -1.84996442377e-12
  -1.91555887165e-11
  -3.42863643086e-11
  -4.75280600553e-11
  -5.91296725110e-11
  -6.93075078637e-11
  -7.82491519934e-11
  -8.61172864803e-11
  -9.30529975528e-11
  -9.91786453508e-11
  -1.04600351930e-10
  -1.09410158670e-10
  -1.13687897009e-10
  -1.17502810605e-10
  -1.20914961952e-10
  -1.23976452086e-10
  -1.26732478227e-10
  -1.29222250886e-10
  -1.31479789107e-10
  -1.33534610049e-10
  -1.35412326934e-10
  -1.37135167552e-10
  -1.38722423864e-10
  -1.40190841870e-10
  -1.41554959670e-10
  -1.42827400618e-10
  -1.44019127513e-10
  -1.45139663022e-10
  -1.46197280822e-10
  -1.47199171334e-10
  -1.48151585451e-10
  -1.49059959159e-10
  -1.49929021613e-10
  -1.50762888843e-10
  -1.51565145018e-10
  -1.52338912920e-10
  -1.53086915040e-10
  -1.53811526578e-10
  -1.54514821387e-10
  -1.55198611824e-10
  -1.55864483306e-10
  -1.56513824277e-10
  -1.57147852191e-10
  -1.57767636057e-10
  -1.58374115972e-10
  -1.58968120083e-10
  -1.59550379279e-10
  -1.60121539941e-10
  -1.60682175005e-10
  -1.61232793545e-10
  -1.61773849096e-10
  -1.62305746869e-10
  -1.62828850008e-10
  -1.63343485021e-10
  -1.63849946491e-10
  -1.64348501158e-10
  -1.64839391470e-10
  -1.65322838656e-10
  -1.65799045397e-10
  -1.66268198141e-10
  -1.66730469120e-10
  -1.67186018089e-10
  -1.67634993843e-10
  -1.68077535540e-10
  -1.68513773835e-10
  -1.68943831880e-10
  -1.69367826184e-10
  -1.69785867365e-10
  -1.70198060801e-10
  -1.70604507198e-10
  -1.71005303084e-10
  -1.71400541239e-10
  -1.71790311069e-10
  -1.72174698934e-10
  -1.72553788429e-10
  -1.72927660638e-10
  -1.73296394346e-10
  -1.73660066232e-10
  -1.74018751033e-10
  -1.74372521692e-10
  -1.74721449484e-10
  -1.75065604130e-10
  -1.75405053893e-10
  -1.75739865669e-10
  -1.76070105061e-10
  -1.76395836448e-10
  -1.76717123049e-10
  -1.77034026970e-10
  -1.77346609260e-10
  -1.77654929947e-10
  -1.77959048082e-10
  -1.78259021770e-10
  -1.78554908207e-10
  -1.78846763700e-10
  -1.79134643702e-10
  -1.79418602830e-10
  -1.79698694889e-10
  -1.79974972894e-10
  -1.80247489083e-10
  -1.80516294941e-10
  -1.80781441214e-10
  -1.81042977921e-10
  -1.81300954372e-10
  -1.81555419183e-10
  -1.81806420282e-10
  -1.82054004930e-10
  -1.82298219725e-10
  -1.82539110619e-10
  -1.82776722924e-10
  -1.83011101327e-10
  -1.83242289895e-10
  -1.83470332090e-10
  -1.83695270772e-10
  -1.83917148215e-10
  -1.84136006111e-10
  -1.84351885580e-10
  -1.84564827179e-10
  -1.84774870908e-10
  -1.84982056222e-10
  -1.85186422035e-10
  -1.85388006730e-10
  -1.85586848164e-10
  -1.85782983681e-10
  -1.85976450111e-10
  -1.86167283784e-10
  -1.86355520533e-10
