<Qucs Dataset 0.0.17>
<indep time 401>
  +0.00000000000e+00
  +5.00000000000e-10
  +1.00000000000e-09
  +1.50000000000e-09
  +2.00000000000e-09
  +2.50000000000e-09
  +3.00000000000e-09
  +3.50000000000e-09
  +4.00000000000e-09
  +4.50000000000e-09
  +5.00000000000e-09
  +5.50000000000e-09
  +6.00000000000e-09
  +6.50000000000e-09
  +7.00000000000e-09
  +7.50000000000e-09
  +8.00000000000e-09
  +8.50000000000e-09
  +9.00000000000e-09
  +9.50000000000e-09
  +1.00000000000e-08
  +1.05000000000e-08
  +1.10000000000e-08
  +1.15000000000e-08
  +1.20000000000e-08
  +1.25000000000e-08
  +1.30000000000e-08
  +1.35000000000e-08
  +1.40000000000e-08
  +1.45000000000e-08
  +1.50000000000e-08
  +1.55000000000e-08
  +1.60000000000e-08
  +1.65000000000e-08
  +1.70000000000e-08
  +1.75000000000e-08
  +1.80000000000e-08
  +1.85000000000e-08
  +1.90000000000e-08
  +1.95000000000e-08
  +2.00000000000e-08
  +2.05000000000e-08
  +2.10000000000e-08
  +2.15000000000e-08
  +2.20000000000e-08
  +2.25000000000e-08
  +2.30000000000e-08
  +2.35000000000e-08
  +2.40000000000e-08
  +2.45000000000e-08
  +2.50000000000e-08
  +2.55000000000e-08
  +2.60000000000e-08
  +2.65000000000e-08
  +2.70000000000e-08
  +2.75000000000e-08
  +2.80000000000e-08
  +2.85000000000e-08
  +2.90000000000e-08
  +2.95000000000e-08
  +3.00000000000e-08
  +3.05000000000e-08
  +3.10000000000e-08
  +3.15000000000e-08
  +3.20000000000e-08
  +3.25000000000e-08
  +3.30000000000e-08
  +3.35000000000e-08
  +3.40000000000e-08
  +3.45000000000e-08
  +3.50000000000e-08
  +3.55000000000e-08
  +3.60000000000e-08
  +3.65000000000e-08
  +3.70000000000e-08
  +3.75000000000e-08
  +3.80000000000e-08
  +3.85000000000e-08
  +3.90000000000e-08
  +3.95000000000e-08
  +4.00000000000e-08
  +4.05000000000e-08
  +4.10000000000e-08
  +4.15000000000e-08
  +4.20000000000e-08
  +4.25000000000e-08
  +4.30000000000e-08
  +4.35000000000e-08
  +4.40000000000e-08
  +4.45000000000e-08
  +4.50000000000e-08
  +4.55000000000e-08
  +4.60000000000e-08
  +4.65000000000e-08
  +4.70000000000e-08
  +4.75000000000e-08
  +4.80000000000e-08
  +4.85000000000e-08
  +4.90000000000e-08
  +4.95000000000e-08
  +5.00000000000e-08
  +5.05000000000e-08
  +5.10000000000e-08
  +5.15000000000e-08
  +5.20000000000e-08
  +5.25000000000e-08
  +5.30000000000e-08
  +5.35000000000e-08
  +5.40000000000e-08
  +5.45000000000e-08
  +5.50000000000e-08
  +5.55000000000e-08
  +5.60000000000e-08
  +5.65000000000e-08
  +5.70000000000e-08
  +5.75000000000e-08
  +5.80000000000e-08
  +5.85000000000e-08
  +5.90000000000e-08
  +5.95000000000e-08
  +6.00000000000e-08
  +6.05000000000e-08
  +6.10000000000e-08
  +6.15000000000e-08
  +6.20000000000e-08
  +6.25000000000e-08
  +6.30000000000e-08
  +6.35000000000e-08
  +6.40000000000e-08
  +6.45000000000e-08
  +6.50000000000e-08
  +6.55000000000e-08
  +6.60000000000e-08
  +6.65000000000e-08
  +6.70000000000e-08
  +6.75000000000e-08
  +6.80000000000e-08
  +6.85000000000e-08
  +6.90000000000e-08
  +6.95000000000e-08
  +7.00000000000e-08
  +7.05000000000e-08
  +7.10000000000e-08
  +7.15000000000e-08
  +7.20000000000e-08
  +7.25000000000e-08
  +7.30000000000e-08
  +7.35000000000e-08
  +7.40000000000e-08
  +7.45000000000e-08
  +7.50000000000e-08
  +7.55000000000e-08
  +7.60000000000e-08
  +7.65000000000e-08
  +7.70000000000e-08
  +7.75000000000e-08
  +7.80000000000e-08
  +7.85000000000e-08
  +7.90000000000e-08
  +7.95000000000e-08
  +8.00000000000e-08
  +8.05000000000e-08
  +8.10000000000e-08
  +8.15000000000e-08
  +8.20000000000e-08
  +8.25000000000e-08
  +8.30000000000e-08
  +8.35000000000e-08
  +8.40000000000e-08
  +8.45000000000e-08
  +8.50000000000e-08
  +8.55000000000e-08
  +8.60000000000e-08
  +8.65000000000e-08
  +8.70000000000e-08
  +8.75000000000e-08
  +8.80000000000e-08
  +8.85000000000e-08
  +8.90000000000e-08
  +8.95000000000e-08
  +9.00000000000e-08
  +9.05000000000e-08
  +9.10000000000e-08
  +9.15000000000e-08
  +9.20000000000e-08
  +9.25000000000e-08
  +9.30000000000e-08
  +9.35000000000e-08
  +9.40000000000e-08
  +9.45000000000e-08
  +9.50000000000e-08
  +9.55000000000e-08
  +9.60000000000e-08
  +9.65000000000e-08
  +9.70000000000e-08
  +9.75000000000e-08
  +9.80000000000e-08
  +9.85000000000e-08
  +9.90000000000e-08
  +9.95000000000e-08
  +1.00000000000e-07
  +1.00500000000e-07
  +1.01000000000e-07
  +1.01500000000e-07
  +1.02000000000e-07
  +1.02500000000e-07
  +1.03000000000e-07
  +1.03500000000e-07
  +1.04000000000e-07
  +1.04500000000e-07
  +1.05000000000e-07
  +1.05500000000e-07
  +1.06000000000e-07
  +1.06500000000e-07
  +1.07000000000e-07
  +1.07500000000e-07
  +1.08000000000e-07
  +1.08500000000e-07
  +1.09000000000e-07
  +1.09500000000e-07
  +1.10000000000e-07
  +1.10500000000e-07
  +1.11000000000e-07
  +1.11500000000e-07
  +1.12000000000e-07
  +1.12500000000e-07
  +1.13000000000e-07
  +1.13500000000e-07
  +1.14000000000e-07
  +1.14500000000e-07
  +1.15000000000e-07
  +1.15500000000e-07
  +1.16000000000e-07
  +1.16500000000e-07
  +1.17000000000e-07
  +1.17500000000e-07
  +1.18000000000e-07
  +1.18500000000e-07
  +1.19000000000e-07
  +1.19500000000e-07
  +1.20000000000e-07
  +1.20500000000e-07
  +1.21000000000e-07
  +1.21500000000e-07
  +1.22000000000e-07
  +1.22500000000e-07
  +1.23000000000e-07
  +1.23500000000e-07
  +1.24000000000e-07
  +1.24500000000e-07
  +1.25000000000e-07
  +1.25500000000e-07
  +1.26000000000e-07
  +1.26500000000e-07
  +1.27000000000e-07
  +1.27500000000e-07
  +1.28000000000e-07
  +1.28500000000e-07
  +1.29000000000e-07
  +1.29500000000e-07
  +1.30000000000e-07
  +1.30500000000e-07
  +1.31000000000e-07
  +1.31500000000e-07
  +1.32000000000e-07
  +1.32500000000e-07
  +1.33000000000e-07
  +1.33500000000e-07
  +1.34000000000e-07
  +1.34500000000e-07
  +1.35000000000e-07
  +1.35500000000e-07
  +1.36000000000e-07
  +1.36500000000e-07
  +1.37000000000e-07
  +1.37500000000e-07
  +1.38000000000e-07
  +1.38500000000e-07
  +1.39000000000e-07
  +1.39500000000e-07
  +1.40000000000e-07
  +1.40500000000e-07
  +1.41000000000e-07
  +1.41500000000e-07
  +1.42000000000e-07
  +1.42500000000e-07
  +1.43000000000e-07
  +1.43500000000e-07
  +1.44000000000e-07
  +1.44500000000e-07
  +1.45000000000e-07
  +1.45500000000e-07
  +1.46000000000e-07
  +1.46500000000e-07
  +1.47000000000e-07
  +1.47500000000e-07
  +1.48000000000e-07
  +1.48500000000e-07
  +1.49000000000e-07
  +1.49500000000e-07
  +1.50000000000e-07
  +1.50500000000e-07
  +1.51000000000e-07
  +1.51500000000e-07
  +1.52000000000e-07
  +1.52500000000e-07
  +1.53000000000e-07
  +1.53500000000e-07
  +1.54000000000e-07
  +1.54500000000e-07
  +1.55000000000e-07
  +1.55500000000e-07
  +1.56000000000e-07
  +1.56500000000e-07
  +1.57000000000e-07
  +1.57500000000e-07
  +1.58000000000e-07
  +1.58500000000e-07
  +1.59000000000e-07
  +1.59500000000e-07
  +1.60000000000e-07
  +1.60500000000e-07
  +1.61000000000e-07
  +1.61500000000e-07
  +1.62000000000e-07
  +1.62500000000e-07
  +1.63000000000e-07
  +1.63500000000e-07
  +1.64000000000e-07
  +1.64500000000e-07
  +1.65000000000e-07
  +1.65500000000e-07
  +1.66000000000e-07
  +1.66500000000e-07
  +1.67000000000e-07
  +1.67500000000e-07
  +1.68000000000e-07
  +1.68500000000e-07
  +1.69000000000e-07
  +1.69500000000e-07
  +1.70000000000e-07
  +1.70500000000e-07
  +1.71000000000e-07
  +1.71500000000e-07
  +1.72000000000e-07
  +1.72500000000e-07
  +1.73000000000e-07
  +1.73500000000e-07
  +1.74000000000e-07
  +1.74500000000e-07
  +1.75000000000e-07
  +1.75500000000e-07
  +1.76000000000e-07
  +1.76500000000e-07
  +1.77000000000e-07
  +1.77500000000e-07
  +1.78000000000e-07
  +1.78500000000e-07
  +1.79000000000e-07
  +1.79500000000e-07
  +1.80000000000e-07
  +1.80500000000e-07
  +1.81000000000e-07
  +1.81500000000e-07
  +1.82000000000e-07
  +1.82500000000e-07
  +1.83000000000e-07
  +1.83500000000e-07
  +1.84000000000e-07
  +1.84500000000e-07
  +1.85000000000e-07
  +1.85500000000e-07
  +1.86000000000e-07
  +1.86500000000e-07
  +1.87000000000e-07
  +1.87500000000e-07
  +1.88000000000e-07
  +1.88500000000e-07
  +1.89000000000e-07
  +1.89500000000e-07
  +1.90000000000e-07
  +1.90500000000e-07
  +1.91000000000e-07
  +1.91500000000e-07
  +1.92000000000e-07
  +1.92500000000e-07
  +1.93000000000e-07
  +1.93500000000e-07
  +1.94000000000e-07
  +1.94500000000e-07
  +1.95000000000e-07
  +1.95500000000e-07
  +1.96000000000e-07
  +1.96500000000e-07
  +1.97000000000e-07
  +1.97500000000e-07
  +1.98000000000e-07
  +1.98500000000e-07
  +1.99000000000e-07
  +1.99500000000e-07
  +2.00000000000e-07
</indep>
<dep VDC.It time>
  +1.45519152284e-11
  -1.45519152284e-11
  +0.00000000000e+00
  +1.45519152284e-11
  -1.45519152284e-11
  +1.52375889683e-11
  +1.45519152284e-11
  -1.40936151639e-11
  +1.45519152284e-11
  +1.45519152284e-11
  -2.84217094190e-21
  +1.45519152284e-11
  +1.45519152284e-11
  -2.84217094190e-21
  +1.45519152284e-11
  +1.45519152284e-11
  -2.84217094190e-21
  -2.84217094190e-21
  +9.77706804408e-12
  -2.84217094186e-21
  +2.72326362391e-11
  -3.43721057300e-11
  +9.77140580193e-12
  -1.50491015148e-12
  -1.25168827689e-11
  -4.01157237144e-12
  -1.07797489012e-11
  -6.32809467179e-12
  -8.05155847313e-12
  -1.46190008155e-11
  -1.20991772050e-11
  -1.61359112747e-11
  -2.87824540348e-12
  -1.61039866465e-11
  -1.58312109785e-11
  -6.86723071494e-12
  -3.48644623500e-12
  +5.75367986974e-13
  -6.87295995757e-12
  -2.53352632094e-11
  -1.13031680204e-11
  -7.01334697821e-12
  -1.53868563106e-11
  -1.49709176351e-11
  -1.12086862156e-11
  -1.30855353747e-11
  +5.72501869308e-12
  -7.04594364803e-12
  -1.41973621661e-11
  -3.82027085288e-12
  -7.63141316445e-12
  -8.78415653539e-12
  -8.82442244496e-12
  -6.86602056564e-12
  -9.67635329789e-12
  -5.37153698774e-12
  -3.04052819335e-12
  -5.96801970712e-12
  -1.16803918039e-11
  -8.80232878193e-12
  -7.55944717111e-12
  -6.15695836610e-12
  -8.08605521427e-12
  -1.68281786996e-12
  -1.52976723693e-12
  -1.02740374282e-11
  +9.12060234127e-13
  +4.57582616753e-15
  -4.70185104826e-12
  -3.01248784356e-13
  +2.74840572604e-12
  -9.60318826843e-13
  -3.83248835942e-12
  -1.07420844210e-11
  -1.24339942774e-11
  -7.35597014318e-12
  -1.71235846308e-11
  -2.62242100056e-12
  -2.70868493610e-12
  -2.88426746143e-13
  +1.28289252353e-12
  -8.82966673410e-13
  -8.52641722306e-12
  -2.23247828025e-12
  -5.77866877171e-12
  -9.51107207322e-12
  -1.44556922094e-11
  -2.59515908802e-13
  -4.54457772975e-12
  -7.17532674111e-12
  -3.01869649221e-12
  -1.48978759794e-12
  -6.31598513615e-12
  -6.44233805752e-12
  -7.40941110795e-12
  -8.38879212381e-12
  -3.77492486530e-12
  -7.51428213844e-12
  -3.99281809023e-12
  -6.01640110415e-12
  +1.80510355617e-12
  -4.01751285959e-12
  -5.36262038895e-12
  -2.75186157963e-12
  -4.20891847847e-12
  -4.34120275959e-12
  +1.10816844343e-12
  -6.11280689332e-12
  -7.64790820905e-12
  -8.28680803882e-13
  -5.95043215241e-12
  -1.69814294842e-12
  -6.31890077125e-12
  -5.54447359104e-12
  -4.43253384869e-12
  -2.81032536495e-12
  -5.05175329822e-12
  -5.52548912781e-12
  -2.01003622486e-12
  -1.26440231006e-12
  -3.56670578112e-12
  -7.37535130180e-12
  -7.28268107007e-12
  -7.31634838676e-12
  -5.81898109199e-12
  -4.65682765019e-12
  -7.74183993454e-12
  -6.82082968920e-12
  -4.89496783424e-12
  -6.78378726806e-12
  -8.32494325726e-12
  -5.58285693916e-12
  -3.71629801370e-12
  -4.81390218765e-12
  -4.59726171150e-12
  -6.85916237426e-12
  -5.16001102324e-12
  -2.60935352547e-12
  -2.54356209028e-12
  -3.40993541825e-12
  -5.13316929921e-12
  -8.54692996002e-12
  -6.86734862902e-12
  -4.33767018050e-12
  -1.90371871195e-12
  -3.92142797653e-12
  -4.51442774525e-12
  -3.03546051344e-12
  -4.18007500490e-12
  -5.48108058391e-12
  -2.76552192561e-12
  -4.59291376674e-12
  -6.78939552048e-12
  -5.18066327224e-12
  -5.36904390333e-12
  -4.77098072163e-12
  -5.00890467717e-12
  -4.52159572914e-12
  -6.06751987053e-12
  -4.33296947113e-12
  -5.48620493911e-12
  -2.50741643138e-12
  -2.47357032465e-12
  -4.95791539161e-12
  -5.89534055115e-12
  -4.28990348941e-12
  -5.00016330685e-12
  -1.91353358769e-12
  -1.87736672292e-12
  -3.49636358916e-12
  -5.09065703500e-12
  -2.13786281232e-12
  -4.61032704296e-12
  -2.98276638921e-12
  -2.28148053721e-12
  -5.99766918257e-12
  -3.12713699084e-12
  -5.91432812173e-12
  -4.54812573670e-12
  -3.37111409441e-12
  -1.95072429214e-12
  -2.92363023369e-12
  -3.69661358308e-12
  -3.60883859360e-12
  -5.69400208874e-12
  -4.17478525510e-12
  -1.62957002700e-12
  -5.35446411486e-12
  -3.94381621769e-12
  -4.92056304065e-12
  -3.18813550843e-12
  -2.40358788765e-12
  -1.73308477332e-12
  -3.86682668126e-12
  -4.33249078639e-12
  -3.31866548305e-12
  -2.94636966966e-12
  -3.17632993535e-12
  -3.23006932940e-12
  -1.87412770980e-12
  -4.07074495922e-12
  -3.47009114121e-12
  -4.18129904705e-12
  -2.46888640254e-12
  -3.46472405103e-12
  -1.21599893048e-12
  -3.24157397727e-12
  -2.96293289445e-12
  -4.20369655712e-12
  -3.34079232695e-12
  -3.68584182256e-12
  -2.58170759824e-12
  -2.31643228828e-12
  -3.81362179877e-12
  -2.53972179915e-12
  -2.08959744273e-12
  -3.49997319868e-12
  -1.95251710037e-12
  -3.28685643253e-12
  -3.59379283370e-12
  -3.39773774226e-12
  -3.02397616615e-12
  -3.11025982665e-12
  -1.59410830067e-12
  -2.97828860512e-12
  -3.66521540890e-12
  -3.41090218136e-12
  -3.05122665464e-12
  -3.19453437635e-12
  -1.43631334279e-12
  -2.96049374405e-12
  -3.00325534381e-12
  -3.05340392522e-12
  -3.80378939397e-12
  -3.30389667939e-12
  -3.32631063371e-12
  -3.48342413987e-12
  -2.93274261001e-12
  -3.24747854508e-12
  -1.48165631437e-12
  -1.76617145861e-12
  -2.83166207962e-12
  -1.90228483772e-12
  -3.30749468935e-12
  -1.74165978900e-12
  -1.87504272852e-12
  -2.15342787062e-12
  -1.81828526365e-12
  -2.69733999843e-12
  -1.87177281511e-12
  -1.82277198754e-12
  -2.84293850098e-12
  -1.78573241104e-12
  -2.86572398004e-12
  -1.85612476463e-12
  -2.40285033985e-12
  -1.89893220190e-12
  -1.85844318025e-12
  -3.14165170277e-12
  -2.06124903389e-12
  -2.74579428744e-12
  -1.76357101608e-12
  -2.81661235913e-12
  -2.10352203980e-12
  -1.70610084218e-12
  -2.62602911781e-12
  -2.19849252693e-12
  -2.90291324331e-12
  -1.74744274612e-12
  -2.14923760872e-12
  -2.99210259790e-12
  -1.73866906979e-12
  -2.51637249936e-12
  -2.06291834742e-12
  -2.53026332364e-12
  -1.77860276425e-12
  -1.90288459419e-12
  -2.71002813029e-12
  -1.77576860231e-12
  -2.77221910312e-12
  -1.82545113499e-12
  -2.09583260483e-12
  -2.70777304472e-12
  -2.03243208020e-12
  -2.68994130548e-12
  -1.92865664260e-12
  -2.53909575038e-12
  -2.16737625317e-12
  -1.55751243668e-12
  -2.51926397166e-12
  -1.93115615930e-12
  -3.06653206158e-12
  -1.72375920927e-12
  -1.57395359140e-12
  -2.74966420477e-12
  -1.66013281539e-12
  -2.35997859221e-12
  -1.62780150561e-12
  -2.38123001681e-12
  -1.62611710582e-12
  -1.83943571372e-12
  -2.57066441043e-12
  -1.47918058210e-12
  -2.77550891448e-12
  -1.63201454251e-12
  -1.74752023942e-12
  -2.82754416370e-12
  -1.59327128489e-12
  -2.62443626185e-12
  -1.63314816382e-12
  -2.46007342082e-12
  -1.61302659469e-12
  -1.51148766562e-12
  -2.37220467196e-12
  -1.66918190416e-12
  -2.50387399594e-12
  -1.73912289200e-12
  -1.43889653970e-12
  -2.36682349388e-12
  -1.74798392809e-12
  -2.39227898123e-12
  -1.46785614446e-12
  -2.55902008984e-12
  -1.57617081573e-12
  -1.59904198311e-12
  -2.69462409147e-12
  -1.74663479297e-12
  -2.45285574810e-12
  -1.56902581664e-12
  -2.39494273076e-12
  -1.67916101522e-12
  -1.42110736176e-12
  -2.58277794354e-12
  -1.86998034077e-12
  -2.24126111466e-12
  -1.63869852278e-12
  -1.63520811121e-12
  -2.66680144887e-12
  -1.32541878854e-12
  -2.44526148008e-12
  -1.74423340721e-12
  -2.66380428986e-12
  -1.47603440127e-12
  -1.79996311205e-12
  -2.40869599056e-12
  -1.71292990590e-12
  -2.53580064623e-12
  -1.76738111435e-12
  -1.71915466781e-12
  -2.45015398886e-12
  -1.53958782061e-12
  -2.29360996995e-12
  -1.59503892626e-12
  -2.36627784105e-12
  -1.56824810990e-12
  -1.51223010971e-12
  -2.49864083459e-12
  -1.65174418296e-12
  -2.42671312994e-12
  -1.60669802662e-12
  -1.73732483399e-12
  -2.45807410032e-12
  -1.63914968683e-12
  -2.40874676868e-12
  -1.67778699141e-12
  -2.45362441636e-12
  -1.61871079566e-12
  -1.54796962765e-12
  -2.46335664117e-12
  -1.63449953466e-12
  -2.51627787037e-12
  -1.62865176703e-12
  -1.53117255876e-12
  -2.40305167609e-12
  -1.55643916803e-12
  -2.45676402410e-12
  -1.62032641503e-12
  -2.37751076793e-12
  -1.60695317004e-12
  -1.57673633635e-12
  -2.50500743849e-12
  -1.59364025308e-12
  -2.38963597029e-12
  -1.67560998071e-12
  -1.69112718837e-12
  -2.38423373148e-12
  -1.68146347341e-12
  -2.37299735933e-12
  -1.58952574403e-12
  -2.43738593074e-12
  -1.48590483221e-12
  -1.62467000840e-12
  -2.44988668268e-12
  -1.57532931788e-12
  -2.35594137828e-12
  -1.60965707804e-12
  -2.40006541593e-12
  -1.53441095588e-12
  -1.60018798341e-12
  -2.35691547199e-12
  -1.62076299624e-12
</dep>
<dep VGEN.It time>
  -1.99999999920e-07
  -2.00011368604e-07
  -2.00011368604e-07
  -1.99999999920e-07
  -2.00011368604e-07
  -1.99999999920e-07
  -1.99999999920e-07
  -1.99999999920e-07
  -1.99999999920e-07
  -1.99999999920e-07
  -2.00011368604e-07
  -1.99999999920e-07
  -1.99999999920e-07
  -2.00011368604e-07
  -1.99999999920e-07
  -1.99999999920e-07
  -2.00011368604e-07
  -2.00011368604e-07
  -2.50036379687e-19
  -2.75004461567e-18
  -1.84996442822e-09
  -1.91555887158e-08
  -3.42863643034e-08
  -4.75280600460e-08
  -5.91296724980e-08
  -6.93075078475e-08
  -7.82491519742e-08
  -8.61172864585e-08
  -9.30529975286e-08
  -9.91786453245e-08
  -1.04600351902e-07
  -1.09410158641e-07
  -1.13687896978e-07
  -1.17502810572e-07
  -1.20914961918e-07
  -1.23976452051e-07
  -1.26732478191e-07
  -1.29222250849e-07
  -1.31479789069e-07
  -1.33534610010e-07
  -1.35412326894e-07
  -1.37135167512e-07
  -1.38722423824e-07
  -1.40190841828e-07
  -1.41554959628e-07
  -1.42827400576e-07
  -1.44019127470e-07
  -1.45139662979e-07
  -1.46197280778e-07
  -1.47199171290e-07
  -1.48151585406e-07
  -1.49059959115e-07
  -1.49929021568e-07
  -1.50762888797e-07
  -1.51565144973e-07
  -1.52338912874e-07
  -1.53086914994e-07
  -1.53811526531e-07
  -1.54514821340e-07
  -1.55198611776e-07
  -1.55864483259e-07
  -1.56513824229e-07
  -1.57147852143e-07
  -1.57767636008e-07
  -1.58374115924e-07
  -1.58968120034e-07
  -1.59550379230e-07
  -1.60121539892e-07
  -1.60682174955e-07
  -1.61232793495e-07
  -1.61773849046e-07
  -1.62305746818e-07
  -1.62828849957e-07
  -1.63343484971e-07
  -1.63849946440e-07
  -1.64348501107e-07
  -1.64839391419e-07
  -1.65322838604e-07
  -1.65799045345e-07
  -1.66268198089e-07
  -1.66730469068e-07
  -1.67186018036e-07
  -1.67634993791e-07
  -1.68077535487e-07
  -1.68513773782e-07
  -1.68943831827e-07
  -1.69367826131e-07
  -1.69785867311e-07
  -1.70198060747e-07
  -1.70604507143e-07
  -1.71005303029e-07
  -1.71400541184e-07
  -1.71790311014e-07
  -1.72174698878e-07
  -1.72553788374e-07
  -1.72927660582e-07
  -1.73296394290e-07
  -1.73660066176e-07
  -1.74018750977e-07
  -1.74372521636e-07
  -1.74721449428e-07
  -1.75065604073e-07
  -1.75405053836e-07
  -1.75739865612e-07
  -1.76070105003e-07
  -1.76395836391e-07
  -1.76717122991e-07
  -1.77034026912e-07
  -1.77346609202e-07
  -1.77654929889e-07
  -1.77959048023e-07
  -1.78259021712e-07
  -1.78554908148e-07
  -1.78846763641e-07
  -1.79134643643e-07
  -1.79418602770e-07
  -1.79698694830e-07
  -1.79974972834e-07
  -1.80247489023e-07
  -1.80516294881e-07
  -1.80781441154e-07
  -1.81042977860e-07
  -1.81300954312e-07
  -1.81555419122e-07
  -1.81806420221e-07
  -1.82054004869e-07
  -1.82298219664e-07
  -1.82539110557e-07
  -1.82776722862e-07
  -1.83011101265e-07
  -1.83242289833e-07
  -1.83470332027e-07
  -1.83695270710e-07
  -1.83917148153e-07
  -1.84136006049e-07
  -1.84351885517e-07
  -1.84564827116e-07
  -1.84774870845e-07
  -1.84982056158e-07
  -1.85186421971e-07
  -1.85388006666e-07
  -1.85586848101e-07
  -1.85782983617e-07
  -1.85976450047e-07
  -1.86167283719e-07
  -1.86355520469e-07
