<Qucs Dataset 0.0.19>
<indep QL 1>
  +1.00000000000000000000e+01
</indep>
<indep Qc 1>
  +2.00000000000000000000e+01
</indep>
<indep frequency 200>
  +0.00000000000000000000e+00
  +1.00502512562814075500e+07
  +2.01005025125628151000e+07
  +3.01507537688442245126e+07
  +4.02010050251256301999e+07
  +5.02512562814070358872e+07
  +6.03015075376884490252e+07
  +7.03517587939698547125e+07
  +8.04020100502512603998e+07
  +9.04522613065326660872e+07
  +1.00502512562814071774e+08
  +1.10552763819095477462e+08
  +1.20603015075376898050e+08
  +1.30653266331658303738e+08
  +1.40703517587939709425e+08
  +1.50753768844221115112e+08
  +1.60804020100502520800e+08
  +1.70854271356783926487e+08
  +1.80904522613065332174e+08
  +1.90954773869346737862e+08
  +2.01005025125628143549e+08
  +2.11055276381909549236e+08
  +2.21105527638190954924e+08
  +2.31155778894472360611e+08
  +2.41206030150753796101e+08
  +2.51256281407035201788e+08
  +2.61306532663316607475e+08
  +2.71356783919597983360e+08
  +2.81407035175879418850e+08
  +2.91457286432160794735e+08
  +3.01507537688442230225e+08
  +3.11557788944723606110e+08
  +3.21608040201005041599e+08
  +3.31658291457286477089e+08
  +3.41708542713567852974e+08
  +3.51758793969849288464e+08
  +3.61809045226130664349e+08
  +3.71859296482412099838e+08
  +3.81909547738693475723e+08
  +3.91959798994974911213e+08
  +4.02010050251256287098e+08
  +4.12060301507537722588e+08
  +4.22110552763819098473e+08
  +4.32160804020100533962e+08
  +4.42211055276381909847e+08
  +4.52261306532663345337e+08
  +4.62311557788944721222e+08
  +4.72361809045226156712e+08
  +4.82412060301507592201e+08
  +4.92462311557788968086e+08
  +5.02512562814070403576e+08
  +5.12562814070351779461e+08
  +5.22613065326633214951e+08
  +5.32663316582914590836e+08
  +5.42713567839195966721e+08
  +5.52763819095477461815e+08
  +5.62814070351758837700e+08
  +5.72864321608040213585e+08
  +5.82914572864321589470e+08
  +5.92964824120603084564e+08
  +6.03015075376884460449e+08
  +6.13065326633165836334e+08
  +6.23115577889447212219e+08
  +6.33165829145728707314e+08
  +6.43216080402010083199e+08
  +6.53266331658291459084e+08
  +6.63316582914572954178e+08
  +6.73366834170854330063e+08
  +6.83417085427135705948e+08
  +6.93467336683417081833e+08
  +7.03517587939698576927e+08
  +7.13567839195979952812e+08
  +7.23618090452261328697e+08
  +7.33668341708542704582e+08
  +7.43718592964824199677e+08
  +7.53768844221105575562e+08
  +7.63819095477386951447e+08
  +7.73869346733668327332e+08
  +7.83919597989949822426e+08
  +7.93969849246231198311e+08
  +8.04020100502512574196e+08
  +8.14070351758794069290e+08
  +8.24120603015075445175e+08
  +8.34170854271356821060e+08
  +8.44221105527638196945e+08
  +8.54271356783919692039e+08
  +8.64321608040201067924e+08
  +8.74371859296482443810e+08
  +8.84422110552763819695e+08
  +8.94472361809045314789e+08
  +9.04522613065326690674e+08
  +9.14572864321608066559e+08
  +9.24623115577889442444e+08
  +9.34673366834170937538e+08
  +9.44723618090452313423e+08
  +9.54773869346733689308e+08
  +9.64824120603015184402e+08
  +9.74874371859296560287e+08
  +9.84924623115577936172e+08
  +9.94974874371859312057e+08
  +1.00502512562814080715e+09
  +1.01507537688442218304e+09
  +1.02512562814070355892e+09
  +1.03517587939698493481e+09
  +1.04522613065326642990e+09
  +1.05527638190954780579e+09
  +1.06532663316582918167e+09
  +1.07537688442211055756e+09
  +1.08542713567839193344e+09
  +1.09547738693467330933e+09
  +1.10552763819095492363e+09
  +1.11557788944723629951e+09
  +1.12562814070351767540e+09
  +1.13567839195979905128e+09
  +1.14572864321608042717e+09
  +1.15577889447236180305e+09
  +1.16582914572864317894e+09
  +1.17587939698492479324e+09
  +1.18592964824120616913e+09
  +1.19597989949748754501e+09
  +1.20603015075376892090e+09
  +1.21608040201005029678e+09
  +1.22613065326633167267e+09
  +1.23618090452261304855e+09
  +1.24623115577889442444e+09
  +1.25628140703517603874e+09
  +1.26633165829145741463e+09
  +1.27638190954773879051e+09
  +1.28643216080402016640e+09
  +1.29648241206030154228e+09
  +1.30653266331658291817e+09
  +1.31658291457286429405e+09
  +1.32663316582914590836e+09
  +1.33668341708542728424e+09
  +1.34673366834170866013e+09
  +1.35678391959799003601e+09
  +1.36683417085427141190e+09
  +1.37688442211055278778e+09
  +1.38693467336683416367e+09
  +1.39698492462311553955e+09
  +1.40703517587939715385e+09
  +1.41708542713567852974e+09
  +1.42713567839195990562e+09
  +1.43718592964824128151e+09
  +1.44723618090452265739e+09
  +1.45728643216080403328e+09
  +1.46733668341708540916e+09
  +1.47738693467336702347e+09
  +1.48743718592964839935e+09
  +1.49748743718592977524e+09
  +1.50753768844221115112e+09
  +1.51758793969849252701e+09
  +1.52763819095477390289e+09
  +1.53768844221105527878e+09
  +1.54773869346733665466e+09
  +1.55778894472361826897e+09
  +1.56783919597989964485e+09
  +1.57788944723618102074e+09
  +1.58793969849246239662e+09
  +1.59798994974874377251e+09
  +1.60804020100502514839e+09
  +1.61809045226130652428e+09
  +1.62814070351758813858e+09
  +1.63819095477386951447e+09
  +1.64824120603015089035e+09
  +1.65829145728643226624e+09
  +1.66834170854271364212e+09
  +1.67839195979899501801e+09
  +1.68844221105527639389e+09
  +1.69849246231155776978e+09
  +1.70854271356783938408e+09
  +1.71859296482412075996e+09
  +1.72864321608040213585e+09
  +1.73869346733668351173e+09
  +1.74874371859296488762e+09
  +1.75879396984924626350e+09
  +1.76884422110552763939e+09
  +1.77889447236180925369e+09
  +1.78894472361809062958e+09
  +1.79899497487437200546e+09
  +1.80904522613065338135e+09
  +1.81909547738693475723e+09
  +1.82914572864321613312e+09
  +1.83919597989949750900e+09
  +1.84924623115577888489e+09
  +1.85929648241206049919e+09
  +1.86934673366834187508e+09
  +1.87939698492462325096e+09
  +1.88944723618090462685e+09
  +1.89949748743718600273e+09
  +1.90954773869346737862e+09
  +1.91959798994974875450e+09
  +1.92964824120603036880e+09
  +1.93969849246231174469e+09
  +1.94974874371859312057e+09
  +1.95979899497487449646e+09
  +1.96984924623115587234e+09
  +1.97989949748743724823e+09
  +1.98994974874371862411e+09
  +2.00000000000000000000e+09
</indep>
<dep S11_dB frequency>
  +nan
  -1.96401831796820900422e+01
  -1.96735579392035795365e+01
  -1.97293521601658383702e+01
  -1.98078205050994782255e+01
  -1.99093197169686213499e+01
  -2.00343082201088371619e+01
  -2.01833446073270934562e+01
  -2.03570840261271825966e+01
  -2.05562709420814258010e+01
  -2.07817259491101360425e+01
  -2.10343230692588463171e+01
  -2.13149521199647082881e+01
  -2.16244579026388130671e+01
  -2.19635437248874154648e+01
  -2.23326205058892668376e+01
  -2.27315737581729173655e+01
  -2.31594086893727215681e+01
  -2.36137194072480873785e+01
  -2.40899164315044060913e+01
  -2.45801513747916118291e+01
  -2.50719315748550251044e+01
  -2.55465825379811732887e+01
  -2.59780720457396725465e+01
  -2.63332603056806320296e+01
  -2.65750676482116503507e+01
  -2.66694933455374361131e+01
  -2.65950569428087568724e+01
  -2.63501703303308687509e+01
  -2.59537381618046936183e+01
  -2.54385675992889979113e+01
  -2.48418941127417340908e+01
  -2.41978243303522262408e+01
  -2.35336105408499705050e+01
  -2.28690585895197884270e+01
  -2.22175714838552629260e+01
  -2.15876771461034309141e+01
  -2.09844532721008327769e+01
  -2.04106517138610072948e+01
  -1.98675137634657019703e+01
  -1.93553336735961529769e+01
  -1.88738371238294817545e+01
  -1.84224308194749610834e+01
  -1.80003650816852314165e+01
  -1.76068388001765470108e+01
  -1.72410667159623258726e+01
  -1.69023223856371203055e+01
  -1.65899656885016533181e+01
  -1.63034607511372229283e+01
  -1.60423882018775252334e+01
  -1.58064543908998267341e+01
  -1.55954993904936305427e+01
  -1.54095050725036397665e+01
  -1.52486042472916150103e+01
  -1.51130916778640784770e+01
  -1.50034377150762150421e+01
  -1.49203053122880895387e+01
  -1.48645712590753156235e+01
  -1.48373526203075201124e+01
  -1.48400395817878631988e+01
  -1.48743361932484710053e+01
  -1.49423108709353158474e+01
  -1.50464589760410927255e+01
  -1.51897803003543145905e+01
  -1.53758747863334654937e+01
  -1.56090600617003687489e+01
  -1.58945138156382697048e+01
  -1.62384413228109316663e+01
  -1.66482602742741008228e+01
  -1.71327736740289360284e+01
  -1.77022478771813815968e+01
  -1.83681799700351895410e+01
  -1.91422102589996754318e+01
  -2.00328291901411184028e+01
  -2.10366289960353647359e+01
  -2.21170572732132768579e+01
  -2.31604571105222980520e+01
  -2.39201245120483250162e+01
  -2.40575812966090865075e+01
  -2.34149468154744475612e+01
  -2.22026120186380140353e+01
  -2.07627792487076909822e+01
  -1.93263672165880180387e+01
  -1.79980374064873913653e+01
  -1.68140556955277276074e+01
  -1.57828210562602837541e+01
  -1.49041340282034813214e+01
  -1.41775555393093242174e+01
  -1.36063842519168094469e+01
  -1.32003982030681310533e+01
  -1.29790550467864758133e+01
  -1.29766214473026852971e+01
  -1.32514989831710057189e+01
  -1.39045626008146783192e+01
  -1.51185778524496328146e+01
  -1.72524076936567212215e+01
  -2.10580726354986467186e+01
  -2.62167811718836993862e+01
  -2.20695033139889602580e+01
  -1.81338492303280744977e+01
  -1.86431504226567845706e+01
  -1.52102155902942808297e+01
  -6.25158519664999356991e+00
  -3.03912539686093374769e+00
  -1.88033277277587762555e+00
  -1.33857372407419905613e+00
  -1.02864485415670059432e+00
  -8.29062213853172025324e-01
  -6.90836760349703205009e-01
  -5.90123298103836679829e-01
  -5.13814552080750108765e-01
  -4.54125043014779405937e-01
  -4.06179247379418462138e-01
  -3.66800231622143924071e-01
  -3.33849284984815919408e-01
  -3.05844958786801124351e-01
  -2.81734066247835368557e-01
  -2.60749575148250867240e-01
  -2.42320082345003046109e-01
  -2.26010824440878471675e-01
  -2.11484444861818332573e-01
  -1.98474400878176582275e-01
  -1.86766610946483668787e-01
  -1.76186567596732290841e-01
  -1.66590134542990847555e-01
  -1.57856865848665539609e-01
  -1.49885077484409073856e-01
  -1.42588154312443787797e-01
  -1.35891740548546968714e-01
  -1.29731570956469977052e-01
  -1.24051773210004170900e-01
  -1.18803521491394975529e-01
  -1.13943955449612721598e-01
  -1.09435302272747170260e-01
  -1.05244156207612168941e-01
  -1.01340881619298717187e-01
  -9.76991141136321489258e-02
  -9.42953403553099672729e-02
  -9.11085416891316141053e-02
  -8.81198899845574284972e-02
  -8.53124866015859961710e-02
  -8.26711372499234348199e-02
  -8.01821569441674014689e-02
  -7.78332003623885410049e-02
  -7.56131137761597293956e-02
  -7.35118053975282459422e-02
  -7.15201315266565107454e-02
  -6.96297963149735965604e-02
  -6.78332633074889418401e-02
  -6.61236772119216248411e-02
  -6.44947945754800744389e-02
  -6.29409222429532927423e-02
  -6.14568626303216916651e-02
  -6.00378649822721974227e-02
  -5.86795818952216483022e-02
  -5.73780304830367945956e-02
  -5.61295576440549240371e-02
  -5.49308089574409089129e-02
  -5.37787007963758945106e-02
  -5.26703952968669286694e-02
  -5.16032778650557105715e-02
  -5.05749369442021964871e-02
  -4.95831457956655979880e-02
  -4.86258460771094649933e-02
  -4.77011330263377997252e-02
  -4.68072420811034700661e-02
  -4.59425367847050222792e-02
  -4.51054978437653991685e-02
  -4.42947132198705864625e-02
  -4.35088691493472692895e-02
  -4.27467419974980750164e-02
  -4.20071908633036644742e-02
  -4.12891508600357060033e-02
  -4.05916270048118851821e-02
  -3.99136886575311364278e-02
  -3.92544644555982702450e-02
  -3.86131376965746508922e-02
  -3.79889421258585158192e-02
  -3.73811580907540547125e-02
  -3.67891090263724879206e-02
  -3.62121582421658788631e-02
  -3.56497059812319883054e-02
  -3.51011867269599292518e-02
  -3.45660667344958524860e-02
  -3.40438417664443646049e-02
  -3.35340350143274595895e-02
  -3.30361951891142771598e-02
  -3.25498947657395787392e-02
  -3.20747283679933478662e-02
  -3.16103112813299474970e-02
  -3.11562780825888202552e-02
  -3.07122813763158926392e-02
  -3.02779906286394610848e-02
  -2.98530910902703588983e-02
  -2.94372828011404616411e-02
  -2.90302796696713036328e-02
  -2.86318086206171426578e-02
  -2.82416088056076271251e-02
  -2.78594308713165164648e-02
  -2.74850362805294720636e-02
</dep>
<dep S22_dB frequency>
  +nan
  -1.87374290972761805563e+01
  -1.87695264722101313737e+01
  -1.88232126860782607025e+01
  -1.88987762723131567100e+01
  -1.89966264943544018706e+01
  -1.91172986912726372566e+01
  -1.92614611636497947700e+01
  -1.94299235511032293289e+01
  -1.96236465578734780024e+01
  -1.98437527041980530385e+01
  -2.00915374612703274693e+01
  -2.03684795691724893629e+01
  -2.06762483747318768224e+01
  -2.10167043764857730537e+01
  -2.13918863399456782304e+01
  -2.18039735101088183455e+01
  -2.22552031633227151985e+01
  -2.27477095811001390757e+01
  -2.32832265394805695280e+01
  -2.38625556472919839734e+01
  -2.44846401355000331534e+01
  -2.51449953413582214523e+01
  -2.58331572444190342708e+01
  -2.65288345272985353063e+01
  -2.71969327061594547956e+01
  -2.77832517820113302776e+01
  -2.82158924640104231685e+01
  -2.84197539780608892102e+01
  -2.83450369573237246357e+01
  -2.79928815578369238892e+01
  -2.74147647232430600184e+01
  -2.66862668862157974559e+01
  -2.58789168922228363101e+01
  -2.50462958329435707583e+01
  -2.42229839461655771515e+01
  -2.34289571440914734524e+01
  -2.26745380444777779871e+01
  -2.19641927855443164219e+01
  -2.12990393076487514179e+01
  -2.06783877549974768328e+01
  -2.01006491191289882181e+01
  -1.95638572110533779380e+01
  -1.90659615265820150398e+01
  -1.86049868368602631108e+01
  -1.81791163193157032651e+01
  -1.77867315393822131853e+01
  -1.74264287360640892643e+01
  -1.70970227697026579960e+01
  -1.67975453804245162814e+01
  -1.65272416751469179985e+01
  -1.62855671913603927692e+01
  -1.60721870037342000614e+01
  -1.58869778721432357571e+01
  -1.57300342214523745099e+01
  -1.56016787083670021019e+01
  -1.55024782258444044913e+01
  -1.54332664066342939435e+01
  -1.53951740223420845410e+01
  -1.53896691620509429299e+01
  -1.54186097690546493055e+01
  -1.54843121040694224888e+01
  -1.55896401282771552843e+01
  -1.57381228802412280743e+01
  -1.59341100073286519034e+01
  -1.61829802663306452359e+01
  -1.64914249368033729581e+01
  -1.68678391599186596750e+01
  -1.73228715482624053834e+01
  -1.78702094468850170017e+01
  -1.85277179527653821367e+01
  -1.93191046645309754126e+01
  -2.02763176293009337314e+01
  -2.14427127435886220042e+01
  -2.28756919887782750322e+01
  -2.46401658055570180750e+01
  -2.67463847002602328473e+01
  -2.88317448382027627929e+01
  -2.94812061469472013187e+01
  -2.77624916958406551259e+01
  -2.51734188585426643670e+01
  -2.27709442799722125983e+01
  -2.07397359465780013466e+01
  -1.90430422944401094298e+01
  -1.76226187159371932012e+01
  -1.64331019345590476632e+01
  -1.54440806353658857120e+01
  -1.46376613175881153950e+01
  -1.40066354223142948143e+01
  -1.35541248190906316040e+01
  -1.32950506178875684782e+01
  -1.32601528583551004914e+01
  -1.35043021825789431034e+01
  -1.41231240626478680156e+01
  -1.52873454140723872285e+01
  -1.73144977420071910501e+01
  -2.07365507078164839072e+01
  -2.42714523904614409844e+01
  -2.06861983316581508063e+01
  -1.67633891583579845985e+01
  -1.48432184218807012854e+01
  -1.06908510488828039087e+01
  -4.99035432689510294324e+00
  -2.54985455284385320596e+00
  -1.64906736658486030578e+00
  -1.22210721766489882611e+00
  -9.72873781267155735009e-01
  -8.09093490001443704784e-01
  -6.93592029893729367096e-01
  -6.08054052998272753783e-01
  -5.42250583446055811621e-01
  -4.90019608546660767612e-01
  -4.47460479101512431654e-01
  -4.12011700525917623494e-01
  -3.81939263745416868190e-01
  -3.56036993988646299769e-01
  -3.33444337680175117988e-01
  -3.13532360204187732222e-01
  -2.95830734641818637876e-01
  -2.79980018222653503912e-01
  -2.65699868884761603027e-01
  -2.52767499245679205799e-01
  -2.41002817426177518012e-01
  -2.30258004822479350748e-01
  -2.20410082428641296293e-01
  -2.11355519645599926326e-01
  -2.03006259140080663750e-01
  -1.95286737517695319077e-01
  -1.88131616320688088706e-01
  -1.81484026986829083405e-01
  -1.75294193043447177338e-01
  -1.69518333164280499137e-01
  -1.64117776322172836956e-01
  -1.59058239358313008305e-01
  -1.54309230628368043714e-01
  -1.49843552808882840566e-01
  -1.45636884674514133220e-01
  -1.41667426512194827293e-01
  -1.37915597381394278154e-01
  -1.34363775042967176221e-01
  -1.30996071329826963003e-01
  -1.27798137203071260348e-01
  -1.24756992860343987606e-01
  -1.21860879128700153040e-01
  -1.19099127049540537415e-01
  -1.16462043095742540100e-01
  -1.13940807884624822899e-01
  -1.11527386591637495128e-01
  -1.09214449545966874044e-01
  -1.06995301716131197001e-01
  -1.04863819980311329116e-01
  -1.02814397231874438132e-01
  -1.00841892500586491344e-01
  -9.89415863797059313978e-02
  -9.71091411422595474079e-02
  -9.53405650086305705981e-02
  -9.36321800956973204766e-02
  -9.19805936355343883859e-02
  -9.03826721022974177711e-02
  -8.88355179289436747148e-02
  -8.73364485334505447067e-02
  -8.58829774067675077998e-02
  -8.44727970434900610197e-02
  -8.31037635212731884415e-02
  -8.17738825568576910285e-02
  -8.04812968859913019370e-02
  -7.92242748312711742020e-02
  -7.80011999370828906786e-02
  -7.68105615638167982251e-02
  -7.56509463452460922950e-02
  -7.45210304232517550815e-02
  -7.34195723831966712281e-02
  -7.23454068212824180639e-02
  -7.12974384825243862052e-02
  -7.02746369142199789337e-02
  -6.92760315855543568064e-02
  -6.83007074290646609693e-02
  -6.73478007640624654062e-02
  -6.64164955663022610333e-02
  -6.55060200516075774591e-02
  -6.46156435445386090333e-02
  -6.37446736058990132134e-02
  -6.28924533955707992794e-02
  -6.20583592493687413727e-02
  -6.12417984507885523882e-02
  -6.04422071801826513160e-02
  -5.96590486258107358108e-02
  -5.88918112424529488491e-02
  -5.81400071447772670563e-02
  -5.74031706238615282989e-02
  -5.66808567761989540168e-02
  -5.59726402357030305978e-02
  -5.52781139999379486638e-02
  -5.45968883427560836008e-02
  -5.39285898060512108865e-02
  -5.32728602641852899691e-02
  -5.26293560550598130132e-02
  -5.19977471724959589006e-02
  -5.13777165148851105991e-02
  -5.07689591857183319945e-02
</dep>
<dep S21_dB frequency>
  +nan
  -2.38511801458223593464e-01
  -2.38183562539179272122e-01
  -2.37640980981966842833e-01
  -2.36890756866724061513e-01
  -2.35942220436224203706e-01
  -2.34807281982922083641e-01
  -2.33500367080512055695e-01
  -2.32038336924907329095e-01
  -2.30440393517533870238e-01
  -2.28727969403296538253e-01
  -2.26924601669605957577e-01
  -2.25055789922074783727e-01
  -2.23148837980122222158e-01
  -2.21232679082174032992e-01
  -2.19337684457858672626e-01
  -2.17495455213866956123e-01
  -2.15738597592901260036e-01
  -2.14100481800411912570e-01
  -2.12614984753545233076e-01
  -2.11316217288302660160e-01
  -2.10238236565580854931e-01
  -2.09414744640758737626e-01
  -2.08878774404825551247e-01
  -2.08662364363118912891e-01
  -2.08796223988065271504e-01
  -2.09309391661495092229e-01
  -2.10228887504227551775e-01
  -2.11579363672941139773e-01
  -2.13382754980166705616e-01
  -2.15657932959221865232e-01
  -2.18420366745895655480e-01
  -2.21681794379790853000e-01
  -2.25449908335585591512e-01
  -2.29728059276509299913e-01
  -2.34514982176777520007e-01
  -2.39804549087321045020e-01
  -2.45585552921150918060e-01
  -2.51841526715046393203e-01
  -2.58550602888701630544e-01
  -2.65685417078440122562e-01
  -2.73213061180379190862e-01
  -2.81095090309491868474e-01
  -2.89287588479643087425e-01
  -2.97741297951240491138e-01
  -3.06401817393732123218e-01
  -3.15209874287298796869e-01
  -3.24101677357550854719e-01
  -3.33009355317069100089e-01
  -3.41861488788618439472e-01
  -3.50583743020847549143e-01
  -3.59099609879608150376e-01
  -3.67331268605525562698e-01
  -3.75200575956192161620e-01
  -3.82630197570027696941e-01
  -3.89544893647282342020e-01
  -3.95872973266952365989e-01
  -4.01547932729417578201e-01
  -4.06510294073669564696e-01
  -4.10709660140458954203e-01
